 (000.000000)  can0  100   [6]  46 00 C1 01 00 00
 (000.000794)  can0  102   [6]  56 06 03 06 2C 06
 (000.009894)  can0  100   [6]  46 00 C1 01 00 00
 (000.010569)  can0  101   [4]  FD FF FD FF
 (000.011377)  can0  102   [6]  6A 06 17 06 2C 06
 (000.011899)  can0  103   [2]  01 02
 (000.012747)  can0  104   [6]  00 00 00 00 00 00
 (000.013206)  can0  1FF   [1]  D5
 (000.019772)  can0  100   [6]  46 00 C2 01 00 00
 (000.020578)  can0  102   [6]  56 06 03 06 2C 06
 (000.029692)  can0  100   [6]  46 00 C3 01 00 00
 (000.030547)  can0  102   [6]  6A 06 17 06 2C 06
 (000.039566)  can0  100   [6]  45 00 C3 01 00 00
 (000.040366)  can0  102   [6]  56 06 03 06 2C 06
 (000.049481)  can0  100   [6]  45 00 C4 01 00 00
 (000.050280)  can0  102   [6]  6A 06 17 06 2C 06
 (000.059381)  can0  100   [6]  45 00 C4 01 00 00
 (000.060048)  can0  101   [4]  FB FF 02 00
 (000.060849)  can0  102   [6]  56 06 03 06 2C 06
 (000.061379)  can0  103   [2]  01 02
 (000.062227)  can0  104   [6]  00 00 00 00 00 00
 (000.062681)  can0  1FF   [1]  D6
 (000.069269)  can0  100   [6]  46 00 C3 01 00 00
 (000.070070)  can0  102   [6]  6A 06 17 06 2C 06
 (000.079166)  can0  100   [6]  46 00 C4 01 00 00
 (000.079966)  can0  102   [6]  56 06 03 06 2C 06
 (000.089045)  can0  100   [6]  46 00 C5 01 00 00
 (000.089847)  can0  102   [6]  6A 06 17 06 2C 06
 (000.098946)  can0  100   [6]  47 00 C5 01 00 00
 (000.099745)  can0  102   [6]  56 06 03 06 2C 06
 (000.108867)  can0  100   [6]  48 00 C5 01 00 00
 (000.109522)  can0  101   [4]  03 00 0D 00
 (000.110323)  can0  102   [6]  6A 06 17 06 2C 06
 (000.110852)  can0  103   [2]  01 02
 (000.111700)  can0  104   [6]  00 00 00 00 00 00
 (000.112158)  can0  1FF   [1]  D7
 (000.118754)  can0  100   [6]  48 00 C4 01 00 00
 (000.119554)  can0  102   [6]  56 06 03 06 2C 06
 (000.128658)  can0  100   [6]  48 00 C4 01 00 00
 (000.129455)  can0  102   [6]  6A 06 17 06 2C 06
 (000.138537)  can0  100   [6]  47 00 C3 01 00 00
 (000.139341)  can0  102   [6]  56 06 03 06 2C 06
 (000.148451)  can0  100   [6]  46 00 C3 01 00 00
 (000.149246)  can0  102   [6]  6A 06 17 06 2C 06
 (000.158364)  can0  100   [6]  46 00 C4 01 00 00
 (000.159035)  can0  101   [4]  02 00 FF FF
 (000.159832)  can0  102   [6]  56 06 03 06 2C 06
 (000.160360)  can0  103   [2]  01 02
 (000.161209)  can0  104   [6]  00 00 00 00 00 00
 (000.161659)  can0  1FF   [1]  D8
 (000.168237)  can0  100   [6]  46 00 C2 01 00 00
 (000.169033)  can0  102   [6]  6A 06 17 06 2C 06
 (000.178139)  can0  100   [6]  45 00 C2 01 00 00
 (000.178929)  can0  102   [6]  56 06 03 06 2C 06
 (000.188040)  can0  100   [6]  45 00 C3 01 00 00
 (000.188895)  can0  102   [6]  6A 06 17 06 2C 06
 (000.197934)  can0  100   [6]  45 00 C3 01 00 00
 (000.198727)  can0  102   [6]  56 06 03 06 2C 06
 (000.207839)  can0  100   [6]  44 00 C3 01 00 00
 (000.208499)  can0  101   [4]  FE FF 06 00
 (000.209309)  can0  102   [6]  6A 06 17 06 2C 06
 (000.209831)  can0  103   [2]  01 02
 (000.210678)  can0  104   [6]  00 00 00 00 00 00
 (000.211128)  can0  1FF   [1]  D9
 (000.217744)  can0  100   [6]  44 00 C2 01 00 00
 (000.218541)  can0  102   [6]  56 06 03 06 2C 06
 (000.227635)  can0  100   [6]  44 00 C4 01 00 00
 (000.228432)  can0  102   [6]  6A 06 17 06 2C 06
 (000.237539)  can0  100   [6]  45 00 C4 01 00 00
 (000.238334)  can0  102   [6]  56 06 03 06 2C 06
 (000.247432)  can0  100   [6]  45 00 C4 01 00 00
 (000.248224)  can0  102   [6]  6A 06 17 06 2C 06
 (000.257323)  can0  100   [6]  45 00 C4 01 00 00
 (000.257987)  can0  101   [4]  04 00 0B 00
 (000.258786)  can0  102   [6]  56 06 03 06 2C 06
 (000.259316)  can0  103   [2]  01 02
 (000.260165)  can0  104   [6]  00 00 00 00 00 00
 (000.260624)  can0  1FF   [1]  DA
 (000.267223)  can0  100   [6]  45 00 C4 01 00 00
 (000.268024)  can0  102   [6]  6A 06 17 06 2C 06
 (000.277111)  can0  100   [6]  45 00 C3 01 00 00
 (000.278112)  can0  102   [6]  56 06 03 06 2C 06
 (000.287015)  can0  100   [6]  45 00 C3 01 00 00
 (000.287805)  can0  102   [6]  6A 06 17 06 2C 06
 (000.296912)  can0  100   [6]  46 00 C3 01 00 00
 (000.297703)  can0  102   [6]  56 06 03 06 2C 06
 (000.306795)  can0  100   [6]  47 00 C3 01 00 00
 (000.307483)  can0  101   [4]  06 00 00 00
 (000.308287)  can0  102   [6]  6A 06 17 06 2C 06
 (000.308815)  can0  103   [2]  01 02
 (000.309664)  can0  104   [6]  00 00 00 00 00 00
 (000.310127)  can0  1FF   [1]  DB
 (000.316702)  can0  100   [6]  47 00 C3 01 00 00
 (000.317499)  can0  102   [6]  56 06 03 06 2C 06
 (000.326599)  can0  100   [6]  47 00 C3 01 00 00
 (000.327398)  can0  102   [6]  6A 06 17 06 2C 06
 (000.336506)  can0  100   [6]  48 00 C3 01 00 00
 (000.337305)  can0  102   [6]  56 06 03 06 2C 06
 (000.346415)  can0  100   [6]  47 00 C2 01 00 00
 (000.347212)  can0  102   [6]  6A 06 17 06 2C 06
 (000.356307)  can0  100   [6]  48 00 C2 01 00 00
 (000.356970)  can0  101   [4]  FD FF FA FF
 (000.357789)  can0  102   [6]  56 06 03 06 2C 06
 (000.358301)  can0  103   [2]  01 02
 (000.359148)  can0  104   [6]  00 00 00 00 00 00
 (000.359615)  can0  1FF   [1]  DC
 (000.366197)  can0  100   [6]  49 00 C1 01 00 00
 (000.366997)  can0  102   [6]  6A 06 17 06 2C 06
 (000.376113)  can0  100   [6]  49 00 C1 01 00 00
 (000.376926)  can0  102   [6]  56 06 03 06 2C 06
 (000.385999)  can0  100   [6]  49 00 C1 01 00 00
 (000.386797)  can0  102   [6]  6A 06 17 06 2C 06
 (000.395904)  can0  100   [6]  49 00 C1 01 00 00
 (000.396700)  can0  102   [6]  56 06 03 06 2C 06
 (000.405803)  can0  100   [6]  49 00 C1 01 00 00
 (000.406474)  can0  101   [4]  0C 00 02 00
 (000.407278)  can0  102   [6]  6A 06 17 06 2C 06
 (000.407805)  can0  103   [2]  01 02
 (000.408653)  can0  104   [6]  00 00 00 00 00 00
 (000.409103)  can0  1FF   [1]  DD
 (000.415695)  can0  100   [6]  49 00 C1 01 00 00
 (000.416495)  can0  102   [6]  56 06 03 06 2C 06
 (000.425599)  can0  100   [6]  49 00 C1 01 00 00
 (000.426397)  can0  102   [6]  6A 06 17 06 2C 06
 (000.435508)  can0  100   [6]  48 00 C1 01 00 00
 (000.436308)  can0  102   [6]  56 06 03 06 2C 06
 (000.445416)  can0  100   [6]  48 00 C1 01 00 00
 (000.446213)  can0  102   [6]  6A 06 17 06 2C 06
 (000.455316)  can0  100   [6]  48 00 C1 01 00 00
 (000.455988)  can0  101   [4]  0A 00 FE FF
 (000.456795)  can0  102   [6]  56 06 03 06 2C 06
 (000.457322)  can0  103   [2]  01 02
 (000.458170)  can0  104   [6]  00 00 00 00 00 00
 (000.458620)  can0  1FF   [1]  DE
 (000.465219)  can0  100   [6]  47 00 C2 01 00 00
 (000.466019)  can0  102   [6]  6A 06 17 06 2C 06
 (000.475113)  can0  100   [6]  46 00 C1 01 00 00
 (000.475932)  can0  102   [6]  56 06 03 06 2C 06
 (000.485004)  can0  100   [6]  46 00 C0 01 00 00
 (000.485803)  can0  102   [6]  6A 06 17 06 2C 06
 (000.494921)  can0  100   [6]  46 00 C0 01 00 00
 (000.495706)  can0  102   [6]  56 06 03 06 2C 06
 (000.504819)  can0  100   [6]  47 00 C1 01 00 00
 (000.505503)  can0  101   [4]  10 00 FB FF
 (000.506308)  can0  102   [6]  6A 06 17 06 2C 06
 (000.506834)  can0  103   [2]  01 02
 (000.507683)  can0  104   [6]  00 00 00 00 00 00
 (000.508152)  can0  1FF   [1]  DF
 (000.514723)  can0  100   [6]  47 00 C1 01 00 00
 (000.515520)  can0  102   [6]  56 06 03 06 2C 06
 (000.524623)  can0  100   [6]  47 00 C2 01 00 00
 (000.525420)  can0  102   [6]  6A 06 17 06 2C 06
 (000.534526)  can0  100   [6]  47 00 C1 01 00 00
 (000.535321)  can0  102   [6]  56 06 03 06 2C 06
 (000.544428)  can0  100   [6]  47 00 C1 01 00 00
 (000.545224)  can0  102   [6]  6A 06 17 06 2C 06
 (000.554326)  can0  100   [6]  47 00 C0 01 00 00
 (000.555013)  can0  101   [4]  00 00 FD FF
 (000.555813)  can0  102   [6]  56 06 03 06 2C 06
 (000.556348)  can0  103   [2]  01 04
 (000.557198)  can0  104   [6]  00 00 00 00 00 00
 (000.557654)  can0  1FF   [1]  E0
 (000.564227)  can0  100   [6]  46 00 C1 01 00 00
 (000.565020)  can0  102   [6]  6A 06 17 06 2C 06
 (000.574119)  can0  100   [6]  46 00 C0 01 00 00
 (000.574915)  can0  102   [6]  56 06 03 06 2C 06
 (000.584028)  can0  100   [6]  45 00 C1 01 00 00
 (000.584825)  can0  102   [6]  6A 06 17 06 2C 06
 (000.593936)  can0  100   [6]  44 00 C1 01 00 00
 (000.594724)  can0  102   [6]  56 06 03 06 2C 06
 (000.603852)  can0  100   [6]  44 00 C1 01 00 00
 (000.604510)  can0  101   [4]  FE FF FF FF
 (000.605323)  can0  102   [6]  6A 06 17 06 2C 06
 (000.605834)  can0  103   [2]  01 04
 (000.606682)  can0  104   [6]  00 00 00 00 00 00
 (000.607138)  can0  1FF   [1]  E1
 (000.613721)  can0  100   [6]  44 00 C2 01 00 00
 (000.614506)  can0  102   [6]  56 06 03 06 2C 06
 (000.623591)  can0  100   [6]  45 00 C2 01 00 00
 (000.624383)  can0  102   [6]  6A 06 17 06 2C 06
 (000.633490)  can0  100   [6]  45 00 C2 01 00 00
 (000.634287)  can0  102   [6]  56 06 03 06 2C 06
 (000.643392)  can0  100   [6]  45 00 C2 01 00 00
 (000.644186)  can0  102   [6]  6A 06 17 06 2C 06
 (000.653290)  can0  100   [6]  46 00 C3 01 00 00
 (000.653960)  can0  101   [4]  FE FF F8 FF
 (000.654758)  can0  102   [6]  56 06 03 06 2C 06
 (000.655291)  can0  103   [2]  01 04
 (000.656138)  can0  104   [6]  00 00 00 00 00 00
 (000.656588)  can0  1FF   [1]  E2
 (000.663196)  can0  100   [6]  46 00 C3 01 00 00
 (000.663995)  can0  102   [6]  6A 06 17 06 2C 06
 (000.673097)  can0  100   [6]  46 00 C4 01 00 00
 (000.673897)  can0  102   [6]  56 06 03 06 2C 06
 (000.682996)  can0  100   [6]  46 00 C4 01 00 00
 (000.683796)  can0  102   [6]  6A 06 17 06 2C 06
 (000.692895)  can0  100   [6]  45 00 C3 01 00 00
 (000.693689)  can0  102   [6]  56 06 03 06 2C 06
 (000.702785)  can0  100   [6]  46 00 C2 01 00 00
 (000.703458)  can0  101   [4]  FE FF F2 FF
 (000.704258)  can0  102   [6]  6A 06 17 06 2C 06
 (000.704788)  can0  103   [2]  01 04
 (000.705643)  can0  104   [6]  00 00 00 00 00 00
 (000.706092)  can0  1FF   [1]  E3
 (000.712691)  can0  100   [6]  46 00 C2 01 00 00
 (000.713487)  can0  102   [6]  56 06 03 06 2C 06
 (000.722594)  can0  100   [6]  45 00 C3 01 00 00
 (000.723396)  can0  102   [6]  6A 06 17 06 2C 06
 (000.732493)  can0  100   [6]  45 00 C3 01 00 00
 (000.733293)  can0  102   [6]  56 06 03 06 2C 06
 (000.742396)  can0  100   [6]  45 00 C3 01 00 00
 (000.743193)  can0  102   [6]  6A 06 17 06 2C 06
 (000.752291)  can0  100   [6]  45 00 C2 01 00 00
 (000.752972)  can0  101   [4]  04 00 03 00
 (000.753774)  can0  102   [6]  56 06 03 06 2C 06
 (000.754304)  can0  103   [2]  01 04
 (000.755154)  can0  104   [6]  00 00 00 00 00 00
 (000.755620)  can0  1FF   [1]  E4
 (000.762196)  can0  100   [6]  46 00 C2 01 00 00
 (000.762997)  can0  102   [6]  6A 06 17 06 2C 06
 (000.772109)  can0  100   [6]  45 00 C3 01 00 00
 (000.772911)  can0  102   [6]  56 06 03 06 2C 06
 (000.782000)  can0  100   [6]  45 00 C2 01 00 00
 (000.782802)  can0  102   [6]  6A 06 17 06 2C 06
 (000.791914)  can0  100   [6]  44 00 C2 01 00 00
 (000.792707)  can0  102   [6]  56 06 03 06 2C 06
 (000.801818)  can0  100   [6]  44 00 C2 01 00 00
 (000.802488)  can0  101   [4]  04 00 FD FF
 (000.803287)  can0  102   [6]  6A 06 17 06 2C 06
 (000.803833)  can0  103   [2]  01 04
 (000.804666)  can0  104   [6]  00 00 00 00 00 00
 (000.805116)  can0  1FF   [1]  E5
 (000.811696)  can0  100   [6]  43 00 C1 01 00 00
 (000.812497)  can0  102   [6]  56 06 03 06 2C 06
 (000.821603)  can0  100   [6]  43 00 C2 01 00 00
 (000.822393)  can0  102   [6]  6A 06 17 06 2C 06
 (000.831491)  can0  100   [6]  43 00 C3 01 00 00
 (000.832303)  can0  102   [6]  56 06 03 06 2C 06
 (000.841390)  can0  100   [6]  44 00 C3 01 00 00
 (000.842187)  can0  102   [6]  6A 06 17 06 2C 06
 (000.851292)  can0  100   [6]  44 00 C3 01 00 00
 (000.851973)  can0  101   [4]  00 00 F7 FF
 (000.852775)  can0  102   [6]  56 06 03 06 2C 06
 (000.853315)  can0  103   [2]  01 04
 (000.854151)  can0  104   [6]  00 00 00 00 00 00
 (000.854600)  can0  1FF   [1]  E6
 (000.861189)  can0  100   [6]  44 00 C4 01 00 00
 (000.861988)  can0  102   [6]  6A 06 17 06 2C 06
 (000.871104)  can0  100   [6]  43 00 C4 01 00 00
 (000.871888)  can0  102   [6]  56 06 03 06 2C 06
 (000.880997)  can0  100   [6]  44 00 C4 01 00 00
 (000.881788)  can0  102   [6]  6A 06 17 06 2C 06
 (000.890898)  can0  100   [6]  44 00 C4 01 00 00
 (000.891687)  can0  102   [6]  56 06 03 06 2C 06
 (000.900791)  can0  100   [6]  44 00 C4 01 00 00
 (000.901465)  can0  101   [4]  FB FF 06 00
 (000.902265)  can0  102   [6]  6A 06 17 06 2C 06
 (000.902794)  can0  103   [2]  01 04
 (000.903644)  can0  104   [6]  00 00 00 00 00 00
 (000.904102)  can0  1FF   [1]  E7
 (000.910689)  can0  100   [6]  44 00 C4 01 00 00
 (000.911485)  can0  102   [6]  56 06 03 06 2C 06
 (000.920595)  can0  100   [6]  44 00 C3 01 00 00
 (000.921391)  can0  102   [6]  6A 06 17 06 2C 06
 (000.930494)  can0  100   [6]  44 00 C3 01 00 00
 (000.931292)  can0  102   [6]  56 06 03 06 2C 06
 (000.940397)  can0  100   [6]  45 00 C4 01 00 00
 (000.941195)  can0  102   [6]  6A 06 17 06 2C 06
 (000.950292)  can0  100   [6]  45 00 C4 01 00 00
 (000.950974)  can0  101   [4]  FC FF 04 00
 (000.951774)  can0  102   [6]  56 06 03 06 2C 06
 (000.952303)  can0  103   [2]  01 04
 (000.953163)  can0  104   [6]  00 00 00 00 00 00
 (000.953603)  can0  1FF   [1]  E8
 (000.960178)  can0  100   [6]  46 00 C5 01 00 00
 (000.960975)  can0  102   [6]  6A 06 17 06 2C 06
 (000.970075)  can0  100   [6]  46 00 C5 01 00 00
 (000.970877)  can0  102   [6]  56 06 03 06 2C 06
 (000.979987)  can0  100   [6]  46 00 C4 01 00 00
 (000.980784)  can0  102   [6]  6A 06 17 06 2C 06
 (000.989898)  can0  100   [6]  46 00 C4 01 00 00
 (000.990782)  can0  102   [6]  56 06 03 06 2C 06
 (000.999792)  can0  100   [6]  46 00 C4 01 00 00
 (001.000472)  can0  101   [4]  0A 00 06 00
 (001.001268)  can0  102   [6]  6A 06 17 06 2C 06
 (001.001791)  can0  103   [2]  01 04
 (001.002643)  can0  104   [6]  00 00 00 00 00 00
 (001.003106)  can0  1FF   [1]  E9
 (001.009703)  can0  100   [6]  46 00 C4 01 00 00
 (001.010493)  can0  102   [6]  56 06 03 06 2C 06
 (001.019592)  can0  100   [6]  46 00 C3 01 00 00
 (001.020398)  can0  102   [6]  6A 06 17 06 2C 06
 (001.029493)  can0  100   [6]  45 00 C4 01 00 00
 (001.030289)  can0  102   [6]  56 06 03 06 2C 06
 (001.039374)  can0  100   [6]  45 00 C3 01 00 00
 (001.040172)  can0  102   [6]  6A 06 17 06 2C 06
 (001.049271)  can0  100   [6]  45 00 C3 01 00 00
 (001.049951)  can0  101   [4]  F8 FF 00 00
 (001.050751)  can0  102   [6]  56 06 03 06 2C 06
 (001.051370)  can0  103   [2]  01 04
 (001.052170)  can0  104   [6]  00 00 00 00 00 00
 (001.052646)  can0  1FF   [1]  EA
 (001.059175)  can0  100   [6]  45 00 C3 01 00 00
 (001.059969)  can0  102   [6]  6A 06 17 06 2C 06
 (001.069062)  can0  100   [6]  46 00 C2 01 00 00
 (001.069862)  can0  102   [6]  56 06 03 06 2C 06
 (001.078965)  can0  100   [6]  45 00 C3 01 00 00
 (001.079762)  can0  102   [6]  6A 06 17 06 2C 06
 (001.088857)  can0  100   [6]  45 00 C3 01 00 00
 (001.089657)  can0  102   [6]  56 06 03 06 2C 06
 (001.098757)  can0  100   [6]  45 00 C3 01 00 00
 (001.099436)  can0  101   [4]  00 00 F6 FF
 (001.100228)  can0  102   [6]  6A 06 17 06 2C 06
 (001.100758)  can0  103   [2]  01 04
 (001.101610)  can0  104   [6]  00 00 00 00 00 00
 (001.102059)  can0  1FF   [1]  EB
 (001.108652)  can0  100   [6]  45 00 C2 01 00 00
 (001.109450)  can0  102   [6]  56 06 03 06 2C 06
 (001.118552)  can0  100   [6]  45 00 C3 01 00 00
 (001.119351)  can0  102   [6]  6A 06 17 06 2C 06
 (001.128452)  can0  100   [6]  45 00 C3 01 00 00
 (001.129251)  can0  102   [6]  56 06 03 06 2C 06
 (001.138353)  can0  100   [6]  46 00 C2 01 00 00
 (001.139155)  can0  102   [6]  6A 06 17 06 2C 06
 (001.148451)  can0  100   [6]  45 00 C1 01 00 00
 (001.149125)  can0  101   [4]  08 00 F5 FF
 (001.149922)  can0  102   [6]  56 06 03 06 2C 06
 (001.150451)  can0  103   [2]  01 04
 (001.151299)  can0  104   [6]  00 00 00 00 00 00
 (001.151763)  can0  1FF   [1]  EC
 (001.158170)  can0  100   [6]  45 00 C1 01 00 00
 (001.158968)  can0  102   [6]  6A 06 17 06 2C 06
 (001.168128)  can0  100   [6]  46 00 C1 01 00 00
 (001.168865)  can0  102   [6]  56 06 03 06 2C 06
 (001.177960)  can0  100   [6]  46 00 C1 01 00 00
 (001.178763)  can0  102   [6]  6A 06 17 06 2C 06
 (001.187977)  can0  100   [6]  46 00 C2 01 00 00
 (001.188779)  can0  102   [6]  56 06 03 06 2C 06
 (001.198211)  can0  100   [6]  46 00 C1 01 00 00
 (001.198888)  can0  101   [4]  FF FF 04 00
 (001.199693)  can0  102   [6]  6A 06 17 06 2C 06
 (001.200221)  can0  103   [2]  01 04
 (001.201069)  can0  104   [6]  00 00 00 00 00 00
 (001.201521)  can0  1FF   [1]  ED
 (001.207975)  can0  100   [6]  46 00 C2 01 00 00
 (001.208770)  can0  102   [6]  56 06 03 06 2C 06
 (001.217555)  can0  100   [6]  46 00 C2 01 00 00
 (001.218350)  can0  102   [6]  6A 06 17 06 2C 06
 (001.227971)  can0  100   [6]  46 00 C2 01 00 00
 (001.228764)  can0  102   [6]  56 06 03 06 2C 06
 (001.237352)  can0  100   [6]  46 00 C2 01 00 00
 (001.238149)  can0  102   [6]  6A 06 17 06 2C 06
 (001.247579)  can0  100   [6]  46 00 C1 01 00 00
 (001.248260)  can0  101   [4]  10 00 00 00
 (001.249061)  can0  102   [6]  56 06 03 06 2C 06
 (001.249589)  can0  103   [2]  01 04
 (001.250438)  can0  104   [6]  00 00 00 00 00 00
 (001.250889)  can0  1FF   [1]  EE
 (001.257305)  can0  100   [6]  47 00 C1 01 00 00
 (001.258086)  can0  102   [6]  6A 06 17 06 2C 06
 (001.267125)  can0  100   [6]  47 00 C2 01 00 00
 (001.267926)  can0  102   [6]  56 06 03 06 2C 06
 (001.277317)  can0  100   [6]  47 00 C2 01 00 00
 (001.278106)  can0  102   [6]  6A 06 17 06 2C 06
 (001.287143)  can0  100   [6]  47 00 C2 01 00 00
 (001.287941)  can0  102   [6]  56 06 03 06 2C 06
 (001.296895)  can0  100   [6]  47 00 C2 01 00 00
 (001.297566)  can0  101   [4]  03 00 F2 FF
 (001.298391)  can0  102   [6]  6A 06 17 06 2C 06
 (001.298882)  can0  103   [2]  01 04
 (001.299729)  can0  104   [6]  00 00 00 00 00 00
 (001.300187)  can0  1FF   [1]  EF
 (001.307109)  can0  100   [6]  47 00 C3 01 00 00
 (001.307909)  can0  102   [6]  56 06 03 06 2C 06
 (001.317270)  can0  100   [6]  47 00 C3 01 00 00
 (001.318068)  can0  102   [6]  6A 06 17 06 2C 06
 (001.327117)  can0  100   [6]  47 00 C3 01 00 00
 (001.327922)  can0  102   [6]  56 06 03 06 2C 06
 (001.336427)  can0  100   [6]  47 00 C3 01 00 00
 (001.337365)  can0  102   [6]  6A 06 17 06 2C 06
 (001.346425)  can0  100   [6]  46 00 C3 01 00 00
 (001.347105)  can0  101   [4]  04 00 04 00
 (001.347905)  can0  102   [6]  56 06 03 06 2C 06
 (001.348433)  can0  103   [2]  01 04
 (001.349279)  can0  104   [6]  00 00 00 00 00 00
 (001.349756)  can0  1FF   [1]  F0
 (001.356415)  can0  100   [6]  46 00 C4 01 00 00
 (001.357215)  can0  102   [6]  6A 06 17 06 2C 06
 (001.366415)  can0  100   [6]  47 00 C4 01 00 00
 (001.367211)  can0  102   [6]  56 06 03 06 2C 06
 (001.376422)  can0  100   [6]  47 00 C4 01 00 00
 (001.377221)  can0  102   [6]  6A 06 17 06 2C 06
 (001.386441)  can0  100   [6]  47 00 C4 01 00 00
 (001.387240)  can0  102   [6]  56 06 03 06 2C 06
 (001.396417)  can0  100   [6]  47 00 C4 01 00 00
 (001.397090)  can0  101   [4]  05 00 06 00
 (001.397886)  can0  102   [6]  6A 06 17 06 2C 06
 (001.398415)  can0  103   [2]  01 04
 (001.399269)  can0  104   [6]  00 00 00 00 00 00
 (001.399731)  can0  1FF   [1]  F1
 (001.405677)  can0  100   [6]  47 00 C4 01 00 00
 (001.406487)  can0  102   [6]  56 06 03 06 2C 06
 (001.415574)  can0  100   [6]  47 00 C4 01 00 00
 (001.416375)  can0  102   [6]  6A 06 17 06 2C 06
 (001.425472)  can0  100   [6]  47 00 C3 01 00 00
 (001.426265)  can0  102   [6]  56 06 03 06 2C 06
 (001.435385)  can0  100   [6]  48 00 C4 01 00 00
 (001.436181)  can0  102   [6]  6A 06 17 06 2C 06
 (001.445284)  can0  100   [6]  48 00 C4 01 00 00
 (001.445943)  can0  101   [4]  01 00 0B 00
 (001.446746)  can0  102   [6]  56 06 03 06 2C 06
 (001.447273)  can0  103   [2]  01 04
 (001.448124)  can0  104   [6]  00 00 00 00 00 00
 (001.448588)  can0  1FF   [1]  F2
 (001.455173)  can0  100   [6]  47 00 C3 01 00 00
 (001.455963)  can0  102   [6]  6A 06 17 06 2C 06
 (001.465064)  can0  100   [6]  47 00 C3 01 00 00
 (001.465858)  can0  102   [6]  56 06 03 06 2C 06
 (001.474963)  can0  100   [6]  47 00 C3 01 00 00
 (001.475758)  can0  102   [6]  6A 06 17 06 2C 06
 (001.484864)  can0  100   [6]  47 00 C3 01 00 00
 (001.485654)  can0  102   [6]  56 06 03 06 2C 06
 (001.494754)  can0  100   [6]  47 00 C3 01 00 00
 (001.495421)  can0  101   [4]  00 00 FE FF
 (001.496224)  can0  102   [6]  6A 06 17 06 2C 06
 (001.496754)  can0  103   [2]  01 04
 (001.497601)  can0  104   [6]  00 00 00 00 00 00
 (001.498067)  can0  1FF   [1]  F3
 (001.504659)  can0  100   [6]  47 00 C4 01 00 00
 (001.505453)  can0  102   [6]  56 06 03 06 2C 06
 (001.514556)  can0  100   [6]  47 00 C4 01 00 00
 (001.515348)  can0  102   [6]  6A 06 17 06 2C 06
 (001.524455)  can0  100   [6]  47 00 C4 01 00 00
 (001.525250)  can0  102   [6]  56 06 03 06 2C 06
 (001.534628)  can0  100   [6]  47 00 C4 01 00 00
 (001.535139)  can0  102   [6]  6A 06 17 06 2C 06
 (001.544255)  can0  100   [6]  46 00 C3 01 00 00
 (001.544930)  can0  101   [4]  FE FF FD FF
 (001.545730)  can0  102   [6]  56 06 03 06 2C 06
 (001.546261)  can0  103   [2]  01 04
 (001.547111)  can0  104   [6]  00 00 00 00 00 00
 (001.547568)  can0  1FF   [1]  F4
 (001.554156)  can0  100   [6]  46 00 C4 01 00 00
 (001.554948)  can0  102   [6]  6A 06 17 06 2C 06
 (001.564051)  can0  100   [6]  46 00 C4 01 00 00
 (001.564845)  can0  102   [6]  56 06 03 06 2C 06
 (001.573954)  can0  100   [6]  46 00 C4 01 00 00
 (001.574750)  can0  102   [6]  6A 06 17 06 2C 06
 (001.583843)  can0  100   [6]  46 00 C4 01 00 00
 (001.584638)  can0  102   [6]  56 06 03 06 2C 06
 (001.593740)  can0  100   [6]  46 00 C4 01 00 00
 (001.594412)  can0  101   [4]  03 00 FF FF
 (001.595209)  can0  102   [6]  6A 06 17 06 2C 06
 (001.595738)  can0  103   [2]  01 04
 (001.596588)  can0  104   [6]  00 00 00 00 00 00
 (001.597046)  can0  1FF   [1]  F5
 (001.603639)  can0  100   [6]  47 00 C4 01 00 00
 (001.604429)  can0  102   [6]  56 06 03 06 2C 06
 (001.613529)  can0  100   [6]  47 00 C5 01 00 00
 (001.614323)  can0  102   [6]  6A 06 17 06 2C 06
 (001.623436)  can0  100   [6]  46 00 C5 01 00 00
 (001.624250)  can0  102   [6]  56 06 03 06 2C 06
 (001.633345)  can0  100   [6]  46 00 C4 01 00 00
 (001.634140)  can0  102   [6]  6A 06 17 06 2C 06
 (001.643244)  can0  100   [6]  46 00 C5 01 00 00
 (001.643909)  can0  101   [4]  00 00 02 00
 (001.644712)  can0  102   [6]  56 06 03 06 2C 06
 (001.645239)  can0  103   [2]  01 04
 (001.646091)  can0  104   [6]  00 00 00 00 00 00
 (001.646558)  can0  1FF   [1]  F6
 (001.653132)  can0  100   [6]  46 00 C5 01 00 00
 (001.653917)  can0  102   [6]  6A 06 17 06 2C 06
 (001.663018)  can0  100   [6]  45 00 C5 01 00 00
 (001.663816)  can0  102   [6]  56 06 03 06 2C 06
 (001.672923)  can0  100   [6]  45 00 C5 01 00 00
 (001.673719)  can0  102   [6]  6A 06 17 06 2C 06
 (001.682834)  can0  100   [6]  45 00 C4 01 00 00
 (001.683625)  can0  102   [6]  56 06 03 06 2C 06
 (001.692744)  can0  100   [6]  44 00 C3 01 00 00
 (001.693401)  can0  101   [4]  00 00 08 00
 (001.694200)  can0  102   [6]  6A 06 17 06 2C 06
 (001.694732)  can0  103   [2]  01 04
 (001.695583)  can0  104   [6]  00 00 00 00 00 00
 (001.696039)  can0  1FF   [1]  F7
 (001.702637)  can0  100   [6]  45 00 C4 01 00 00
 (001.703426)  can0  102   [6]  56 06 03 06 2C 06
 (001.712529)  can0  100   [6]  45 00 C4 01 00 00
 (001.713361)  can0  102   [6]  6A 06 17 06 2C 06
 (001.722447)  can0  100   [6]  45 00 C4 01 00 00
 (001.723239)  can0  102   [6]  56 06 03 06 2C 06
 (001.732350)  can0  100   [6]  45 00 C4 01 00 00
 (001.733143)  can0  102   [6]  6A 06 17 06 2C 06
 (001.742252)  can0  100   [6]  45 00 C4 01 00 00
 (001.742923)  can0  101   [4]  00 00 0D 00
 (001.743717)  can0  102   [6]  56 06 03 06 2C 06
 (001.744248)  can0  103   [2]  01 04
 (001.745096)  can0  104   [6]  00 00 00 00 00 00
 (001.745572)  can0  1FF   [1]  F8
 (001.752158)  can0  100   [6]  45 00 C4 01 00 00
 (001.752948)  can0  102   [6]  6A 06 17 06 2C 06
 (001.762046)  can0  100   [6]  45 00 C4 01 00 00
 (001.762857)  can0  102   [6]  56 06 03 06 2C 06
 (001.771959)  can0  100   [6]  45 00 C4 01 00 00
 (001.772757)  can0  102   [6]  6A 06 17 06 2C 06
 (001.781832)  can0  100   [6]  45 00 C3 01 00 00
 (001.782629)  can0  102   [6]  56 06 03 06 2C 06
 (001.791744)  can0  100   [6]  46 00 C4 01 00 00
 (001.792396)  can0  101   [4]  00 00 F5 FF
 (001.793210)  can0  102   [6]  6A 06 17 06 2C 06
 (001.793726)  can0  103   [2]  01 04
 (001.794578)  can0  104   [6]  00 00 00 00 00 00
 (001.795036)  can0  1FF   [1]  F9
 (001.801633)  can0  100   [6]  47 00 C3 01 00 00
 (001.802488)  can0  102   [6]  56 06 03 06 2C 06
 (001.811548)  can0  100   [6]  46 00 C4 01 00 00
 (001.812347)  can0  102   [6]  6A 06 17 06 2C 06
 (001.821444)  can0  100   [6]  46 00 C3 01 00 00
 (001.822237)  can0  102   [6]  56 06 03 06 2C 06
 (001.831337)  can0  100   [6]  46 00 C3 01 00 00
 (001.832129)  can0  102   [6]  6A 06 17 06 2C 06
 (001.841260)  can0  100   [6]  46 00 C4 01 00 00
 (001.841918)  can0  101   [4]  04 00 FF FF
 (001.842715)  can0  102   [6]  56 06 03 06 2C 06
 (001.843247)  can0  103   [2]  01 04
 (001.844098)  can0  104   [6]  00 00 00 00 00 00
 (001.844556)  can0  1FF   [1]  FA
 (001.851127)  can0  100   [6]  45 00 C3 01 00 00
 (001.851929)  can0  102   [6]  6A 06 17 06 2C 06
 (001.861042)  can0  100   [6]  45 00 C3 01 00 00
 (001.861832)  can0  102   [6]  56 06 03 06 2C 06
 (001.870938)  can0  100   [6]  45 00 C3 01 00 00
 (001.871730)  can0  102   [6]  6A 06 17 06 2C 06
 (001.880853)  can0  100   [6]  44 00 C2 01 00 00
 (001.881648)  can0  102   [6]  56 06 03 06 2C 06
 (001.890761)  can0  100   [6]  44 00 C2 01 00 00
 (001.891429)  can0  101   [4]  FA FF FF FF
 (001.892231)  can0  102   [6]  6A 06 17 06 2C 06
 (001.892758)  can0  103   [2]  01 04
 (001.893608)  can0  104   [6]  00 00 00 00 00 00
 (001.894080)  can0  1FF   [1]  FB
 (001.900657)  can0  100   [6]  44 00 C2 01 00 00
 (001.901456)  can0  102   [6]  56 06 03 06 2C 06
 (001.910564)  can0  100   [6]  44 00 C3 01 00 00
 (001.911350)  can0  102   [6]  6A 06 17 06 2C 06
 (001.920460)  can0  100   [6]  44 00 C3 01 00 00
 (001.921252)  can0  102   [6]  56 06 03 06 2C 06
 (001.930355)  can0  100   [6]  44 00 C3 01 00 00
 (001.931147)  can0  102   [6]  6A 06 17 06 2C 06
 (001.940288)  can0  100   [6]  44 00 C2 01 00 00
 (001.940944)  can0  101   [4]  0A 00 FB FF
 (001.941745)  can0  102   [6]  56 06 03 06 2C 06
 (001.942275)  can0  103   [2]  01 04
 (001.943120)  can0  104   [6]  00 00 00 00 00 00
 (001.943579)  can0  1FF   [1]  FC
 (001.950174)  can0  100   [6]  44 00 C1 01 00 00
 (001.950975)  can0  102   [6]  6A 06 17 06 2C 06
 (001.960091)  can0  100   [6]  44 00 C1 01 00 00
 (001.960870)  can0  102   [6]  56 06 03 06 2C 06
 (001.969980)  can0  100   [6]  44 00 C0 01 00 00
 (001.970773)  can0  102   [6]  6A 06 17 06 2C 06
 (001.979878)  can0  100   [6]  44 00 C1 01 00 00
 (001.980674)  can0  102   [6]  56 06 03 06 2C 06
 (001.989790)  can0  100   [6]  44 00 C2 01 00 00
 (001.990456)  can0  101   [4]  00 00 00 00
 (001.991239)  can0  102   [6]  6A 06 17 06 2C 06
 (001.992099)  can0  103   [2]  01 04
 (001.992616)  can0  104   [6]  00 00 00 00 00 00
 (001.993074)  can0  1FF   [1]  FD
 (001.999668)  can0  100   [6]  45 00 C1 01 00 00
 (002.000462)  can0  102   [6]  56 06 03 06 2C 06
 (002.009566)  can0  100   [6]  44 00 C1 01 00 00
 (002.010362)  can0  102   [6]  6A 06 17 06 2C 06
 (002.019474)  can0  100   [6]  44 00 C1 01 00 00
 (002.020261)  can0  102   [6]  56 06 03 06 2C 06
 (002.029348)  can0  100   [6]  43 00 C1 01 00 00
 (002.030147)  can0  102   [6]  6A 06 17 06 2C 06
 (002.039250)  can0  100   [6]  43 00 C1 01 00 00
 (002.039918)  can0  101   [4]  F9 FF FD FF
 (002.040732)  can0  102   [6]  56 06 03 06 2C 06
 (002.041251)  can0  103   [2]  01 04
 (002.042096)  can0  104   [6]  00 00 00 00 00 00
 (002.042554)  can0  1FF   [1]  FE
 (002.049139)  can0  100   [6]  42 00 C2 01 00 00
 (002.049937)  can0  102   [6]  6A 06 17 06 2C 06
 (002.059055)  can0  100   [6]  42 00 C1 01 00 00
 (002.059856)  can0  102   [6]  56 06 03 06 2C 06
 (002.068962)  can0  100   [6]  42 00 C0 01 00 00
 (002.069754)  can0  102   [6]  6A 06 17 06 2C 06
 (002.078870)  can0  100   [6]  42 00 C0 01 00 00
 (002.079658)  can0  102   [6]  56 06 03 06 2C 06
 (002.088767)  can0  100   [6]  42 00 C0 01 00 00
 (002.089454)  can0  101   [4]  FD FF FC FF
 (002.090237)  can0  102   [6]  6A 06 17 06 2C 06
 (002.090766)  can0  103   [2]  01 04
 (002.091614)  can0  104   [6]  00 00 00 00 00 00
 (002.092081)  can0  1FF   [1]  FF
 (002.098659)  can0  100   [6]  42 00 C0 01 00 00
 (002.099458)  can0  102   [6]  56 06 03 06 2C 06
 (002.108560)  can0  100   [6]  42 00 C0 01 00 00
 (002.109368)  can0  102   [6]  6A 06 17 06 2C 06
 (002.118503)  can0  100   [6]  43 00 C0 01 00 00
 (002.119259)  can0  102   [6]  56 06 03 06 2C 06
 (002.128361)  can0  100   [6]  42 00 C1 01 00 00
 (002.129155)  can0  102   [6]  6A 06 17 06 2C 06
 (002.138265)  can0  100   [6]  43 00 C1 01 00 00
 (002.138933)  can0  101   [4]  FA FF FC FF
 (002.139739)  can0  102   [6]  56 06 03 06 2C 06
 (002.140265)  can0  103   [2]  01 04
 (002.141113)  can0  104   [6]  00 00 00 00 00 00
 (002.141572)  can0  1FF   [1]  00
 (002.148431)  can0  100   [6]  43 00 C1 01 00 00
 (002.149229)  can0  102   [6]  6A 06 17 06 2C 06
 (002.158065)  can0  100   [6]  43 00 C1 01 00 00
 (002.158865)  can0  102   [6]  56 06 03 06 2C 06
 (002.167982)  can0  100   [6]  42 00 C1 01 00 00
 (002.168776)  can0  102   [6]  6A 06 17 06 2C 06
 (002.177865)  can0  100   [6]  42 00 C1 01 00 00
 (002.178663)  can0  102   [6]  56 06 03 06 2C 06
 (002.187976)  can0  100   [6]  43 00 C0 01 00 00
 (002.188658)  can0  101   [4]  01 00 0C 00
 (002.189469)  can0  102   [6]  6A 06 17 06 2C 06
 (002.189996)  can0  103   [2]  01 04
 (002.190839)  can0  104   [6]  00 00 00 00 00 00
 (002.191305)  can0  1FF   [1]  01
 (002.197731)  can0  100   [6]  42 00 C0 01 00 00
 (002.198531)  can0  102   [6]  56 06 03 06 2C 06
 (002.207983)  can0  100   [6]  43 00 C0 01 00 00
 (002.208801)  can0  102   [6]  6A 06 17 06 2C 06
 (002.217476)  can0  100   [6]  42 00 BF 01 00 00
 (002.218270)  can0  102   [6]  56 06 03 06 2C 06
 (002.227991)  can0  100   [6]  42 00 BF 01 00 00
 (002.228787)  can0  102   [6]  6A 06 17 06 2C 06
 (002.237269)  can0  100   [6]  42 00 C0 01 00 00
 (002.237947)  can0  101   [4]  F9 FF 03 00
 (002.238748)  can0  102   [6]  56 06 03 06 2C 06
 (002.239305)  can0  103   [2]  01 04
 (002.240132)  can0  104   [6]  00 00 00 00 00 00
 (002.240591)  can0  1FF   [1]  02
 (002.247593)  can0  100   [6]  43 00 C0 01 00 00
 (002.248386)  can0  102   [6]  6A 06 17 06 2C 06
 (002.257285)  can0  100   [6]  43 00 C1 01 00 00
 (002.258083)  can0  102   [6]  56 06 03 06 2C 06
 (002.267109)  can0  100   [6]  43 00 C1 01 00 00
 (002.267905)  can0  102   [6]  6A 06 17 06 2C 06
 (002.277284)  can0  100   [6]  43 00 C1 01 00 00
 (002.278081)  can0  102   [6]  56 06 03 06 2C 06
 (002.287140)  can0  100   [6]  43 00 C1 01 00 00
 (002.287811)  can0  101   [4]  06 00 0C 00
 (002.288613)  can0  102   [6]  6A 06 17 06 2C 06
 (002.289143)  can0  103   [2]  01 04
 (002.289995)  can0  104   [6]  00 00 00 00 00 00
 (002.290450)  can0  1FF   [1]  03
 (002.296877)  can0  100   [6]  43 00 C1 01 00 00
 (002.297674)  can0  102   [6]  56 06 03 06 2C 06
 (002.307125)  can0  100   [6]  43 00 C1 01 00 00
 (002.307935)  can0  102   [6]  6A 06 17 06 2C 06
 (002.317276)  can0  100   [6]  43 00 C2 01 00 00
 (002.318074)  can0  102   [6]  56 06 03 06 2C 06
 (002.326436)  can0  100   [6]  43 00 C1 01 00 00
 (002.327235)  can0  102   [6]  6A 06 17 06 2C 06
 (002.336438)  can0  100   [6]  43 00 C1 01 00 00
 (002.337110)  can0  101   [4]  EC FF FB FF
 (002.337912)  can0  102   [6]  56 06 03 06 2C 06
 (002.338441)  can0  103   [2]  01 04
 (002.339288)  can0  104   [6]  00 00 00 00 00 00
 (002.339755)  can0  1FF   [1]  04
 (002.346416)  can0  100   [6]  43 00 C1 01 00 00
 (002.347216)  can0  102   [6]  6A 06 17 06 2C 06
 (002.356423)  can0  100   [6]  43 00 C1 01 00 00
 (002.357223)  can0  102   [6]  56 06 03 06 2C 06
 (002.366426)  can0  100   [6]  43 00 C1 01 00 00
 (002.367229)  can0  102   [6]  6A 06 17 06 2C 06
 (002.376440)  can0  100   [6]  44 00 C1 01 00 00
 (002.377239)  can0  102   [6]  56 06 03 06 2C 06
 (002.386456)  can0  100   [6]  44 00 C1 01 00 00
 (002.387128)  can0  101   [4]  08 00 FC FF
 (002.387927)  can0  102   [6]  6A 06 17 06 2C 06
 (002.388459)  can0  103   [2]  01 04
 (002.389327)  can0  104   [6]  00 00 00 00 00 00
 (002.389766)  can0  1FF   [1]  05
 (002.395697)  can0  100   [6]  44 00 C1 01 00 00
 (002.396487)  can0  102   [6]  56 06 03 06 2C 06
 (002.405582)  can0  100   [6]  43 00 C1 01 00 00
 (002.406375)  can0  102   [6]  6A 06 17 06 2C 06
 (002.415478)  can0  100   [6]  43 00 C2 01 00 00
 (002.416274)  can0  102   [6]  56 06 03 06 2C 06
 (002.425381)  can0  100   [6]  43 00 C2 01 00 00
 (002.426176)  can0  102   [6]  6A 06 17 06 2C 06
 (002.435289)  can0  100   [6]  43 00 C2 01 00 00
 (002.435948)  can0  101   [4]  FD FF 0A 00
 (002.436755)  can0  102   [6]  56 06 03 06 2C 06
 (002.437279)  can0  103   [2]  01 04
 (002.438133)  can0  104   [6]  00 00 00 00 00 00
 (002.438595)  can0  1FF   [1]  06
 (002.445190)  can0  100   [6]  44 00 C2 01 00 00
 (002.445989)  can0  102   [6]  6A 06 17 06 2C 06
 (002.455091)  can0  100   [6]  43 00 C3 01 00 00
 (002.455890)  can0  102   [6]  56 06 03 06 2C 06
 (002.465005)  can0  100   [6]  44 00 C2 01 00 00
 (002.465799)  can0  102   [6]  6A 06 17 06 2C 06
 (002.474911)  can0  100   [6]  44 00 C1 01 00 00
 (002.475705)  can0  102   [6]  56 06 03 06 2C 06
 (002.484811)  can0  100   [6]  45 00 C2 01 00 00
 (002.485464)  can0  101   [4]  FA FF 04 00
 (002.486278)  can0  102   [6]  6A 06 17 06 2C 06
 (002.486794)  can0  103   [2]  01 04
 (002.487655)  can0  104   [6]  00 00 00 00 00 00
 (002.488101)  can0  1FF   [1]  07
 (002.494706)  can0  100   [6]  44 00 C2 01 00 00
 (002.495499)  can0  102   [6]  56 06 03 06 2C 06
 (002.504612)  can0  100   [6]  44 00 C2 01 00 00
 (002.505405)  can0  102   [6]  6A 06 17 06 2C 06
 (002.514512)  can0  100   [6]  44 00 C1 01 00 00
 (002.515306)  can0  102   [6]  56 06 03 06 2C 06
 (002.524390)  can0  100   [6]  45 00 C2 01 00 00
 (002.525183)  can0  102   [6]  6A 06 17 06 2C 06
 (002.534291)  can0  100   [6]  45 00 C3 01 00 00
 (002.534961)  can0  101   [4]  00 00 03 00
 (002.535763)  can0  102   [6]  56 06 03 06 2C 06
 (002.536294)  can0  103   [2]  01 04
 (002.537144)  can0  104   [6]  00 00 00 00 00 00
 (002.537592)  can0  1FF   [1]  08
 (002.544191)  can0  100   [6]  45 00 C2 01 00 00
 (002.544983)  can0  102   [6]  6A 06 17 06 2C 06
 (002.554091)  can0  100   [6]  45 00 C2 01 00 00
 (002.554889)  can0  102   [6]  56 06 03 06 2C 06
 (002.564003)  can0  100   [6]  44 00 C3 01 00 00
 (002.564800)  can0  102   [6]  6A 06 17 06 2C 06
 (002.573908)  can0  100   [6]  44 00 C3 01 00 00
 (002.574705)  can0  102   [6]  56 06 03 06 2C 06
 (002.583802)  can0  100   [6]  45 00 C3 01 00 00
 (002.584469)  can0  101   [4]  F9 FF FE FF
 (002.585270)  can0  102   [6]  6A 06 17 06 2C 06
 (002.585795)  can0  103   [2]  01 04
 (002.586643)  can0  104   [6]  00 00 00 00 00 00
 (002.587104)  can0  1FF   [1]  09
 (002.593699)  can0  100   [6]  45 00 C2 01 00 00
 (002.594491)  can0  102   [6]  56 06 03 06 2C 06
 (002.603596)  can0  100   [6]  45 00 C2 01 00 00
 (002.604394)  can0  102   [6]  6A 06 17 06 2C 06
 (002.613511)  can0  100   [6]  44 00 C2 01 00 00
 (002.614307)  can0  102   [6]  56 06 03 06 2C 06
 (002.623412)  can0  100   [6]  44 00 C2 01 00 00
 (002.624204)  can0  102   [6]  6A 06 17 06 2C 06
 (002.633322)  can0  100   [6]  44 00 C1 01 00 00
 (002.633991)  can0  101   [4]  00 00 F7 FF
 (002.634796)  can0  102   [6]  56 06 03 06 2C 06
 (002.635322)  can0  103   [2]  01 04
 (002.636169)  can0  104   [6]  00 00 00 00 00 00
 (002.636620)  can0  1FF   [1]  0A
 (002.643217)  can0  100   [6]  44 00 C1 01 00 00
 (002.644015)  can0  102   [6]  6A 06 17 06 2C 06
 (002.653107)  can0  100   [6]  43 00 C1 01 00 00
 (002.653903)  can0  102   [6]  56 06 03 06 2C 06
 (002.663021)  can0  100   [6]  44 00 C0 01 00 00
 (002.663814)  can0  102   [6]  6A 06 17 06 2C 06
 (002.672909)  can0  100   [6]  44 00 C0 01 00 00
 (002.673703)  can0  102   [6]  56 06 03 06 2C 06
 (002.682800)  can0  100   [6]  43 00 C0 01 00 00
 (002.683448)  can0  101   [4]  F6 FF 01 00
 (002.684252)  can0  102   [6]  6A 06 17 06 2C 06
 (002.684783)  can0  103   [2]  01 04
 (002.685631)  can0  104   [6]  00 00 00 00 00 00
 (002.686192)  can0  1FF   [1]  0B
 (002.692688)  can0  100   [6]  42 00 C0 01 00 00
 (002.693488)  can0  102   [6]  56 06 03 06 2C 06
 (002.702583)  can0  100   [6]  43 00 C0 01 00 00
 (002.703375)  can0  102   [6]  6A 06 17 06 2C 06
 (002.712480)  can0  100   [6]  42 00 BF 01 00 00
 (002.713278)  can0  102   [6]  56 06 03 06 2C 06
 (002.722380)  can0  100   [6]  43 00 C0 01 00 00
 (002.723197)  can0  102   [6]  6A 06 17 06 2C 06
 (002.732279)  can0  100   [6]  43 00 C0 01 00 00
 (002.732939)  can0  101   [4]  02 00 FE FF
 (002.733748)  can0  102   [6]  56 06 03 06 2C 06
 (002.734274)  can0  103   [2]  01 04
 (002.735121)  can0  104   [6]  00 00 00 00 00 00
 (002.735578)  can0  1FF   [1]  0C
 (002.742176)  can0  100   [6]  43 00 C0 01 00 00
 (002.742966)  can0  102   [6]  6A 06 17 06 2C 06
 (002.752087)  can0  100   [6]  44 00 C0 01 00 00
 (002.752878)  can0  102   [6]  56 06 03 06 2C 06
 (002.761979)  can0  100   [6]  44 00 C1 01 00 00
 (002.762774)  can0  102   [6]  6A 06 17 06 2C 06
 (002.771877)  can0  100   [6]  44 00 C1 01 00 00
 (002.772679)  can0  102   [6]  56 06 03 06 2C 06
 (002.781773)  can0  100   [6]  45 00 C1 01 00 00
 (002.782428)  can0  101   [4]  F7 FF 05 00
 (002.783229)  can0  102   [6]  6A 06 17 06 2C 06
 (002.783766)  can0  103   [2]  01 04
 (002.784614)  can0  104   [6]  00 00 00 00 00 00
 (002.785061)  can0  1FF   [1]  0D
 (002.791680)  can0  100   [6]  45 00 C1 01 00 00
 (002.792465)  can0  102   [6]  56 06 03 06 2C 06
 (002.801572)  can0  100   [6]  44 00 C1 01 00 00
 (002.802369)  can0  102   [6]  6A 06 17 06 2C 06
 (002.811468)  can0  100   [6]  44 00 C1 01 00 00
 (002.812265)  can0  102   [6]  56 06 03 06 2C 06
 (002.821375)  can0  100   [6]  44 00 C1 01 00 00
 (002.822169)  can0  102   [6]  6A 06 17 06 2C 06
 (002.831260)  can0  100   [6]  43 00 C1 01 00 00
 (002.831921)  can0  101   [4]  07 00 F8 FF
 (002.832724)  can0  102   [6]  56 06 03 06 2C 06
 (002.833254)  can0  103   [2]  01 04
 (002.834101)  can0  104   [6]  00 00 00 00 00 00
 (002.834558)  can0  1FF   [1]  0E
 (002.841172)  can0  100   [6]  44 00 C0 01 00 00
 (002.841975)  can0  102   [6]  6A 06 17 06 2C 06
 (002.851077)  can0  100   [6]  44 00 C0 01 00 00
 (002.851873)  can0  102   [6]  56 06 03 06 2C 06
 (002.860949)  can0  100   [6]  43 00 C0 01 00 00
 (002.861740)  can0  102   [6]  6A 06 17 06 2C 06
 (002.870865)  can0  100   [6]  44 00 C0 01 00 00
 (002.871658)  can0  102   [6]  56 06 03 06 2C 06
 (002.880744)  can0  100   [6]  44 00 BF 01 00 00
 (002.881409)  can0  101   [4]  01 00 00 00
 (002.882209)  can0  102   [6]  6A 06 17 06 2C 06
 (002.882738)  can0  103   [2]  01 04
 (002.883592)  can0  104   [6]  00 00 00 00 00 00
 (002.884059)  can0  1FF   [1]  0F
 (002.890642)  can0  100   [6]  44 00 BF 01 00 00
 (002.891434)  can0  102   [6]  56 06 03 06 2C 06
 (002.900544)  can0  100   [6]  44 00 BF 01 00 00
 (002.901340)  can0  102   [6]  6A 06 17 06 2C 06
 (002.910429)  can0  100   [6]  43 00 C0 01 00 00
 (002.911223)  can0  102   [6]  56 06 03 06 2C 06
 (002.920337)  can0  100   [6]  43 00 C0 01 00 00
 (002.921134)  can0  102   [6]  6A 06 17 06 2C 06
 (002.930230)  can0  100   [6]  42 00 C1 01 00 00
 (002.930898)  can0  101   [4]  F9 FF 00 00
 (002.931698)  can0  102   [6]  56 06 03 06 2C 06
 (002.932227)  can0  103   [2]  01 04
 (002.933079)  can0  104   [6]  00 00 00 00 00 00
 (002.933545)  can0  1FF   [1]  10
 (002.940126)  can0  100   [6]  42 00 C2 01 00 00
 (002.940922)  can0  102   [6]  6A 06 17 06 2C 06
 (002.950026)  can0  100   [6]  43 00 C2 01 00 00
 (002.950830)  can0  102   [6]  56 06 03 06 2C 06
 (002.959930)  can0  100   [6]  44 00 C2 01 00 00
 (002.960725)  can0  102   [6]  6A 06 17 06 2C 06
 (002.969838)  can0  100   [6]  44 00 C1 01 00 00
 (002.970638)  can0  102   [6]  56 06 03 06 2C 06
 (002.979730)  can0  100   [6]  44 00 C2 01 00 00
 (002.980391)  can0  101   [4]  07 00 F7 FF
 (002.981193)  can0  102   [6]  6A 06 17 06 2C 06
 (002.981721)  can0  103   [2]  01 04
 (002.982569)  can0  104   [6]  00 00 00 00 00 00
 (002.983022)  can0  1FF   [1]  11
 (002.989648)  can0  100   [6]  45 00 C1 01 00 00
 (002.990434)  can0  102   [6]  56 06 03 06 2C 06
 (002.999522)  can0  100   [6]  44 00 C2 01 00 00
 (003.000325)  can0  102   [6]  6A 06 17 06 2C 06
 (003.009429)  can0  100   [6]  44 00 C2 01 00 00
 (003.010225)  can0  102   [6]  56 06 03 06 2C 06
 (003.019331)  can0  100   [6]  44 00 C2 01 00 00
 (003.020125)  can0  102   [6]  6A 06 17 06 2C 06
 (003.029210)  can0  100   [6]  45 00 C2 01 00 00
 (003.029887)  can0  101   [4]  00 00 00 00
 (003.030687)  can0  102   [6]  56 06 03 06 2C 06
 (003.031215)  can0  103   [2]  01 04
 (003.032064)  can0  104   [6]  00 00 00 00 00 00
 (003.032514)  can0  1FF   [1]  12
 (003.039105)  can0  100   [6]  45 00 C2 01 00 00
 (003.039930)  can0  102   [6]  6A 06 17 06 2C 06
 (003.048993)  can0  100   [6]  46 00 C2 01 00 00
 (003.049788)  can0  102   [6]  56 06 03 06 2C 06
 (003.058912)  can0  100   [6]  46 00 C3 01 00 00
 (003.059689)  can0  102   [6]  6A 06 17 06 2C 06
 (003.068793)  can0  100   [6]  46 00 C3 01 00 00
 (003.069589)  can0  102   [6]  56 06 03 06 2C 06
 (003.078689)  can0  100   [6]  46 00 C3 01 00 00
 (003.079354)  can0  101   [4]  F3 FF 03 00
 (003.080155)  can0  102   [6]  6A 06 17 06 2C 06
 (003.080684)  can0  103   [2]  01 04
 (003.081533)  can0  104   [6]  00 00 00 00 00 00
 (003.081991)  can0  1FF   [1]  13
 (003.088581)  can0  100   [6]  46 00 C2 01 00 00
 (003.089378)  can0  102   [6]  56 06 03 06 2C 06
 (003.098486)  can0  100   [6]  46 00 C3 01 00 00
 (003.099286)  can0  102   [6]  6A 06 17 06 2C 06
 (003.108391)  can0  100   [6]  46 00 C3 01 00 00
 (003.109180)  can0  102   [6]  56 06 03 06 2C 06
 (003.118267)  can0  100   [6]  46 00 C2 01 00 00
 (003.119065)  can0  102   [6]  6A 06 17 06 2C 06
 (003.128159)  can0  100   [6]  45 00 C2 01 00 00
 (003.128830)  can0  101   [4]  FC FF 03 00
 (003.129630)  can0  102   [6]  56 06 03 06 2C 06
 (003.130159)  can0  103   [2]  01 04
 (003.131009)  can0  104   [6]  00 00 00 00 00 00
 (003.131460)  can0  1FF   [1]  14
 (003.138081)  can0  100   [6]  45 00 C1 01 00 00
 (003.138896)  can0  102   [6]  6A 06 17 06 2C 06
 (003.148461)  can0  100   [6]  45 00 C1 01 00 00
 (003.149260)  can0  102   [6]  56 06 03 06 2C 06
 (003.157898)  can0  100   [6]  46 00 C2 01 00 00
 (003.158657)  can0  102   [6]  6A 06 17 06 2C 06
 (003.167978)  can0  100   [6]  46 00 C2 01 00 00
 (003.168776)  can0  102   [6]  56 06 03 06 2C 06
 (003.177658)  can0  100   [6]  46 00 C1 01 00 00
 (003.178337)  can0  101   [4]  FC FF FD FF
 (003.179141)  can0  102   [6]  6A 06 17 06 2C 06
 (003.179669)  can0  103   [2]  01 04
 (003.180519)  can0  104   [6]  00 00 00 00 00 00
 (003.180969)  can0  1FF   [1]  15
 (003.187986)  can0  100   [6]  46 00 C1 01 00 00
 (003.188793)  can0  102   [6]  56 06 03 06 2C 06
 (003.197748)  can0  100   [6]  45 00 C1 01 00 00
 (003.198548)  can0  102   [6]  6A 06 17 06 2C 06
 (003.207986)  can0  100   [6]  45 00 C1 01 00 00
 (003.208800)  can0  102   [6]  56 06 03 06 2C 06
 (003.217274)  can0  100   [6]  46 00 C0 01 00 00
 (003.218072)  can0  102   [6]  6A 06 17 06 2C 06
 (003.227984)  can0  100   [6]  46 00 C1 01 00 00
 (003.228653)  can0  101   [4]  04 00 FD FF
 (003.229454)  can0  102   [6]  56 06 03 06 2C 06
 (003.229984)  can0  103   [2]  01 04
 (003.230833)  can0  104   [6]  00 00 00 00 00 00
 (003.231285)  can0  1FF   [1]  16
 (003.237306)  can0  100   [6]  46 00 C0 01 00 00
 (003.238093)  can0  102   [6]  6A 06 17 06 2C 06
 (003.247123)  can0  100   [6]  46 00 C0 01 00 00
 (003.247918)  can0  102   [6]  56 06 03 06 2C 06
 (003.257278)  can0  100   [6]  46 00 C0 01 00 00
 (003.258077)  can0  102   [6]  6A 06 17 06 2C 06
 (003.267150)  can0  100   [6]  46 00 BF 01 00 00
 (003.267946)  can0  102   [6]  56 06 03 06 2C 06
 (003.277306)  can0  100   [6]  47 00 C0 01 00 00
 (003.277962)  can0  101   [4]  12 00 FC FF
 (003.278779)  can0  102   [6]  6A 06 17 06 2C 06
 (003.279288)  can0  103   [2]  01 04
 (003.280137)  can0  104   [6]  00 00 00 00 00 00
 (003.280595)  can0  1FF   [1]  17
 (003.287133)  can0  100   [6]  47 00 C0 01 00 00
 (003.287923)  can0  102   [6]  56 06 03 06 2C 06
 (003.296445)  can0  100   [6]  47 00 C1 01 00 00
 (003.297243)  can0  102   [6]  6A 06 17 06 2C 06
 (003.306450)  can0  100   [6]  47 00 C0 01 00 00
 (003.307259)  can0  102   [6]  56 06 03 06 2C 06
 (003.316431)  can0  100   [6]  46 00 C1 01 00 00
 (003.317229)  can0  102   [6]  6A 06 17 06 2C 06
 (003.326420)  can0  100   [6]  46 00 C0 01 00 00
 (003.327105)  can0  101   [4]  FE FF F7 FF
 (003.327903)  can0  102   [6]  56 06 03 06 2C 06
 (003.328434)  can0  103   [2]  01 04
 (003.329285)  can0  104   [6]  00 00 00 00 00 00
 (003.329749)  can0  1FF   [1]  18
 (003.336431)  can0  100   [6]  46 00 C1 01 00 00
 (003.337233)  can0  102   [6]  6A 06 17 06 2C 06
 (003.346437)  can0  100   [6]  47 00 C1 01 00 00
 (003.347234)  can0  102   [6]  56 06 03 06 2C 06
 (003.356432)  can0  100   [6]  46 00 C2 01 00 00
 (003.357247)  can0  102   [6]  6A 06 17 06 2C 06
 (003.366432)  can0  100   [6]  46 00 C2 01 00 00
 (003.367233)  can0  102   [6]  56 06 03 06 2C 06
 (003.375632)  can0  100   [6]  47 00 C3 01 00 00
 (003.376298)  can0  101   [4]  0D 00 05 00
 (003.377102)  can0  102   [6]  6A 06 17 06 2C 06
 (003.377630)  can0  103   [2]  01 04
 (003.378481)  can0  104   [6]  00 00 00 00 00 00
 (003.378940)  can0  1FF   [1]  19
 (003.385535)  can0  100   [6]  47 00 C3 01 00 00
 (003.386327)  can0  102   [6]  56 06 03 06 2C 06
 (003.395437)  can0  100   [6]  46 00 C3 01 00 00
 (003.396231)  can0  102   [6]  6A 06 17 06 2C 06
 (003.405337)  can0  100   [6]  47 00 C4 01 00 00
 (003.406125)  can0  102   [6]  56 06 03 06 2C 06
 (003.415239)  can0  100   [6]  48 00 C4 01 00 00
 (003.416034)  can0  102   [6]  6A 06 17 06 2C 06
 (003.425123)  can0  100   [6]  47 00 C3 01 00 00
 (003.425785)  can0  101   [4]  02 00 0A 00
 (003.426584)  can0  102   [6]  56 06 03 06 2C 06
 (003.427113)  can0  103   [2]  01 04
 (003.427989)  can0  104   [6]  00 00 00 00 00 00
 (003.428415)  can0  1FF   [1]  1A
 (003.435049)  can0  100   [6]  48 00 C2 01 00 00
 (003.435824)  can0  102   [6]  6A 06 17 06 2C 06
 (003.444927)  can0  100   [6]  48 00 C2 01 00 00
 (003.445726)  can0  102   [6]  56 06 03 06 2C 06
 (003.454828)  can0  100   [6]  48 00 C2 01 00 00
 (003.455618)  can0  102   [6]  6A 06 17 06 2C 06
 (003.464730)  can0  100   [6]  47 00 C2 01 00 00
 (003.465550)  can0  102   [6]  56 06 03 06 2C 06
 (003.474617)  can0  100   [6]  48 00 C2 01 00 00
 (003.475282)  can0  101   [4]  05 00 05 00
 (003.476082)  can0  102   [6]  6A 06 17 06 2C 06
 (003.476612)  can0  103   [2]  01 04
 (003.477460)  can0  104   [6]  00 00 00 00 00 00
 (003.477910)  can0  1FF   [1]  1B
 (003.484520)  can0  100   [6]  47 00 C2 01 00 00
 (003.485319)  can0  102   [6]  56 06 03 06 2C 06
 (003.494421)  can0  100   [6]  47 00 C1 01 00 00
 (003.495215)  can0  102   [6]  6A 06 17 06 2C 06
 (003.504312)  can0  100   [6]  47 00 C2 01 00 00
 (003.505183)  can0  102   [6]  56 06 03 06 2C 06
 (003.514216)  can0  100   [6]  48 00 C2 01 00 00
 (003.515018)  can0  102   [6]  6A 06 17 06 2C 06
 (003.524126)  can0  100   [6]  47 00 C2 01 00 00
 (003.524791)  can0  101   [4]  0B 00 06 00
 (003.525590)  can0  102   [6]  56 06 03 06 2C 06
 (003.526120)  can0  103   [2]  01 04
 (003.526970)  can0  104   [6]  00 00 00 00 00 00
 (003.527420)  can0  1FF   [1]  1C
 (003.534011)  can0  100   [6]  48 00 C2 01 00 00
 (003.534802)  can0  102   [6]  6A 06 17 06 2C 06
 (003.543910)  can0  100   [6]  48 00 C2 01 00 00
 (003.544703)  can0  102   [6]  56 06 03 06 2C 06
 (003.553825)  can0  100   [6]  47 00 C2 01 00 00
 (003.554618)  can0  102   [6]  6A 06 17 06 2C 06
 (003.563730)  can0  100   [6]  48 00 C2 01 00 00
 (003.564509)  can0  102   [6]  56 06 03 06 2C 06
 (003.573608)  can0  100   [6]  48 00 C2 01 00 00
 (003.574310)  can0  101   [4]  08 00 FE FF
 (003.575099)  can0  102   [6]  6A 06 17 06 2C 06
 (003.575618)  can0  103   [2]  01 04
 (003.576469)  can0  104   [6]  00 00 00 00 00 00
 (003.576919)  can0  1FF   [1]  1D
 (003.583507)  can0  100   [6]  48 00 C2 01 00 00
 (003.584310)  can0  102   [6]  56 06 03 06 2C 06
 (003.593394)  can0  100   [6]  47 00 C3 01 00 00
 (003.594186)  can0  102   [6]  6A 06 17 06 2C 06
 (003.603301)  can0  100   [6]  47 00 C4 01 00 00
 (003.604089)  can0  102   [6]  56 06 03 06 2C 06
 (003.613204)  can0  100   [6]  47 00 C4 01 00 00
 (003.613997)  can0  102   [6]  6A 06 17 06 2C 06
 (003.623120)  can0  100   [6]  47 00 C3 01 00 00
 (003.623768)  can0  101   [4]  06 00 FE FF
 (003.624569)  can0  102   [6]  56 06 03 06 2C 06
 (003.625097)  can0  103   [2]  01 04
 (003.625946)  can0  104   [6]  00 00 00 00 00 00
 (003.626406)  can0  1FF   [1]  1E
 (003.633023)  can0  100   [6]  46 00 C3 01 00 00
 (003.634030)  can0  102   [6]  6A 06 17 06 2C 06
 (003.642918)  can0  100   [6]  46 00 C3 01 00 00
 (003.643709)  can0  102   [6]  56 06 03 06 2C 06
 (003.652827)  can0  100   [6]  46 00 C3 01 00 00
 (003.653683)  can0  102   [6]  6A 06 17 06 2C 06
 (003.662719)  can0  100   [6]  47 00 C3 01 00 00
 (003.663513)  can0  102   [6]  56 06 03 06 2C 06
 (003.672616)  can0  100   [6]  47 00 C3 01 00 00
 (003.673303)  can0  101   [4]  00 00 02 00
 (003.674117)  can0  102   [6]  6A 06 17 06 2C 06
 (003.674630)  can0  103   [2]  01 04
 (003.675477)  can0  104   [6]  00 00 00 00 00 00
 (003.675944)  can0  1FF   [1]  1F
 (003.682519)  can0  100   [6]  47 00 C3 01 00 00
 (003.683319)  can0  102   [6]  56 06 03 06 2C 06
 (003.692418)  can0  100   [6]  47 00 C3 01 00 00
 (003.693214)  can0  102   [6]  6A 06 17 06 2C 06
 (003.702325)  can0  100   [6]  47 00 C3 01 00 00
 (003.703117)  can0  102   [6]  56 06 03 06 2C 06
 (003.712225)  can0  100   [6]  46 00 C2 01 00 00
 (003.713023)  can0  102   [6]  6A 06 17 06 2C 06
 (003.722140)  can0  100   [6]  46 00 C3 01 00 00
 (003.722807)  can0  101   [4]  01 00 00 00
 (003.723604)  can0  102   [6]  56 06 03 06 2C 06
 (003.724132)  can0  103   [2]  01 04
 (003.724995)  can0  104   [6]  00 00 00 00 00 00
 (003.725540)  can0  1FF   [1]  20
 (003.732051)  can0  100   [6]  47 00 C2 01 00 00
 (003.732869)  can0  102   [6]  6A 06 17 06 2C 06
 (003.741951)  can0  100   [6]  47 00 C2 01 00 00
 (003.742746)  can0  102   [6]  56 06 03 06 2C 06
 (003.751833)  can0  100   [6]  46 00 C1 01 00 00
 (003.752625)  can0  102   [6]  6A 06 17 06 2C 06
 (003.761726)  can0  100   [6]  46 00 C1 01 00 00
 (003.762523)  can0  102   [6]  56 06 03 06 2C 06
 (003.771626)  can0  100   [6]  46 00 C1 01 00 00
 (003.772291)  can0  101   [4]  00 00 F6 FF
 (003.773093)  can0  102   [6]  6A 06 17 06 2C 06
 (003.773623)  can0  103   [2]  01 04
 (003.774474)  can0  104   [6]  00 00 00 00 00 00
 (003.774944)  can0  1FF   [1]  21
 (003.781529)  can0  100   [6]  46 00 C1 01 00 00
 (003.782324)  can0  102   [6]  56 06 03 06 2C 06
 (003.791440)  can0  100   [6]  47 00 C2 01 00 00
 (003.792235)  can0  102   [6]  6A 06 17 06 2C 06
 (003.801344)  can0  100   [6]  47 00 C2 01 00 00
 (003.802140)  can0  102   [6]  56 06 03 06 2C 06
 (003.811226)  can0  100   [6]  46 00 C2 01 00 00
 (003.812021)  can0  102   [6]  6A 06 17 06 2C 06
 (003.821138)  can0  100   [6]  46 00 C1 01 00 00
 (003.821821)  can0  101   [4]  FB FF FB FF
 (003.822624)  can0  102   [6]  56 06 03 06 2C 06
 (003.823153)  can0  103   [2]  01 04
 (003.824004)  can0  104   [6]  00 00 00 00 00 00
 (003.824461)  can0  1FF   [1]  22
 (003.831030)  can0  100   [6]  45 00 C2 01 00 00
 (003.831827)  can0  102   [6]  6A 06 17 06 2C 06
 (003.840949)  can0  100   [6]  44 00 C2 01 00 00
 (003.841767)  can0  102   [6]  56 06 03 06 2C 06
 (003.850858)  can0  100   [6]  44 00 C1 01 00 00
 (003.851677)  can0  102   [6]  6A 06 17 06 2C 06
 (003.860757)  can0  100   [6]  44 00 C0 01 00 00
 (003.861554)  can0  102   [6]  56 06 03 06 2C 06
 (003.870648)  can0  100   [6]  45 00 C1 01 00 00
 (003.871339)  can0  101   [4]  FE FF FD FF
 (003.872120)  can0  102   [6]  6A 06 17 06 2C 06
 (003.872656)  can0  103   [2]  01 04
 (003.873503)  can0  104   [6]  00 00 00 00 00 00
 (003.873951)  can0  1FF   [1]  23
 (003.880600)  can0  100   [6]  44 00 C2 01 00 00
 (003.881336)  can0  102   [6]  56 06 03 06 2C 06
 (003.890449)  can0  100   [6]  44 00 C2 01 00 00
 (003.891241)  can0  102   [6]  6A 06 17 06 2C 06
 (003.900341)  can0  100   [6]  44 00 C2 01 00 00
 (003.901136)  can0  102   [6]  56 06 03 06 2C 06
 (003.910226)  can0  100   [6]  45 00 C2 01 00 00
 (003.911029)  can0  102   [6]  6A 06 17 06 2C 06
 (003.920125)  can0  100   [6]  45 00 C3 01 00 00
 (003.920793)  can0  101   [4]  00 00 05 00
 (003.921590)  can0  102   [6]  56 06 03 06 2C 06
 (003.922142)  can0  103   [2]  01 04
 (003.922976)  can0  104   [6]  00 00 00 00 00 00
 (003.923426)  can0  1FF   [1]  24
 (003.930036)  can0  100   [6]  45 00 C2 01 00 00
 (003.930826)  can0  102   [6]  6A 06 17 06 2C 06
 (003.939930)  can0  100   [6]  45 00 C2 01 00 00
 (003.940728)  can0  102   [6]  56 06 03 06 2C 06
 (003.949831)  can0  100   [6]  45 00 C2 01 00 00
 (003.950640)  can0  102   [6]  6A 06 17 06 2C 06
 (003.959736)  can0  100   [6]  46 00 C2 01 00 00
 (003.960528)  can0  102   [6]  56 06 03 06 2C 06
 (003.969633)  can0  100   [6]  46 00 C3 01 00 00
 (003.970308)  can0  101   [4]  01 00 04 00
 (003.971109)  can0  102   [6]  6A 06 17 06 2C 06
 (003.971638)  can0  103   [2]  01 04
 (003.972487)  can0  104   [6]  00 00 00 00 00 00
 (003.972964)  can0  1FF   [1]  25
 (003.979526)  can0  100   [6]  48 00 C3 01 00 00
 (003.980340)  can0  102   [6]  56 06 03 06 2C 06
 (003.989414)  can0  100   [6]  47 00 C3 01 00 00
 (003.990230)  can0  102   [6]  6A 06 17 06 2C 06
 (003.999324)  can0  100   [6]  47 00 C2 01 00 00
 (004.000120)  can0  102   [6]  56 06 03 06 2C 06
 (004.009218)  can0  100   [6]  47 00 C2 01 00 00
 (004.010018)  can0  102   [6]  6A 06 17 06 2C 06
 (004.019121)  can0  100   [6]  47 00 C1 01 00 00
 (004.019773)  can0  101   [4]  02 00 F5 FF
 (004.020574)  can0  102   [6]  56 06 03 06 2C 06
 (004.021103)  can0  103   [2]  01 04
 (004.021954)  can0  104   [6]  00 00 00 00 00 00
 (004.022402)  can0  1FF   [1]  26
 (004.029010)  can0  100   [6]  47 00 C1 01 00 00
 (004.029807)  can0  102   [6]  6A 06 17 06 2C 06
 (004.038934)  can0  100   [6]  47 00 C2 01 00 00
 (004.039716)  can0  102   [6]  56 06 03 06 2C 06
 (004.048908)  can0  100   [6]  47 00 C2 01 00 00
 (004.049704)  can0  102   [6]  6A 06 17 06 2C 06
 (004.058692)  can0  100   [6]  47 00 C3 01 00 00
 (004.059490)  can0  102   [6]  56 06 03 06 2C 06
 (004.068588)  can0  100   [6]  47 00 C3 01 00 00
 (004.069258)  can0  101   [4]  FF FF 05 00
 (004.070057)  can0  102   [6]  6A 06 17 06 2C 06
 (004.070586)  can0  103   [2]  01 04
 (004.071435)  can0  104   [6]  00 00 00 00 00 00
 (004.071885)  can0  1FF   [1]  27
 (004.078499)  can0  100   [6]  47 00 C3 01 00 00
 (004.079283)  can0  102   [6]  56 06 03 06 2C 06
 (004.088389)  can0  100   [6]  47 00 C3 01 00 00
 (004.089187)  can0  102   [6]  6A 06 17 06 2C 06
 (004.098305)  can0  100   [6]  47 00 C2 01 00 00
 (004.099101)  can0  102   [6]  56 06 03 06 2C 06
 (004.108190)  can0  100   [6]  46 00 C3 01 00 00
 (004.108986)  can0  102   [6]  6A 06 17 06 2C 06
 (004.118115)  can0  100   [6]  45 00 C3 01 00 00
 (004.118762)  can0  101   [4]  04 00 06 00
 (004.119582)  can0  102   [6]  56 06 03 06 2C 06
 (004.120093)  can0  103   [2]  01 04
 (004.120940)  can0  104   [6]  00 00 00 00 00 00
 (004.121394)  can0  1FF   [1]  28
 (004.127978)  can0  100   [6]  45 00 C3 01 00 00
 (004.128776)  can0  102   [6]  6A 06 17 06 2C 06
 (004.137881)  can0  100   [6]  45 00 C2 01 00 00
 (004.138674)  can0  102   [6]  56 06 03 06 2C 06
 (004.148426)  can0  100   [6]  46 00 C2 01 00 00
 (004.149238)  can0  102   [6]  6A 06 17 06 2C 06
 (004.157668)  can0  100   [6]  45 00 C2 01 00 00
 (004.158462)  can0  102   [6]  56 06 03 06 2C 06
 (004.167999)  can0  100   [6]  45 00 C1 01 00 00
 (004.168672)  can0  101   [4]  06 00 04 00
 (004.169470)  can0  102   [6]  6A 06 17 06 2C 06
 (004.169998)  can0  103   [2]  01 04
 (004.170846)  can0  104   [6]  00 00 00 00 00 00
 (004.171297)  can0  1FF   [1]  29
 (004.177462)  can0  100   [6]  45 00 C2 01 00 00
 (004.178260)  can0  102   [6]  56 06 03 06 2C 06
 (004.187995)  can0  100   [6]  45 00 C1 01 00 00
 (004.188790)  can0  102   [6]  6A 06 17 06 2C 06
 (004.197738)  can0  100   [6]  45 00 C2 01 00 00
 (004.198534)  can0  102   [6]  56 06 03 06 2C 06
 (004.207970)  can0  100   [6]  45 00 C2 01 00 00
 (004.208767)  can0  102   [6]  6A 06 17 06 2C 06
 (004.217274)  can0  100   [6]  45 00 C2 01 00 00
 (004.217948)  can0  101   [4]  FC FF 03 00
 (004.218784)  can0  102   [6]  56 06 03 06 2C 06
 (004.219275)  can0  103   [2]  01 04
 (004.220124)  can0  104   [6]  00 00 00 00 00 00
 (004.220581)  can0  1FF   [1]  2A
 (004.227115)  can0  100   [6]  45 00 C2 01 00 00
 (004.227914)  can0  102   [6]  6A 06 17 06 2C 06
 (004.237275)  can0  100   [6]  45 00 C3 01 00 00
 (004.238074)  can0  102   [6]  56 06 03 06 2C 06
 (004.247137)  can0  100   [6]  44 00 C3 01 00 00
 (004.247921)  can0  102   [6]  6A 06 17 06 2C 06
 (004.257305)  can0  100   [6]  45 00 C3 01 00 00
 (004.258089)  can0  102   [6]  56 06 03 06 2C 06
 (004.267123)  can0  100   [6]  44 00 C3 01 00 00
 (004.267803)  can0  101   [4]  00 00 07 00
 (004.268622)  can0  102   [6]  6A 06 17 06 2C 06
 (004.269135)  can0  103   [2]  01 04
 (004.269984)  can0  104   [6]  00 00 00 00 00 00
 (004.270445)  can0  1FF   [1]  2B
 (004.277310)  can0  100   [6]  44 00 C3 01 00 00
 (004.278100)  can0  102   [6]  56 06 03 06 2C 06
 (004.286436)  can0  100   [6]  43 00 C2 01 00 00
 (004.287234)  can0  102   [6]  6A 06 17 06 2C 06
 (004.296446)  can0  100   [6]  43 00 C2 01 00 00
 (004.297232)  can0  102   [6]  56 06 03 06 2C 06
 (004.306568)  can0  100   [6]  44 00 C2 01 00 00
 (004.307243)  can0  102   [6]  6A 06 17 06 2C 06
 (004.316419)  can0  100   [6]  45 00 C2 01 00 00
 (004.317087)  can0  101   [4]  00 00 F6 FF
 (004.317890)  can0  102   [6]  56 06 03 06 2C 06
 (004.318418)  can0  103   [2]  01 04
 (004.319267)  can0  104   [6]  00 00 00 00 00 00
 (004.319717)  can0  1FF   [1]  2C
 (004.326426)  can0  100   [6]  45 00 C3 01 00 00
 (004.327228)  can0  102   [6]  6A 06 17 06 2C 06
 (004.336427)  can0  100   [6]  45 00 C3 01 00 00
 (004.337224)  can0  102   [6]  56 06 03 06 2C 06
 (004.346437)  can0  100   [6]  44 00 C3 01 00 00
 (004.347231)  can0  102   [6]  6A 06 17 06 2C 06
 (004.355680)  can0  100   [6]  44 00 C2 01 00 00
 (004.356472)  can0  102   [6]  56 06 03 06 2C 06
 (004.365573)  can0  100   [6]  43 00 C1 01 00 00
 (004.366243)  can0  101   [4]  F9 FF F0 FF
 (004.367049)  can0  102   [6]  6A 06 17 06 2C 06
 (004.367578)  can0  103   [2]  01 04
 (004.368429)  can0  104   [6]  00 00 00 00 00 00
 (004.368883)  can0  1FF   [1]  2D
 (004.375471)  can0  100   [6]  43 00 C2 01 00 00
 (004.376268)  can0  102   [6]  56 06 03 06 2C 06
 (004.385373)  can0  100   [6]  44 00 C3 01 00 00
 (004.386168)  can0  102   [6]  6A 06 17 06 2C 06
 (004.395288)  can0  100   [6]  43 00 C3 01 00 00
 (004.396068)  can0  102   [6]  56 06 03 06 2C 06
 (004.405174)  can0  100   [6]  44 00 C3 01 00 00
 (004.405971)  can0  102   [6]  6A 06 17 06 2C 06
 (004.415071)  can0  100   [6]  44 00 C3 01 00 00
 (004.415756)  can0  101   [4]  FB FF 04 00
 (004.416553)  can0  102   [6]  56 06 03 06 2C 06
 (004.417080)  can0  103   [2]  01 04
 (004.417928)  can0  104   [6]  00 00 00 00 00 00
 (004.418387)  can0  1FF   [1]  2E
 (004.424965)  can0  100   [6]  45 00 C3 01 00 00
 (004.425761)  can0  102   [6]  6A 06 17 06 2C 06
 (004.434871)  can0  100   [6]  45 00 C3 01 00 00
 (004.435662)  can0  102   [6]  56 06 03 06 2C 06
 (004.444768)  can0  100   [6]  45 00 C3 01 00 00
 (004.445564)  can0  102   [6]  6A 06 17 06 2C 06
 (004.454668)  can0  100   [6]  45 00 C2 01 00 00
 (004.455471)  can0  102   [6]  56 06 03 06 2C 06
 (004.464568)  can0  100   [6]  45 00 C3 01 00 00
 (004.465241)  can0  101   [4]  FA FF 04 00
 (004.466050)  can0  102   [6]  6A 06 17 06 2C 06
 (004.466573)  can0  103   [2]  01 04
 (004.467423)  can0  104   [6]  00 00 00 00 00 00
 (004.467872)  can0  1FF   [1]  2F
 (004.474466)  can0  100   [6]  45 00 C3 01 00 00
 (004.475277)  can0  102   [6]  56 06 03 06 2C 06
 (004.484377)  can0  100   [6]  46 00 C3 01 00 00
 (004.485182)  can0  102   [6]  6A 06 17 06 2C 06
 (004.494276)  can0  100   [6]  46 00 C3 01 00 00
 (004.495077)  can0  102   [6]  56 06 03 06 2C 06
 (004.504170)  can0  100   [6]  46 00 C3 01 00 00
 (004.504962)  can0  102   [6]  6A 06 17 06 2C 06
 (004.514081)  can0  100   [6]  46 00 C3 01 00 00
 (004.514749)  can0  101   [4]  07 00 04 00
 (004.515541)  can0  102   [6]  56 06 03 06 2C 06
 (004.516073)  can0  103   [2]  01 04
 (004.516928)  can0  104   [6]  00 00 00 00 00 00
 (004.517383)  can0  1FF   [1]  30
 (004.523965)  can0  100   [6]  46 00 C3 01 00 00
 (004.524764)  can0  102   [6]  6A 06 17 06 2C 06
 (004.533873)  can0  100   [6]  45 00 C4 01 00 00
 (004.534667)  can0  102   [6]  56 06 03 06 2C 06
 (004.543772)  can0  100   [6]  45 00 C4 01 00 00
 (004.544567)  can0  102   [6]  6A 06 17 06 2C 06
 (004.553656)  can0  100   [6]  46 00 C3 01 00 00
 (004.554451)  can0  102   [6]  56 06 03 06 2C 06
 (004.563559)  can0  100   [6]  46 00 C3 01 00 00
 (004.564224)  can0  101   [4]  00 00 0D 00
 (004.565023)  can0  102   [6]  6A 06 17 06 2C 06
 (004.565554)  can0  103   [2]  01 04
 (004.566527)  can0  104   [6]  00 00 00 00 00 00
 (004.566854)  can0  1FF   [1]  31
 (004.573472)  can0  100   [6]  45 00 C4 01 00 00
 (004.574250)  can0  102   [6]  56 06 03 06 2C 06
 (004.583352)  can0  100   [6]  45 00 C4 01 00 00
 (004.584154)  can0  102   [6]  6A 06 17 06 2C 06
 (004.593228)  can0  100   [6]  45 00 C5 01 00 00
 (004.594022)  can0  102   [6]  56 06 03 06 2C 06
 (004.603130)  can0  100   [6]  46 00 C5 01 00 00
 (004.603920)  can0  102   [6]  6A 06 17 06 2C 06
 (004.613026)  can0  100   [6]  46 00 C5 01 00 00
 (004.613708)  can0  101   [4]  00 00 FF FF
 (004.614507)  can0  102   [6]  56 06 03 06 2C 06
 (004.615054)  can0  103   [2]  01 04
 (004.615888)  can0  104   [6]  00 00 00 00 00 00
 (004.616340)  can0  1FF   [1]  32
 (004.622925)  can0  100   [6]  46 00 C4 01 00 00
 (004.623718)  can0  102   [6]  6A 06 17 06 2C 06
 (004.632823)  can0  100   [6]  45 00 C3 01 00 00
 (004.633615)  can0  102   [6]  56 06 03 06 2C 06
 (004.642733)  can0  100   [6]  45 00 C4 01 00 00
 (004.643540)  can0  102   [6]  6A 06 17 06 2C 06
 (004.652630)  can0  100   [6]  44 00 C4 01 00 00
 (004.653423)  can0  102   [6]  56 06 03 06 2C 06
 (004.662525)  can0  100   [6]  44 00 C4 01 00 00
 (004.663199)  can0  101   [4]  00 00 0A 00
 (004.663996)  can0  102   [6]  6A 06 17 06 2C 06
 (004.664522)  can0  103   [2]  01 04
 (004.665371)  can0  104   [6]  00 00 00 00 00 00
 (004.665830)  can0  1FF   [1]  33
 (004.672430)  can0  100   [6]  44 00 C5 01 00 00
 (004.673226)  can0  102   [6]  56 06 03 06 2C 06
 (004.682326)  can0  100   [6]  44 00 C4 01 00 00
 (004.683191)  can0  102   [6]  6A 06 17 06 2C 06
 (004.692219)  can0  100   [6]  44 00 C4 01 00 00
 (004.693016)  can0  102   [6]  56 06 03 06 2C 06
 (004.702121)  can0  100   [6]  44 00 C3 01 00 00
 (004.702913)  can0  102   [6]  6A 06 17 06 2C 06
 (004.712033)  can0  100   [6]  45 00 C4 01 00 00
 (004.712710)  can0  101   [4]  FD FF FD FF
 (004.713506)  can0  102   [6]  56 06 03 06 2C 06
 (004.714036)  can0  103   [2]  01 04
 (004.714890)  can0  104   [6]  00 00 00 00 00 00
 (004.715353)  can0  1FF   [1]  34
 (004.721929)  can0  100   [6]  45 00 C5 01 00 00
 (004.722709)  can0  102   [6]  6A 06 17 06 2C 06
 (004.731831)  can0  100   [6]  45 00 C4 01 00 00
 (004.732619)  can0  102   [6]  56 06 03 06 2C 06
 (004.741705)  can0  100   [6]  45 00 C5 01 00 00
 (004.742500)  can0  102   [6]  6A 06 17 06 2C 06
 (004.751608)  can0  100   [6]  46 00 C6 01 00 00
 (004.752399)  can0  102   [6]  56 06 03 06 2C 06
 (004.761510)  can0  100   [6]  46 00 C6 01 00 00
 (004.762159)  can0  101   [4]  F6 FF 03 00
 (004.762959)  can0  102   [6]  6A 06 17 06 2C 06
 (004.763487)  can0  103   [2]  01 04
 (004.764334)  can0  104   [6]  00 00 00 00 00 00
 (004.764786)  can0  1FF   [1]  35
 (004.771396)  can0  100   [6]  46 00 C6 01 00 00
 (004.772192)  can0  102   [6]  56 06 03 06 2C 06
 (004.781338)  can0  100   [6]  46 00 C7 01 00 00
 (004.782110)  can0  102   [6]  6A 06 17 06 2C 06
 (004.791196)  can0  100   [6]  47 00 C7 01 00 00
 (004.791998)  can0  102   [6]  56 06 03 06 2C 06
 (004.801091)  can0  100   [6]  47 00 C7 01 00 00
 (004.801883)  can0  102   [6]  6A 06 17 06 2C 06
 (004.810998)  can0  100   [6]  46 00 C6 01 00 00
 (004.811667)  can0  101   [4]  00 00 FE FF
 (004.812467)  can0  102   [6]  56 06 03 06 2C 06
 (004.812995)  can0  103   [2]  01 04
 (004.813849)  can0  104   [6]  00 00 00 00 00 00
 (004.814296)  can0  1FF   [1]  36
 (004.820889)  can0  100   [6]  46 00 C6 01 00 00
 (004.821682)  can0  102   [6]  6A 06 17 06 2C 06
 (004.830785)  can0  100   [6]  46 00 C6 01 00 00
 (004.831575)  can0  102   [6]  56 06 03 06 2C 06
 (004.840678)  can0  100   [6]  46 00 C6 01 00 00
 (004.841475)  can0  102   [6]  6A 06 17 06 2C 06
 (004.850576)  can0  100   [6]  46 00 C5 01 00 00
 (004.851372)  can0  102   [6]  56 06 03 06 2C 06
 (004.860467)  can0  100   [6]  46 00 C5 01 00 00
 (004.861144)  can0  101   [4]  FF FF 00 00
 (004.861943)  can0  102   [6]  6A 06 17 06 2C 06
 (004.862473)  can0  103   [2]  01 04
 (004.863353)  can0  104   [6]  00 00 00 00 00 00
 (004.863780)  can0  1FF   [1]  37
 (004.870368)  can0  100   [6]  46 00 C5 01 00 00
 (004.871163)  can0  102   [6]  56 06 03 06 2C 06
 (004.880265)  can0  100   [6]  46 00 C5 01 00 00
 (004.881058)  can0  102   [6]  6A 06 17 06 2C 06
 (004.890160)  can0  100   [6]  46 00 C5 01 00 00
 (004.890974)  can0  102   [6]  56 06 03 06 2C 06
 (004.900225)  can0  100   [6]  46 00 C5 01 00 00
 (004.900850)  can0  102   [6]  6A 06 17 06 2C 06
 (004.909949)  can0  100   [6]  45 00 C5 01 00 00
 (004.910607)  can0  101   [4]  F6 FF FC FF
 (004.911402)  can0  102   [6]  56 06 03 06 2C 06
 (004.911930)  can0  103   [2]  01 04
 (004.912783)  can0  104   [6]  00 00 00 00 00 00
 (004.913235)  can0  1FF   [1]  38
 (004.919844)  can0  100   [6]  46 00 C5 01 00 00
 (004.920637)  can0  102   [6]  6A 06 17 06 2C 06
 (004.929748)  can0  100   [6]  47 00 C5 01 00 00
 (004.930548)  can0  102   [6]  56 06 03 06 2C 06
 (004.939644)  can0  100   [6]  47 00 C5 01 00 00
 (004.940439)  can0  102   [6]  6A 06 17 06 2C 06
 (004.949558)  can0  100   [6]  46 00 C4 01 00 00
 (004.950354)  can0  102   [6]  56 06 03 06 2C 06
 (004.959466)  can0  100   [6]  46 00 C4 01 00 00
 (004.960134)  can0  101   [4]  FF FF FF FF
 (004.960954)  can0  102   [6]  6A 06 17 06 2C 06
 (004.961466)  can0  103   [2]  01 04
 (004.962315)  can0  104   [6]  00 00 00 00 00 00
 (004.962766)  can0  1FF   [1]  39
 (004.969338)  can0  100   [6]  46 00 C3 01 00 00
 (004.970137)  can0  102   [6]  56 06 03 06 2C 06
 (004.979236)  can0  100   [6]  46 00 C3 01 00 00
 (004.980033)  can0  102   [6]  6A 06 17 06 2C 06
 (004.989134)  can0  100   [6]  46 00 C3 01 00 00
 (004.989932)  can0  102   [6]  56 06 03 06 2C 06
 (004.999040)  can0  100   [6]  47 00 C2 01 00 00
 (004.999849)  can0  102   [6]  6A 06 17 06 2C 06
 (005.008922)  can0  100   [6]  46 00 C2 01 00 00
 (005.009599)  can0  101   [4]  04 00 18 00
 (005.010404)  can0  102   [6]  56 06 03 06 2C 06
 (005.010930)  can0  103   [2]  01 04
 (005.011777)  can0  104   [6]  00 00 00 00 00 00
 (005.012227)  can0  1FF   [1]  3A
 (005.018817)  can0  100   [6]  46 00 C2 01 00 00
 (005.019613)  can0  102   [6]  6A 06 17 06 2C 06
 (005.028712)  can0  100   [6]  46 00 C2 01 00 00
 (005.029510)  can0  102   [6]  56 06 03 06 2C 06
 (005.038618)  can0  100   [6]  47 00 C3 01 00 00
 (005.039418)  can0  102   [6]  6A 06 17 06 2C 06
 (005.048889)  can0  100   [6]  48 00 C2 01 00 00
 (005.049692)  can0  102   [6]  56 06 03 06 2C 06
 (005.058413)  can0  100   [6]  48 00 C3 01 00 00
 (005.059084)  can0  101   [4]  FF FF 0E 00
 (005.059882)  can0  102   [6]  6A 06 17 06 2C 06
 (005.060414)  can0  103   [2]  01 04
 (005.061267)  can0  104   [6]  00 00 00 00 00 00
 (005.061724)  can0  1FF   [1]  3B
 (005.068306)  can0  100   [6]  48 00 C3 01 00 00
 (005.069102)  can0  102   [6]  56 06 03 06 2C 06
 (005.078201)  can0  100   [6]  47 00 C3 01 00 00
 (005.079003)  can0  102   [6]  6A 06 17 06 2C 06
 (005.088135)  can0  100   [6]  48 00 C4 01 00 00
 (005.088919)  can0  102   [6]  56 06 03 06 2C 06
 (005.098209)  can0  100   [6]  48 00 C3 01 00 00
 (005.099006)  can0  102   [6]  6A 06 17 06 2C 06
 (005.107978)  can0  100   [6]  47 00 C3 01 00 00
 (005.108650)  can0  101   [4]  09 00 0F 00
 (005.109451)  can0  102   [6]  56 06 03 06 2C 06
 (005.109981)  can0  103   [2]  01 04
 (005.110832)  can0  104   [6]  00 00 00 00 00 00
 (005.111297)  can0  1FF   [1]  3C
 (005.117782)  can0  100   [6]  47 00 C3 01 00 00
 (005.118579)  can0  102   [6]  6A 06 17 06 2C 06
 (005.127958)  can0  100   [6]  47 00 C3 01 00 00
 (005.128756)  can0  102   [6]  56 06 03 06 2C 06
 (005.137574)  can0  100   [6]  46 00 C3 01 00 00
 (005.138383)  can0  102   [6]  6A 06 17 06 2C 06
 (005.147583)  can0  100   [6]  46 00 C3 01 00 00
 (005.148383)  can0  102   [6]  56 06 03 06 2C 06
 (005.157373)  can0  100   [6]  46 00 C3 01 00 00
 (005.158043)  can0  101   [4]  03 00 01 00
 (005.158845)  can0  102   [6]  6A 06 17 06 2C 06
 (005.159373)  can0  103   [2]  01 04
 (005.160222)  can0  104   [6]  00 00 00 00 00 00
 (005.160681)  can0  1FF   [1]  3D
 (005.167990)  can0  100   [6]  46 00 C3 01 00 00
 (005.168785)  can0  102   [6]  56 06 03 06 2C 06
 (005.177276)  can0  100   [6]  46 00 C3 01 00 00
 (005.178080)  can0  102   [6]  6A 06 17 06 2C 06
 (005.187115)  can0  100   [6]  46 00 C3 01 00 00
 (005.187911)  can0  102   [6]  56 06 03 06 2C 06
 (005.197737)  can0  100   [6]  46 00 C4 01 00 00
 (005.198542)  can0  102   [6]  6A 06 17 06 2C 06
 (005.207133)  can0  100   [6]  46 00 C4 01 00 00
 (005.207784)  can0  101   [4]  F5 FF 06 00
 (005.208584)  can0  102   [6]  56 06 03 06 2C 06
 (005.209113)  can0  103   [2]  01 04
 (005.209962)  can0  104   [6]  00 00 00 00 00 00
 (005.210424)  can0  1FF   [1]  3E
 (005.217284)  can0  100   [6]  46 00 C4 01 00 00
 (005.218080)  can0  102   [6]  6A 06 17 06 2C 06
 (005.227131)  can0  100   [6]  45 00 C4 01 00 00
 (005.227920)  can0  102   [6]  56 06 03 06 2C 06
 (005.237265)  can0  100   [6]  45 00 C3 01 00 00
 (005.238064)  can0  102   [6]  6A 06 17 06 2C 06
 (005.247133)  can0  100   [6]  45 00 C4 01 00 00
 (005.247929)  can0  102   [6]  56 06 03 06 2C 06
 (005.256436)  can0  100   [6]  45 00 C4 01 00 00
 (005.257116)  can0  101   [4]  10 00 FB FF
 (005.257916)  can0  102   [6]  6A 06 17 06 2C 06
 (005.258446)  can0  103   [2]  01 04
 (005.259294)  can0  104   [6]  00 00 00 00 00 00
 (005.259753)  can0  1FF   [1]  3F
 (005.266630)  can0  100   [6]  45 00 C4 01 00 00
 (005.267236)  can0  102   [6]  56 06 03 06 2C 06
 (005.276419)  can0  100   [6]  46 00 C4 01 00 00
 (005.277218)  can0  102   [6]  6A 06 17 06 2C 06
 (005.286420)  can0  100   [6]  46 00 C3 01 00 00
 (005.287218)  can0  102   [6]  56 06 03 06 2C 06
 (005.296420)  can0  100   [6]  47 00 C3 01 00 00
 (005.297219)  can0  102   [6]  6A 06 17 06 2C 06
 (005.306429)  can0  100   [6]  47 00 C2 01 00 00
 (005.307126)  can0  101   [4]  08 00 FF FF
 (005.308052)  can0  102   [6]  56 06 03 06 2C 06
 (005.308445)  can0  103   [2]  01 04
 (005.309299)  can0  104   [6]  00 00 00 00 00 00
 (005.309749)  can0  1FF   [1]  40
 (005.316423)  can0  100   [6]  46 00 C2 01 00 00
 (005.317217)  can0  102   [6]  6A 06 17 06 2C 06
 (005.325678)  can0  100   [6]  47 00 C2 01 00 00
 (005.326477)  can0  102   [6]  56 06 03 06 2C 06
 (005.335567)  can0  100   [6]  46 00 C3 01 00 00
 (005.336362)  can0  102   [6]  6A 06 17 06 2C 06
 (005.345476)  can0  100   [6]  47 00 C2 01 00 00
 (005.346271)  can0  102   [6]  56 06 03 06 2C 06
 (005.355371)  can0  100   [6]  47 00 C2 01 00 00
 (005.356046)  can0  101   [4]  04 00 F5 FF
 (005.356848)  can0  102   [6]  6A 06 17 06 2C 06
 (005.357377)  can0  103   [2]  01 04
 (005.358228)  can0  104   [6]  00 00 00 00 00 00
 (005.358692)  can0  1FF   [1]  41
 (005.365265)  can0  100   [6]  48 00 C2 01 00 00
 (005.366066)  can0  102   [6]  56 06 03 06 2C 06
 (005.375168)  can0  100   [6]  47 00 C2 01 00 00
 (005.375965)  can0  102   [6]  6A 06 17 06 2C 06
 (005.385052)  can0  100   [6]  47 00 C3 01 00 00
 (005.385847)  can0  102   [6]  56 06 03 06 2C 06
 (005.394965)  can0  100   [6]  48 00 C2 01 00 00
 (005.395760)  can0  102   [6]  6A 06 17 06 2C 06
 (005.404865)  can0  100   [6]  47 00 C2 01 00 00
 (005.405541)  can0  101   [4]  05 00 04 00
 (005.406340)  can0  102   [6]  56 06 03 06 2C 06
 (005.406873)  can0  103   [2]  01 04
 (005.407718)  can0  104   [6]  00 00 00 00 00 00
 (005.408167)  can0  1FF   [1]  42
 (005.414766)  can0  100   [6]  47 00 C1 01 00 00
 (005.415561)  can0  102   [6]  6A 06 17 06 2C 06
 (005.424653)  can0  100   [6]  46 00 C1 01 00 00
 (005.425448)  can0  102   [6]  56 06 03 06 2C 06
 (005.434561)  can0  100   [6]  47 00 C1 01 00 00
 (005.435353)  can0  102   [6]  6A 06 17 06 2C 06
 (005.444457)  can0  100   [6]  47 00 C2 01 00 00
 (005.445250)  can0  102   [6]  56 06 03 06 2C 06
 (005.454352)  can0  100   [6]  47 00 C2 01 00 00
 (005.455024)  can0  101   [4]  07 00 06 00
 (005.455837)  can0  102   [6]  6A 06 17 06 2C 06
 (005.456358)  can0  103   [2]  01 04
 (005.457207)  can0  104   [6]  00 00 00 00 00 00
 (005.457663)  can0  1FF   [1]  43
 (005.464232)  can0  100   [6]  47 00 C3 01 00 00
 (005.465031)  can0  102   [6]  56 06 03 06 2C 06
 (005.474132)  can0  100   [6]  47 00 C3 01 00 00
 (005.474943)  can0  102   [6]  6A 06 17 06 2C 06
 (005.484052)  can0  100   [6]  47 00 C3 01 00 00
 (005.484826)  can0  102   [6]  56 06 03 06 2C 06
 (005.493930)  can0  100   [6]  47 00 C3 01 00 00
 (005.494727)  can0  102   [6]  6A 06 17 06 2C 06
 (005.503840)  can0  100   [6]  46 00 C3 01 00 00
 (005.504507)  can0  101   [4]  01 00 00 00
 (005.505318)  can0  102   [6]  56 06 03 06 2C 06
 (005.505846)  can0  103   [2]  01 04
 (005.506692)  can0  104   [6]  00 00 00 00 00 00
 (005.507148)  can0  1FF   [1]  44
 (005.513723)  can0  100   [6]  46 00 C2 01 00 00
 (005.514521)  can0  102   [6]  6A 06 17 06 2C 06
 (005.523646)  can0  100   [6]  46 00 C1 01 00 00
 (005.524434)  can0  102   [6]  56 06 03 06 2C 06
 (005.533523)  can0  100   [6]  46 00 C2 01 00 00
 (005.534315)  can0  102   [6]  6A 06 17 06 2C 06
 (005.543422)  can0  100   [6]  46 00 C2 01 00 00
 (005.544220)  can0  102   [6]  56 06 03 06 2C 06
 (005.553369)  can0  100   [6]  46 00 C2 01 00 00
 (005.553998)  can0  101   [4]  F7 FF 09 00
 (005.554786)  can0  102   [6]  6A 06 17 06 2C 06
 (005.555309)  can0  103   [2]  01 04
 (005.556158)  can0  104   [6]  00 00 00 00 00 00
 (005.556608)  can0  1FF   [1]  45
 (005.563213)  can0  100   [6]  46 00 C2 01 00 00
 (005.564013)  can0  102   [6]  56 06 03 06 2C 06
 (005.573118)  can0  100   [6]  46 00 C3 01 00 00
 (005.573913)  can0  102   [6]  6A 06 17 06 2C 06
 (005.583029)  can0  100   [6]  46 00 C3 01 00 00
 (005.583811)  can0  102   [6]  56 06 03 06 2C 06
 (005.592912)  can0  100   [6]  46 00 C2 01 00 00
 (005.593709)  can0  102   [6]  6A 06 17 06 2C 06
 (005.602806)  can0  100   [6]  46 00 C2 01 00 00
 (005.603471)  can0  101   [4]  FD FF 05 00
 (005.604272)  can0  102   [6]  56 06 03 06 2C 06
 (005.604802)  can0  103   [2]  01 04
 (005.605654)  can0  104   [6]  00 00 00 00 00 00
 (005.606103)  can0  1FF   [1]  46
 (005.612711)  can0  100   [6]  45 00 C2 01 00 00
 (005.613507)  can0  102   [6]  6A 06 17 06 2C 06
 (005.622608)  can0  100   [6]  46 00 C2 01 00 00
 (005.623423)  can0  102   [6]  56 06 03 06 2C 06
 (005.632517)  can0  100   [6]  46 00 C3 01 00 00
 (005.633338)  can0  102   [6]  6A 06 17 06 2C 06
 (005.642418)  can0  100   [6]  46 00 C3 01 00 00
 (005.643212)  can0  102   [6]  56 06 03 06 2C 06
 (005.652301)  can0  100   [6]  45 00 C3 01 00 00
 (005.652958)  can0  101   [4]  03 00 06 00
 (005.653782)  can0  102   [6]  6A 06 17 06 2C 06
 (005.654290)  can0  103   [2]  01 04
 (005.655137)  can0  104   [6]  00 00 00 00 00 00
 (005.655594)  can0  1FF   [1]  47
 (005.662201)  can0  100   [6]  45 00 C3 01 00 00
 (005.662998)  can0  102   [6]  56 06 03 06 2C 06
 (005.672105)  can0  100   [6]  46 00 C3 01 00 00
 (005.672900)  can0  102   [6]  6A 06 17 06 2C 06
 (005.681995)  can0  100   [6]  45 00 C3 01 00 00
 (005.682785)  can0  102   [6]  56 06 03 06 2C 06
 (005.691895)  can0  100   [6]  45 00 C3 01 00 00
 (005.692689)  can0  102   [6]  6A 06 17 06 2C 06
 (005.701803)  can0  100   [6]  44 00 C3 01 00 00
 (005.702469)  can0  101   [4]  F9 FF 00 00
 (005.703271)  can0  102   [6]  56 06 03 06 2C 06
 (005.703800)  can0  103   [2]  01 04
 (005.704649)  can0  104   [6]  00 00 00 00 00 00
 (005.705098)  can0  1FF   [1]  48
 (005.711701)  can0  100   [6]  44 00 C3 01 00 00
 (005.712496)  can0  102   [6]  6A 06 17 06 2C 06
 (005.721593)  can0  100   [6]  44 00 C4 01 00 00
 (005.722390)  can0  102   [6]  56 06 03 06 2C 06
 (005.731496)  can0  100   [6]  44 00 C3 01 00 00
 (005.732288)  can0  102   [6]  6A 06 17 06 2C 06
 (005.741391)  can0  100   [6]  44 00 C3 01 00 00
 (005.742187)  can0  102   [6]  56 06 03 06 2C 06
 (005.751288)  can0  100   [6]  44 00 C3 01 00 00
 (005.751952)  can0  101   [4]  F8 FF 06 00
 (005.752753)  can0  102   [6]  6A 06 17 06 2C 06
 (005.753282)  can0  103   [2]  01 04
 (005.754151)  can0  104   [6]  00 00 00 00 00 00
 (005.754582)  can0  1FF   [1]  49
 (005.761197)  can0  100   [6]  45 00 C4 01 00 00
 (005.761992)  can0  102   [6]  56 06 03 06 2C 06
 (005.771093)  can0  100   [6]  45 00 C4 01 00 00
 (005.771917)  can0  102   [6]  6A 06 17 06 2C 06
 (005.780981)  can0  100   [6]  45 00 C3 01 00 00
 (005.781774)  can0  102   [6]  56 06 03 06 2C 06
 (005.790883)  can0  100   [6]  44 00 C3 01 00 00
 (005.791681)  can0  102   [6]  6A 06 17 06 2C 06
 (005.800809)  can0  100   [6]  44 00 C4 01 00 00
 (005.801459)  can0  101   [4]  00 00 0B 00
 (005.802261)  can0  102   [6]  56 06 03 06 2C 06
 (005.802789)  can0  103   [2]  01 04
 (005.803638)  can0  104   [6]  00 00 00 00 00 00
 (005.804089)  can0  1FF   [1]  4A
 (005.810685)  can0  100   [6]  44 00 C4 01 00 00
 (005.811481)  can0  102   [6]  6A 06 17 06 2C 06
 (005.820589)  can0  100   [6]  44 00 C5 01 00 00
 (005.821381)  can0  102   [6]  56 06 03 06 2C 06
 (005.830489)  can0  100   [6]  44 00 C5 01 00 00
 (005.831287)  can0  102   [6]  6A 06 17 06 2C 06
 (005.840386)  can0  100   [6]  44 00 C5 01 00 00
 (005.841181)  can0  102   [6]  56 06 03 06 2C 06
 (005.850282)  can0  100   [6]  44 00 C5 01 00 00
 (005.850925)  can0  101   [4]  F4 FF 09 00
 (005.851739)  can0  102   [6]  6A 06 17 06 2C 06
 (005.852254)  can0  103   [2]  01 04
 (005.853102)  can0  104   [6]  00 00 00 00 00 00
 (005.853554)  can0  1FF   [1]  4B
 (005.860167)  can0  100   [6]  45 00 C5 01 00 00
 (005.860958)  can0  102   [6]  56 06 03 06 2C 06
 (005.870076)  can0  100   [6]  44 00 C5 01 00 00
 (005.870873)  can0  102   [6]  6A 06 17 06 2C 06
 (005.879990)  can0  100   [6]  44 00 C5 01 00 00
 (005.880799)  can0  102   [6]  56 06 03 06 2C 06
 (005.889879)  can0  100   [6]  44 00 C5 01 00 00
 (005.890675)  can0  102   [6]  6A 06 17 06 2C 06
 (005.899784)  can0  100   [6]  44 00 C5 01 00 00
 (005.900442)  can0  101   [4]  FD FF F4 FF
 (005.901242)  can0  102   [6]  56 06 03 06 2C 06
 (005.901771)  can0  103   [2]  01 04
 (005.902621)  can0  104   [6]  00 00 00 00 00 00
 (005.903079)  can0  1FF   [1]  4C
 (005.909658)  can0  100   [6]  45 00 C5 01 00 00
 (005.910459)  can0  102   [6]  6A 06 17 06 2C 06
 (005.919571)  can0  100   [6]  45 00 C4 01 00 00
 (005.920367)  can0  102   [6]  56 06 03 06 2C 06
 (005.929458)  can0  100   [6]  44 00 C4 01 00 00
 (005.930258)  can0  102   [6]  6A 06 17 06 2C 06
 (005.939384)  can0  100   [6]  45 00 C4 01 00 00
 (005.940164)  can0  102   [6]  56 06 03 06 2C 06
 (005.949265)  can0  100   [6]  45 00 C4 01 00 00
 (005.949933)  can0  101   [4]  03 00 02 00
 (005.950882)  can0  102   [6]  6A 06 17 06 2C 06
 (005.951315)  can0  103   [2]  01 04
 (005.952114)  can0  104   [6]  00 00 00 00 00 00
 (005.952562)  can0  1FF   [1]  4D
 (005.959163)  can0  100   [6]  45 00 C4 01 00 00
 (005.959965)  can0  102   [6]  56 06 03 06 2C 06
 (005.969050)  can0  100   [6]  44 00 C4 01 00 00
 (005.969847)  can0  102   [6]  6A 06 17 06 2C 06
 (005.978952)  can0  100   [6]  44 00 C3 01 00 00
 (005.979746)  can0  102   [6]  56 06 03 06 2C 06
 (005.988845)  can0  100   [6]  44 00 C3 01 00 00
 (005.989642)  can0  102   [6]  6A 06 17 06 2C 06
 (005.998756)  can0  100   [6]  44 00 C3 01 00 00
 (005.999414)  can0  101   [4]  01 00 F2 FF
 (006.000217)  can0  102   [6]  56 06 03 06 2C 06
 (006.000745)  can0  103   [2]  01 04
 (006.001594)  can0  104   [6]  00 00 00 00 00 00
 (006.002052)  can0  1FF   [1]  4E
 (006.008649)  can0  100   [6]  44 00 C3 01 00 00
 (006.009445)  can0  102   [6]  6A 06 17 06 2C 06
 (006.018549)  can0  100   [6]  44 00 C2 01 00 00
 (006.019345)  can0  102   [6]  56 06 03 06 2C 06
 (006.028444)  can0  100   [6]  44 00 C2 01 00 00
 (006.029243)  can0  102   [6]  6A 06 17 06 2C 06
 (006.038366)  can0  100   [6]  44 00 C2 01 00 00
 (006.039146)  can0  102   [6]  56 06 03 06 2C 06
 (006.048458)  can0  100   [6]  44 00 C1 01 00 00
 (006.049133)  can0  101   [4]  F8 FF 04 00
 (006.049938)  can0  102   [6]  6A 06 17 06 2C 06
 (006.050466)  can0  103   [2]  01 04
 (006.051401)  can0  104   [6]  00 00 00 00 00 00
 (006.051764)  can0  1FF   [1]  4F
 (006.058133)  can0  100   [6]  44 00 C2 01 00 00
 (006.058930)  can0  102   [6]  56 06 03 06 2C 06
 (006.068019)  can0  100   [6]  43 00 C2 01 00 00
 (006.068816)  can0  102   [6]  6A 06 17 06 2C 06
 (006.077916)  can0  100   [6]  43 00 C1 01 00 00
 (006.078712)  can0  102   [6]  56 06 03 06 2C 06
 (006.087976)  can0  100   [6]  43 00 C1 01 00 00
 (006.088776)  can0  102   [6]  6A 06 17 06 2C 06
 (006.097753)  can0  100   [6]  44 00 C1 01 00 00
 (006.098434)  can0  101   [4]  F2 FF FF FF
 (006.099229)  can0  102   [6]  56 06 03 06 2C 06
 (006.099757)  can0  103   [2]  01 04
 (006.100671)  can0  104   [6]  00 00 00 00 00 00
 (006.101070)  can0  1FF   [1]  50
 (006.107992)  can0  100   [6]  45 00 C0 01 00 00
 (006.108789)  can0  102   [6]  6A 06 17 06 2C 06
 (006.117511)  can0  100   [6]  44 00 C0 01 00 00
 (006.118307)  can0  102   [6]  56 06 03 06 2C 06
 (006.127980)  can0  100   [6]  44 00 C1 01 00 00
 (006.128778)  can0  102   [6]  6A 06 17 06 2C 06
 (006.137329)  can0  100   [6]  44 00 C0 01 00 00
 (006.138164)  can0  102   [6]  56 06 03 06 2C 06
 (006.147584)  can0  100   [6]  45 00 C1 01 00 00
 (006.148264)  can0  101   [4]  FF FF F7 FF
 (006.149067)  can0  102   [6]  6A 06 17 06 2C 06
 (006.149596)  can0  103   [2]  01 04
 (006.150444)  can0  104   [6]  00 00 00 00 00 00
 (006.150893)  can0  1FF   [1]  51
 (006.157302)  can0  100   [6]  46 00 C0 01 00 00
 (006.158087)  can0  102   [6]  56 06 03 06 2C 06
 (006.167137)  can0  100   [6]  45 00 C0 01 00 00
 (006.167937)  can0  102   [6]  6A 06 17 06 2C 06
 (006.177285)  can0  100   [6]  45 00 C0 01 00 00
 (006.178082)  can0  102   [6]  56 06 03 06 2C 06
 (006.187135)  can0  100   [6]  44 00 BF 01 00 00
 (006.187934)  can0  102   [6]  6A 06 17 06 2C 06
 (006.196889)  can0  100   [6]  45 00 BF 01 00 00
 (006.197561)  can0  101   [4]  FA FF F6 FF
 (006.198361)  can0  102   [6]  56 06 03 06 2C 06
 (006.198887)  can0  103   [2]  01 04
 (006.199737)  can0  104   [6]  00 00 00 00 00 00
 (006.200186)  can0  1FF   [1]  52
 (006.207117)  can0  100   [6]  45 00 BF 01 00 00
 (006.207914)  can0  102   [6]  6A 06 17 06 2C 06
 (006.217283)  can0  100   [6]  46 00 BF 01 00 00
 (006.218075)  can0  102   [6]  56 06 03 06 2C 06
 (006.226420)  can0  100   [6]  46 00 C0 01 00 00
 (006.227219)  can0  102   [6]  6A 06 17 06 2C 06
 (006.236419)  can0  100   [6]  46 00 C0 01 00 00
 (006.237218)  can0  102   [6]  56 06 03 06 2C 06
 (006.246416)  can0  100   [6]  46 00 C0 01 00 00
 (006.247088)  can0  101   [4]  FE FF F5 FF
 (006.247887)  can0  102   [6]  6A 06 17 06 2C 06
 (006.248419)  can0  103   [2]  01 04
 (006.249265)  can0  104   [6]  00 00 00 00 00 00
 (006.249720)  can0  1FF   [1]  53
 (006.256434)  can0  100   [6]  46 00 C0 01 00 00
 (006.257230)  can0  102   [6]  56 06 03 06 2C 06
 (006.266424)  can0  100   [6]  46 00 C0 01 00 00
 (006.267221)  can0  102   [6]  6A 06 17 06 2C 06
 (006.276415)  can0  100   [6]  46 00 C1 01 00 00
 (006.277214)  can0  102   [6]  56 06 03 06 2C 06
 (006.286423)  can0  100   [6]  46 00 C0 01 00 00
 (006.287240)  can0  102   [6]  6A 06 17 06 2C 06
 (006.295658)  can0  100   [6]  47 00 BF 01 00 00
 (006.296314)  can0  101   [4]  F6 FF F7 FF
 (006.297115)  can0  102   [6]  56 06 03 06 2C 06
 (006.297645)  can0  103   [2]  01 04
 (006.298521)  can0  104   [6]  00 00 00 00 00 00
 (006.298950)  can0  1FF   [1]  54
 (006.305536)  can0  100   [6]  46 00 BF 01 00 00
 (006.306366)  can0  102   [6]  6A 06 17 06 2C 06
 (006.315439)  can0  100   [6]  46 00 C0 01 00 00
 (006.316267)  can0  102   [6]  56 06 03 06 2C 06
 (006.325340)  can0  100   [6]  46 00 BF 01 00 00
 (006.326125)  can0  102   [6]  6A 06 17 06 2C 06
 (006.335229)  can0  100   [6]  46 00 BF 01 00 00
 (006.336024)  can0  102   [6]  56 06 03 06 2C 06
 (006.345127)  can0  100   [6]  45 00 BF 01 00 00
 (006.345794)  can0  101   [4]  FE FF F3 FF
 (006.346596)  can0  102   [6]  6A 06 17 06 2C 06
 (006.347125)  can0  103   [2]  01 04
 (006.347980)  can0  104   [6]  00 00 00 00 00 00
 (006.348427)  can0  1FF   [1]  55
 (006.355024)  can0  100   [6]  45 00 BF 01 00 00
 (006.355841)  can0  102   [6]  56 06 03 06 2C 06
 (006.364925)  can0  100   [6]  45 00 BF 01 00 00
 (006.365722)  can0  102   [6]  6A 06 17 06 2C 06
 (006.374829)  can0  100   [6]  45 00 C0 01 00 00
 (006.375623)  can0  102   [6]  56 06 03 06 2C 06
 (006.384721)  can0  100   [6]  45 00 BF 01 00 00
 (006.385514)  can0  102   [6]  6A 06 17 06 2C 06
 (006.394613)  can0  100   [6]  46 00 C0 01 00 00
 (006.395310)  can0  101   [4]  08 00 F8 FF
 (006.396099)  can0  102   [6]  56 06 03 06 2C 06
 (006.396627)  can0  103   [2]  01 04
 (006.397479)  can0  104   [6]  00 00 00 00 00 00
 (006.397936)  can0  1FF   [1]  56
 (006.404523)  can0  100   [6]  47 00 BF 01 00 00
 (006.405335)  can0  102   [6]  6A 06 17 06 2C 06
 (006.414424)  can0  100   [6]  47 00 BF 01 00 00
 (006.415218)  can0  102   [6]  56 06 03 06 2C 06
 (006.424315)  can0  100   [6]  47 00 BE 01 00 00
 (006.425108)  can0  102   [6]  6A 06 17 06 2C 06
 (006.434201)  can0  100   [6]  46 00 BE 01 00 00
 (006.434993)  can0  102   [6]  56 06 03 06 2C 06
 (006.444096)  can0  100   [6]  45 00 BF 01 00 00
 (006.444761)  can0  101   [4]  FC FF F5 FF
 (006.445561)  can0  102   [6]  6A 06 17 06 2C 06
 (006.446088)  can0  103   [2]  01 04
 (006.446941)  can0  104   [6]  00 00 00 00 00 00
 (006.447400)  can0  1FF   [1]  57
 (006.453992)  can0  100   [6]  44 00 BF 01 00 00
 (006.454813)  can0  102   [6]  56 06 03 06 2C 06
 (006.463898)  can0  100   [6]  45 00 BF 01 00 00
 (006.464683)  can0  102   [6]  6A 06 17 06 2C 06
 (006.473786)  can0  100   [6]  44 00 BF 01 00 00
 (006.474579)  can0  102   [6]  56 06 03 06 2C 06
 (006.483677)  can0  100   [6]  44 00 BF 01 00 00
 (006.484468)  can0  102   [6]  6A 06 17 06 2C 06
 (006.493579)  can0  100   [6]  45 00 C0 01 00 00
 (006.494229)  can0  101   [4]  01 00 F5 FF
 (006.495029)  can0  102   [6]  56 06 03 06 2C 06
 (006.495557)  can0  103   [2]  01 04
 (006.496409)  can0  104   [6]  00 00 00 00 00 00
 (006.496858)  can0  1FF   [1]  58
 (006.503477)  can0  100   [6]  44 00 C0 01 00 00
 (006.504268)  can0  102   [6]  6A 06 17 06 2C 06
 (006.513388)  can0  100   [6]  45 00 C0 01 00 00
 (006.514156)  can0  102   [6]  56 06 03 06 2C 06
 (006.523275)  can0  100   [6]  44 00 C1 01 00 00
 (006.524095)  can0  102   [6]  6A 06 17 06 2C 06
 (006.533179)  can0  100   [6]  44 00 C1 01 00 00
 (006.533970)  can0  102   [6]  56 06 03 06 2C 06
 (006.543061)  can0  100   [6]  44 00 C2 01 00 00
 (006.543720)  can0  101   [4]  05 00 FD FF
 (006.544521)  can0  102   [6]  6A 06 17 06 2C 06
 (006.545052)  can0  103   [2]  01 04
 (006.545901)  can0  104   [6]  00 00 00 00 00 00
 (006.546348)  can0  1FF   [1]  59
 (006.552961)  can0  100   [6]  45 00 C1 01 00 00
 (006.553757)  can0  102   [6]  56 06 03 06 2C 06
 (006.562849)  can0  100   [6]  46 00 C2 01 00 00
 (006.563644)  can0  102   [6]  6A 06 17 06 2C 06
 (006.572744)  can0  100   [6]  45 00 C2 01 00 00
 (006.573537)  can0  102   [6]  56 06 03 06 2C 06
 (006.582649)  can0  100   [6]  45 00 C2 01 00 00
 (006.583440)  can0  102   [6]  6A 06 17 06 2C 06
 (006.592553)  can0  100   [6]  45 00 C2 01 00 00
 (006.593221)  can0  101   [4]  FC FF FD FF
 (006.594020)  can0  102   [6]  56 06 03 06 2C 06
 (006.594550)  can0  103   [2]  01 04
 (006.595398)  can0  104   [6]  00 00 00 00 00 00
 (006.595849)  can0  1FF   [1]  5A
 (006.602461)  can0  100   [6]  45 00 C1 01 00 00
 (006.603252)  can0  102   [6]  6A 06 17 06 2C 06
 (006.612353)  can0  100   [6]  45 00 C1 01 00 00
 (006.613149)  can0  102   [6]  56 06 03 06 2C 06
 (006.622264)  can0  100   [6]  44 00 C0 01 00 00
 (006.623055)  can0  102   [6]  6A 06 17 06 2C 06
 (006.632148)  can0  100   [6]  43 00 C1 01 00 00
 (006.632942)  can0  102   [6]  56 06 03 06 2C 06
 (006.642056)  can0  100   [6]  44 00 C1 01 00 00
 (006.642721)  can0  101   [4]  02 00 04 00
 (006.643523)  can0  102   [6]  6A 06 17 06 2C 06
 (006.644051)  can0  103   [2]  01 04
 (006.644900)  can0  104   [6]  00 00 00 00 00 00
 (006.645358)  can0  1FF   [1]  5B
 (006.651928)  can0  100   [6]  45 00 C2 01 00 00
 (006.652725)  can0  102   [6]  56 06 03 06 2C 06
 (006.661827)  can0  100   [6]  45 00 C2 01 00 00
 (006.662622)  can0  102   [6]  6A 06 17 06 2C 06
 (006.671729)  can0  100   [6]  45 00 C2 01 00 00
 (006.672544)  can0  102   [6]  56 06 03 06 2C 06
 (006.681649)  can0  100   [6]  44 00 C1 01 00 00
 (006.682453)  can0  102   [6]  6A 06 17 06 2C 06
 (006.691547)  can0  100   [6]  44 00 C1 01 00 00
 (006.692222)  can0  101   [4]  FB FF 00 00
 (006.693026)  can0  102   [6]  56 06 03 06 2C 06
 (006.693557)  can0  103   [2]  01 04
 (006.694402)  can0  104   [6]  00 00 00 00 00 00
 (006.694854)  can0  1FF   [1]  5C
 (006.701441)  can0  100   [6]  44 00 C1 01 00 00
 (006.702238)  can0  102   [6]  6A 06 17 06 2C 06
 (006.711335)  can0  100   [6]  44 00 C1 01 00 00
 (006.712132)  can0  102   [6]  56 06 03 06 2C 06
 (006.721254)  can0  100   [6]  44 00 C1 01 00 00
 (006.722027)  can0  102   [6]  6A 06 17 06 2C 06
 (006.731139)  can0  100   [6]  44 00 C1 01 00 00
 (006.731932)  can0  102   [6]  56 06 03 06 2C 06
 (006.741022)  can0  100   [6]  45 00 C1 01 00 00
 (006.741699)  can0  101   [4]  08 00 0A 00
 (006.742501)  can0  102   [6]  6A 06 17 06 2C 06
 (006.743029)  can0  103   [2]  01 04
 (006.743877)  can0  104   [6]  00 00 00 00 00 00
 (006.744327)  can0  1FF   [1]  5D
 (006.750904)  can0  100   [6]  45 00 C2 01 00 00
 (006.751697)  can0  102   [6]  56 06 03 06 2C 06
 (006.760799)  can0  100   [6]  45 00 C2 01 00 00
 (006.761591)  can0  102   [6]  6A 06 17 06 2C 06
 (006.770700)  can0  100   [6]  45 00 C2 01 00 00
 (006.771492)  can0  102   [6]  56 06 03 06 2C 06
 (006.780618)  can0  100   [6]  44 00 C2 01 00 00
 (006.781659)  can0  102   [6]  6A 06 17 06 2C 06
 (006.790521)  can0  100   [6]  44 00 C2 01 00 00
 (006.791188)  can0  101   [4]  00 00 06 00
 (006.791986)  can0  102   [6]  56 06 03 06 2C 06
 (006.792517)  can0  103   [2]  01 04
 (006.793384)  can0  104   [6]  00 00 00 00 00 00
 (006.793831)  can0  1FF   [1]  5E
 (006.800426)  can0  100   [6]  43 00 C2 01 00 00
 (006.801210)  can0  102   [6]  6A 06 17 06 2C 06
 (006.810304)  can0  100   [6]  42 00 C2 01 00 00
 (006.811106)  can0  102   [6]  56 06 03 06 2C 06
 (006.820218)  can0  100   [6]  43 00 C2 01 00 00
 (006.821010)  can0  102   [6]  6A 06 17 06 2C 06
 (006.830123)  can0  100   [6]  44 00 C3 01 00 00
 (006.830920)  can0  102   [6]  56 06 03 06 2C 06
 (006.840014)  can0  100   [6]  45 00 C2 01 00 00
 (006.840708)  can0  101   [4]  08 00 02 00
 (006.841509)  can0  102   [6]  6A 06 17 06 2C 06
 (006.842043)  can0  103   [2]  01 04
 (006.842888)  can0  104   [6]  00 00 00 00 00 00
 (006.843364)  can0  1FF   [1]  5F
 (006.849943)  can0  100   [6]  46 00 C1 01 00 00
 (006.850724)  can0  102   [6]  56 06 03 06 2C 06
 (006.859835)  can0  100   [6]  47 00 C0 01 00 00
 (006.860632)  can0  102   [6]  6A 06 17 06 2C 06
 (006.869730)  can0  100   [6]  47 00 C0 01 00 00
 (006.870528)  can0  102   [6]  56 06 03 06 2C 06
 (006.879632)  can0  100   [6]  47 00 C0 01 00 00
 (006.880444)  can0  102   [6]  6A 06 17 06 2C 06
 (006.889518)  can0  100   [6]  46 00 C0 01 00 00
 (006.890199)  can0  101   [4]  F9 FF FF FF
 (006.890999)  can0  102   [6]  56 06 03 06 2C 06
 (006.891528)  can0  103   [2]  01 04
 (006.892389)  can0  104   [6]  00 00 00 00 00 00
 (006.892838)  can0  1FF   [1]  60
 (006.899422)  can0  100   [6]  46 00 C0 01 00 00
 (006.900217)  can0  102   [6]  6A 06 17 06 2C 06
 (006.909327)  can0  100   [6]  47 00 C2 01 00 00
 (006.910122)  can0  102   [6]  56 06 03 06 2C 06
 (006.919229)  can0  100   [6]  47 00 C2 01 00 00
 (006.920035)  can0  102   [6]  6A 06 17 06 2C 06
 (006.929130)  can0  100   [6]  47 00 C2 01 00 00
 (006.929919)  can0  102   [6]  56 06 03 06 2C 06
 (006.939004)  can0  100   [6]  45 00 C2 01 00 00
 (006.939676)  can0  101   [4]  02 00 0D 00
 (006.940474)  can0  102   [6]  6A 06 17 06 2C 06
 (006.941004)  can0  103   [2]  01 04
 (006.941868)  can0  104   [6]  00 00 00 00 00 00
 (006.942315)  can0  1FF   [1]  61
 (006.948910)  can0  100   [6]  45 00 C2 01 00 00
 (006.949713)  can0  102   [6]  56 06 03 06 2C 06
 (006.958812)  can0  100   [6]  44 00 C3 01 00 00
 (006.959614)  can0  102   [6]  6A 06 17 06 2C 06
 (006.968711)  can0  100   [6]  44 00 C3 01 00 00
 (006.969508)  can0  102   [6]  56 06 03 06 2C 06
 (006.978606)  can0  100   [6]  45 00 C2 01 00 00
 (006.979402)  can0  102   [6]  6A 06 17 06 2C 06
 (006.988515)  can0  100   [6]  45 00 C2 01 00 00
 (006.989208)  can0  101   [4]  00 00 FB FF
 (006.990000)  can0  102   [6]  56 06 03 06 2C 06
 (006.990521)  can0  103   [2]  01 04
 (006.991369)  can0  104   [6]  00 00 00 00 00 00
 (006.991839)  can0  1FF   [1]  62
 (006.998403)  can0  100   [6]  46 00 C2 01 00 00
 (006.999203)  can0  102   [6]  6A 06 17 06 2C 06
 (007.008304)  can0  100   [6]  47 00 C1 01 00 00
 (007.009103)  can0  102   [6]  56 06 03 06 2C 06
 (007.018199)  can0  100   [6]  49 00 C0 01 00 00
 (007.019001)  can0  102   [6]  6A 06 17 06 2C 06
 (007.028092)  can0  100   [6]  49 00 BF 01 00 00
 (007.028890)  can0  102   [6]  56 06 03 06 2C 06
 (007.038009)  can0  100   [6]  48 00 BF 01 00 00
 (007.038675)  can0  101   [4]  05 00 01 00
 (007.039477)  can0  102   [6]  6A 06 17 06 2C 06
 (007.040005)  can0  103   [2]  01 04
 (007.040861)  can0  104   [6]  00 00 00 00 00 00
 (007.041331)  can0  1FF   [1]  63
 (007.048446)  can0  100   [6]  48 00 BF 01 00 00
 (007.049244)  can0  102   [6]  56 06 03 06 2C 06
 (007.057793)  can0  100   [6]  47 00 BF 01 00 00
 (007.058591)  can0  102   [6]  6A 06 17 06 2C 06
 (007.067999)  can0  100   [6]  47 00 BF 01 00 00
 (007.068785)  can0  102   [6]  56 06 03 06 2C 06
 (007.077587)  can0  100   [6]  47 00 BF 01 00 00
 (007.078384)  can0  102   [6]  6A 06 17 06 2C 06
 (007.087996)  can0  100   [6]  47 00 C0 01 00 00
 (007.088667)  can0  101   [4]  08 00 F6 FF
 (007.089469)  can0  102   [6]  56 06 03 06 2C 06
 (007.089999)  can0  103   [2]  01 04
 (007.090846)  can0  104   [6]  00 00 00 00 00 00
 (007.091296)  can0  1FF   [1]  64
 (007.097750)  can0  100   [6]  48 00 C0 01 00 00
 (007.098545)  can0  102   [6]  6A 06 17 06 2C 06
 (007.107995)  can0  100   [6]  49 00 C0 01 00 00
 (007.108812)  can0  102   [6]  56 06 03 06 2C 06
 (007.117277)  can0  100   [6]  49 00 C1 01 00 00
 (007.118071)  can0  102   [6]  6A 06 17 06 2C 06
 (007.127150)  can0  100   [6]  48 00 C1 01 00 00
 (007.127926)  can0  102   [6]  56 06 03 06 2C 06
 (007.137286)  can0  100   [6]  48 00 C0 01 00 00
 (007.137977)  can0  101   [4]  00 00 07 00
 (007.138776)  can0  102   [6]  6A 06 17 06 2C 06
 (007.139298)  can0  103   [2]  01 04
 (007.140148)  can0  104   [6]  00 00 00 00 00 00
 (007.140597)  can0  1FF   [1]  65
 (007.147117)  can0  100   [6]  47 00 C0 01 00 00
 (007.147915)  can0  102   [6]  56 06 03 06 2C 06
 (007.157330)  can0  100   [6]  47 00 C0 01 00 00
 (007.158090)  can0  102   [6]  6A 06 17 06 2C 06
 (007.167139)  can0  100   [6]  47 00 C1 01 00 00
 (007.167921)  can0  102   [6]  56 06 03 06 2C 06
 (007.177284)  can0  100   [6]  48 00 C0 01 00 00
 (007.178086)  can0  102   [6]  6A 06 17 06 2C 06
 (007.186446)  can0  100   [6]  48 00 C0 01 00 00
 (007.187146)  can0  101   [4]  FF FF EF FF
 (007.187922)  can0  102   [6]  56 06 03 06 2C 06
 (007.188463)  can0  103   [2]  01 04
 (007.189304)  can0  104   [6]  00 00 00 00 00 00
 (007.189767)  can0  1FF   [1]  66
 (007.196437)  can0  100   [6]  49 00 C0 01 00 00
 (007.197235)  can0  102   [6]  6A 06 17 06 2C 06
 (007.206427)  can0  100   [6]  49 00 BF 01 00 00
 (007.207224)  can0  102   [6]  56 06 03 06 2C 06
 (007.216439)  can0  100   [6]  49 00 BE 01 00 00
 (007.217238)  can0  102   [6]  6A 06 17 06 2C 06
 (007.226441)  can0  100   [6]  48 00 BE 01 00 00
 (007.227249)  can0  102   [6]  56 06 03 06 2C 06
 (007.236445)  can0  100   [6]  48 00 BE 01 00 00
 (007.237171)  can0  101   [4]  10 00 0A 00
 (007.237915)  can0  102   [6]  6A 06 17 06 2C 06
 (007.238463)  can0  103   [2]  01 04
 (007.239292)  can0  104   [6]  00 00 00 00 00 00
 (007.239764)  can0  1FF   [1]  67
 (007.246421)  can0  100   [6]  47 00 BF 01 00 00
 (007.247223)  can0  102   [6]  56 06 03 06 2C 06
 (007.255674)  can0  100   [6]  46 00 C0 01 00 00
 (007.256469)  can0  102   [6]  6A 06 17 06 2C 06
 (007.265579)  can0  100   [6]  47 00 C1 01 00 00
 (007.266370)  can0  102   [6]  56 06 03 06 2C 06
 (007.275468)  can0  100   [6]  47 00 C1 01 00 00
 (007.276266)  can0  102   [6]  6A 06 17 06 2C 06
 (007.285365)  can0  100   [6]  48 00 C0 01 00 00
 (007.286042)  can0  101   [4]  03 00 00 00
 (007.286830)  can0  102   [6]  56 06 03 06 2C 06
 (007.287411)  can0  103   [2]  01 04
 (007.288210)  can0  104   [6]  00 00 00 00 00 00
 (007.288667)  can0  1FF   [1]  68
 (007.295269)  can0  100   [6]  48 00 BF 01 00 00
 (007.296059)  can0  102   [6]  6A 06 17 06 2C 06
 (007.305151)  can0  100   [6]  49 00 BF 01 00 00
 (007.305942)  can0  102   [6]  56 06 03 06 2C 06
 (007.315057)  can0  100   [6]  48 00 BF 01 00 00
 (007.315857)  can0  102   [6]  6A 06 17 06 2C 06
 (007.324944)  can0  100   [6]  47 00 C0 01 00 00
 (007.325740)  can0  102   [6]  56 06 03 06 2C 06
 (007.334841)  can0  100   [6]  47 00 C0 01 00 00
 (007.335497)  can0  101   [4]  0F 00 F5 FF
 (007.336295)  can0  102   [6]  6A 06 17 06 2C 06
 (007.336825)  can0  103   [2]  01 04
 (007.337673)  can0  104   [6]  00 00 00 00 00 00
 (007.338140)  can0  1FF   [1]  69
 (007.344729)  can0  100   [6]  47 00 C0 01 00 00
 (007.345522)  can0  102   [6]  56 06 03 06 2C 06
 (007.354623)  can0  100   [6]  48 00 C1 01 00 00
 (007.355416)  can0  102   [6]  6A 06 17 06 2C 06
 (007.364523)  can0  100   [6]  48 00 C0 01 00 00
 (007.365324)  can0  102   [6]  56 06 03 06 2C 06
 (007.374421)  can0  100   [6]  49 00 BF 01 00 00
 (007.375206)  can0  102   [6]  6A 06 17 06 2C 06
 (007.384307)  can0  100   [6]  49 00 BF 01 00 00
 (007.384979)  can0  101   [4]  02 00 FF FF
 (007.385780)  can0  102   [6]  56 06 03 06 2C 06
 (007.386331)  can0  103   [2]  01 04
 (007.387157)  can0  104   [6]  00 00 00 00 00 00
 (007.387609)  can0  1FF   [1]  6A
 (007.394200)  can0  100   [6]  48 00 BE 01 00 00
 (007.394995)  can0  102   [6]  6A 06 17 06 2C 06
 (007.404085)  can0  100   [6]  47 00 BD 01 00 00
 (007.404878)  can0  102   [6]  56 06 03 06 2C 06
 (007.413984)  can0  100   [6]  46 00 BD 01 00 00
