(00000.059438) can0 204 [6] 00 00 00 00 00 00
(00000.066679) can0 204 [6] 00 00 00 00 00 00
(00000.077493) can0 204 [6] 00 00 00 00 00 00
(00000.086665) can0 204 [6] 00 00 00 00 00 00
(00000.101515) can0 204 [6] 00 00 00 00 00 00
(00000.107153) can0 204 [6] 00 00 00 00 00 00
(00000.118996) can0 204 [6] 00 00 00 00 00 00
(00000.126675) can0 204 [6] 00 00 00 00 00 00
(00000.138994) can0 204 [6] 00 00 00 00 00 00
(00000.146684) can0 204 [6] 00 00 00 00 00 00
(00000.159440) can0 204 [6] 00 00 00 00 00 00
(00000.168299) can0 204 [6] 00 00 00 00 00 00
(00000.179001) can0 204 [6] 00 00 00 00 00 00
(00000.188298) can0 204 [6] 00 00 00 00 00 00
(00000.201513) can0 204 [6] 00 00 00 00 00 00
(00000.208757) can0 204 [6] 00 00 00 00 00 00
(00000.218886) can0 204 [6] 00 00 00 00 00 00
(00000.228057) can0 204 [6] 00 00 00 00 00 00
(00000.238632) can0 204 [6] 00 00 00 00 00 00
(00000.250319) can0 204 [6] 00 00 00 00 00 00
(00000.258847) can0 204 [6] 00 00 00 00 00 00
(00000.267589) can0 204 [6] 00 00 00 00 00 00
(00000.278153) can0 204 [6] 00 00 00 00 00 00
(00000.287343) can0 204 [6] 00 00 00 00 00 00
(00000.300428) can0 204 [6] 00 00 00 00 00 00
(00000.307579) can0 204 [6] 00 00 00 00 00 00
(00000.317673) can0 204 [6] 00 00 00 00 00 00
(00000.326853) can0 204 [6] 00 00 00 00 00 00
(00000.337423) can0 204 [6] 00 00 00 00 00 00
(00000.349100) can0 204 [6] 00 00 00 00 00 00
(00000.357837) can0 204 [6] 00 00 00 00 00 00
(00000.366666) can0 204 [6] 00 00 00 00 00 00
(00000.377369) can0 204 [6] 00 00 00 00 00 00
(00000.386874) can0 204 [6] 00 00 00 00 00 00
(00000.399208) can0 204 [6] 00 00 00 00 00 00
(00000.407137) can0 204 [6] 00 00 00 00 00 00
(00000.417365) can0 204 [6] 00 00 00 00 00 00
(00000.426668) can0 204 [6] 00 00 00 00 00 00
(00000.437380) can0 204 [6] 00 00 00 00 00 00
(00000.447880) can0 204 [6] 00 00 00 00 00 00
(00000.457825) can0 204 [6] 00 00 00 00 00 00
(00000.466681) can0 204 [6] 00 00 00 00 00 00
(00000.477372) can0 204 [6] 00 00 00 00 00 00
(00000.486666) can0 204 [6] 00 00 00 00 00 00
(00000.497992) can0 204 [6] 00 00 00 00 00 00
(00000.507133) can0 204 [6] 00 00 00 00 00 00
(00000.517374) can0 204 [6] 00 00 00 00 00 00
(00000.526683) can0 204 [6] 00 00 00 00 00 00
(00000.537376) can0 204 [6] 00 00 00 00 00 00
(00000.546690) can0 204 [6] 00 00 00 00 00 00
(00000.557843) can0 204 [6] 00 00 00 00 00 00
(00000.566685) can0 204 [6] 00 00 00 00 00 00
(00000.577376) can0 204 [6] 00 00 00 00 00 00
(00000.586660) can0 204 [6] 00 00 00 00 00 00
(00000.597373) can0 204 [6] 00 00 00 00 00 00
(00000.607136) can0 204 [6] 00 00 00 00 00 00
(00000.617369) can0 204 [6] 00 00 00 00 00 00
(00000.626700) can0 204 [6] 00 00 00 00 00 00
(00000.637364) can0 204 [6] 00 00 00 00 00 00
(00000.647011) can0 204 [6] 00 00 00 00 00 00
(00000.657822) can0 204 [6] 00 00 00 00 00 00
(00000.666674) can0 204 [6] 00 00 00 00 00 00
(00000.677373) can0 204 [6] 00 00 00 00 00 00
(00000.686661) can0 204 [6] 00 00 00 00 00 00
(00000.697365) can0 204 [6] 00 00 00 00 00 00
(00000.707126) can0 204 [6] 00 00 00 00 00 00
(00000.717368) can0 204 [6] 00 00 00 00 00 00
(00000.726678) can0 204 [6] 00 00 00 00 00 00
(00000.737367) can0 204 [6] 00 00 00 00 00 00
(00000.746687) can0 204 [6] 00 00 00 00 00 00
(00000.757831) can0 204 [6] 00 00 00 00 00 00
(00000.766681) can0 204 [6] 00 00 00 00 00 00
(00000.777385) can0 204 [6] 00 00 00 00 00 00
(00000.786663) can0 204 [6] 00 00 00 00 00 00
(00000.797378) can0 204 [6] 00 00 00 00 00 00
(00000.807130) can0 204 [6] 00 00 00 00 00 00
(00000.817364) can0 204 [6] 00 00 00 00 00 00
(00000.826705) can0 204 [6] 00 00 00 00 00 00
(00000.837370) can0 204 [6] 00 00 00 00 00 00
(00000.846691) can0 204 [6] 00 00 00 00 00 00
(00000.857825) can0 204 [6] 00 00 00 00 00 00
(00000.866701) can0 204 [6] 00 00 00 00 00 00
(00000.877378) can0 204 [6] 00 00 00 00 00 00
(00000.886895) can0 204 [6] 00 00 00 00 00 00
(00000.899011) can0 204 [6] 00 00 00 00 00 00
(00000.907133) can0 204 [6] 00 00 00 00 00 00
(00000.918996) can0 204 [6] 00 00 00 00 00 00
(00000.926694) can0 204 [6] 00 00 00 00 00 00
(00000.941509) can0 204 [6] 00 00 00 00 00 00
(00000.948349) can0 204 [6] 00 00 00 00 00 00
(00000.959459) can0 204 [6] 00 00 00 00 00 00
(00000.968323) can0 204 [6] 00 00 00 00 00 00
(00000.979008) can0 204 [6] 00 00 00 00 00 00
(00000.990846) can0 204 [6] 00 00 00 00 00 00
(00000.999016) can0 204 [6] 00 00 00 00 00 00
(00001.008749) can0 204 [6] 00 00 00 00 00 00
(00001.018855) can0 204 [6] 00 00 00 00 00 00
(00001.028054) can0 204 [6] 00 00 00 00 00 00
(00001.041136) can0 204 [6] 00 00 00 00 00 00
(00001.047834) can0 204 [6] 00 00 00 00 00 00
(00001.059072) can0 204 [6] 00 00 00 00 00 00
(00001.067577) can0 204 [6] 00 00 00 00 00 00
(00001.078079) can0 204 [6] 00 00 00 00 00 00
(00001.089776) can0 204 [6] 00 00 00 00 00 00
(00001.097830) can0 204 [6] 00 00 00 00 00 00
(00001.107475) can0 204 [6] 00 00 00 00 00 00
(00001.117585) can0 204 [6] 00 00 00 00 00 00
(00001.126756) can0 204 [6] 00 00 00 00 00 00
(00001.139835) can0 204 [6] 00 00 00 00 00 00
(00001.146674) can0 204 [6] 00 00 00 00 00 00
(00001.157816) can0 204 [6] 00 00 00 00 00 00
(00001.166666) can0 204 [6] 00 00 00 00 00 00
(00001.177383) can0 204 [6] 00 00 00 00 00 00
(00001.188528) can0 204 [6] 00 00 00 00 00 00
(00001.197370) can0 204 [6] 00 00 00 00 00 00
(00001.207131) can0 204 [6] 00 00 00 00 00 00
(00001.217364) can0 204 [6] 00 00 00 00 00 00
(00001.226690) can0 204 [6] 00 00 00 00 00 00
(00001.238661) can0 204 [6] 00 00 00 00 00 00
(00001.246676) can0 204 [6] 00 00 00 00 00 00
(00001.257820) can0 204 [6] 00 00 00 00 00 00
(00001.266665) can0 204 [6] 00 00 00 00 00 00
(00001.277374) can0 204 [6] 00 00 00 00 00 00
(00001.287290) can0 204 [6] 00 00 00 00 00 00
(00001.297376) can0 204 [6] 00 00 00 00 00 00
(00001.307137) can0 204 [6] 00 00 00 00 00 00
(00001.317366) can0 204 [6] 00 00 00 00 00 00
(00001.326698) can0 204 [6] 00 00 00 00 00 00
(00001.337361) can0 204 [6] 00 00 00 00 00 00
(00001.346678) can0 204 [6] 00 00 00 00 00 00
(00001.357823) can0 204 [6] 00 00 00 00 00 00
(00001.366670) can0 204 [6] 00 00 00 00 00 00
(00001.377381) can0 204 [6] 00 00 00 00 00 00
(00001.386667) can0 204 [6] 00 00 00 00 00 00
(00001.397379) can0 204 [6] 00 00 00 00 00 00
(00001.407129) can0 204 [6] 00 00 00 00 00 00
(00001.417384) can0 204 [6] 00 00 00 00 00 00
(00001.426679) can0 204 [6] 00 00 00 00 00 00
(00001.437356) can0 204 [6] 00 00 00 00 00 00
(00001.446703) can0 204 [6] 00 00 00 00 00 00
(00001.457838) can0 204 [6] 00 00 00 00 00 00
(00001.466693) can0 204 [6] 00 00 00 00 00 00
(00001.477384) can0 204 [6] 00 00 00 00 00 00
(00001.486673) can0 204 [6] 00 00 00 00 00 00
(00001.497388) can0 204 [6] 00 00 00 00 00 00
(00001.507135) can0 204 [6] 00 00 00 00 00 00
(00001.517386) can0 204 [6] 00 00 00 00 00 00
(00001.526696) can0 204 [6] 00 00 00 00 00 00
(00001.537371) can0 204 [6] 00 00 00 00 00 00
(00001.546683) can0 204 [6] 00 00 00 00 00 00
(00001.557841) can0 204 [6] 00 00 00 00 00 00
(00001.566690) can0 204 [6] 00 00 00 00 00 00
(00001.577373) can0 204 [6] 00 00 00 00 00 00
(00001.586636) can0 204 [6] 1F 00 A2 FE 00 00
(00001.597330) can0 204 [6] 2A 00 A2 FE 00 00
(00001.607102) can0 204 [6] 32 00 A2 FE 00 00
(00001.617319) can0 204 [6] 30 00 A2 FE 00 00
(00001.626646) can0 204 [6] 2F 00 A2 FE 00 00
(00001.637311) can0 204 [6] 2A 00 A2 FE 00 00
(00001.646661) can0 204 [6] 23 00 A2 FE 00 00
(00001.659420) can0 204 [6] 1D 00 A2 FE 00 00
(00001.666656) can0 204 [6] 18 00 A2 FE 00 00
(00001.677355) can0 204 [6] 14 00 A2 FE 00 00
(00001.686634) can0 204 [6] 11 00 A2 FE 00 00
(00001.698941) can0 204 [6] 0D 00 C6 FE 00 00
(00001.708729) can0 204 [6] 0B 00 EC FE 00 00
(00001.718978) can0 204 [6] 08 00 0F FF 00 00
(00001.726693) can0 204 [6] 07 00 27 FF 00 00
(00001.738982) can0 204 [6] 05 00 3D FF 00 00
(00001.748322) can0 204 [6] 04 00 50 FF 00 00
(00001.759454) can0 204 [6] 02 00 5D FF 00 00
(00001.768284) can0 204 [6] 02 00 68 FF 00 00
(00001.781538) can0 204 [6] 01 00 6F FF 00 00
(00001.788294) can0 204 [6] 00 00 76 FF 00 00
(00001.799002) can0 204 [6] 00 00 7C FF 00 00
(00001.808657) can0 204 [6] 00 00 7F FF 00 00
(00001.818757) can0 204 [6] 00 00 83 FF 00 00
(00001.830435) can0 204 [6] 00 00 85 FF 00 00
(00001.838495) can0 204 [6] 00 00 87 FF 00 00
(00001.847656) can0 204 [6] 00 00 88 FF 00 00
(00001.858699) can0 204 [6] 00 00 89 FF 00 00
(00001.867437) can0 204 [6] 00 00 8B FF 00 00
(00001.880489) can0 204 [6] 00 00 8C FF 00 00
(00001.887184) can0 204 [6] 00 00 8C FF 00 00
(00001.897744) can0 204 [6] 00 00 8D FF 00 00
(00001.907399) can0 204 [6] 00 00 8D FF 00 00
(00001.917505) can0 204 [6] 00 00 8E FF 00 00
(00001.929220) can0 204 [6] 00 00 8E FF 00 00
(00001.937343) can0 204 [6] 00 00 8E FF 00 00
(00001.946640) can0 204 [6] 00 00 8E FF 00 00
(00001.957810) can0 204 [6] 00 00 8E FF 00 00
(00001.966651) can0 204 [6] 00 00 8E FF 00 00
(00001.979275) can0 204 [6] 00 00 8E FF 00 00
(00001.986650) can0 204 [6] 00 00 8E FF 00 00
(00001.997360) can0 204 [6] 00 00 8E FF 00 00
(00002.007111) can0 204 [6] 00 00 8E FF 00 00
(00002.017334) can0 204 [6] 00 00 8E FF 00 00
(00002.027956) can0 204 [6] 00 00 8E FF 00 00
(00002.037339) can0 204 [6] 00 00 8E FF 00 00
(00002.046652) can0 204 [6] 00 00 8E FF 00 00
(00002.057801) can0 204 [6] 00 00 8E FF 00 00
(00002.066664) can0 204 [6] 00 00 8E FF 00 00
(00002.078021) can0 204 [6] 00 00 8E FF 00 00
(00002.086652) can0 204 [6] 00 00 8E FF 00 00
(00002.097375) can0 204 [6] 00 00 8E FF 00 00
(00002.107118) can0 204 [6] 00 00 8E FF 00 00
(00002.117356) can0 204 [6] 00 00 8E FF 00 00
(00002.126775) can0 204 [6] 00 00 8E FF 00 00
(00002.137354) can0 204 [6] 00 00 8E FF 00 00
(00002.146680) can0 204 [6] 00 00 8E FF 00 00
(00002.157809) can0 204 [6] 00 00 8E FF 00 00
(00002.166644) can0 204 [6] 00 00 8E FF 00 00
(00002.177337) can0 204 [6] 00 00 8E FF 00 00
(00002.186644) can0 204 [6] 00 00 8E FF 00 00
(00002.197355) can0 204 [6] 00 00 8E FF 00 00
(00002.207099) can0 204 [6] 00 00 8E FF 00 00
(00002.217342) can0 204 [6] 00 00 8E FF 00 00
(00002.226641) can0 204 [6] 00 00 8E FF 00 00
(00002.237377) can0 204 [6] 00 00 8E FF 00 00
(00002.246663) can0 204 [6] 00 00 8E FF 00 00
(00002.257799) can0 204 [6] 00 00 8E FF 00 00
(00002.266648) can0 204 [6] 00 00 8E FF 00 00
(00002.277348) can0 204 [6] 00 00 8E FF 00 00
(00002.286646) can0 204 [6] 00 00 8E FF 00 00
(00002.297363) can0 204 [6] 00 00 8E FF 00 00
(00002.307112) can0 204 [6] 00 00 8E FF 00 00
(00002.317343) can0 204 [6] 00 00 8E FF 00 00
(00002.326654) can0 204 [6] 00 00 8E FF 00 00
(00002.337340) can0 204 [6] 00 00 8E FF 00 00
(00002.346656) can0 204 [6] 00 00 8E FF 00 00
(00002.357806) can0 204 [6] 00 00 8E FF 00 00
(00002.366666) can0 204 [6] 00 00 8E FF 00 00
(00002.377349) can0 204 [6] 00 00 8E FF 00 00
(00002.386647) can0 204 [6] 00 00 8E FF 00 00
(00002.397375) can0 204 [6] 00 00 8E FF 00 00
(00002.407123) can0 204 [6] 00 00 8E FF 00 00
(00002.417347) can0 204 [6] 00 00 8E FF 00 00
(00002.426656) can0 204 [6] 00 00 8E FF 00 00
(00002.437343) can0 204 [6] 00 00 8E FF 00 00
(00002.446680) can0 204 [6] 00 00 8E FF 00 00
(00002.459417) can0 204 [6] 00 00 8E FF 00 00
(00002.466656) can0 204 [6] 00 00 8E FF 00 00
(00002.478968) can0 204 [6] 00 00 8E FF 00 00
(00002.486640) can0 204 [6] 00 00 8E FF 00 00
(00002.499000) can0 204 [6] 00 00 8E FF 00 00
(00002.508740) can0 204 [6] 00 00 8E FF 00 00
(00002.521506) can0 204 [6] 00 00 8E FF 00 00
(00002.526673) can0 204 [6] 00 00 8E FF 00 00
(00002.538978) can0 204 [6] 00 00 8E FF 00 00
(00002.548285) can0 204 [6] 00 00 8E FF 00 00
(00002.559430) can0 204 [6] 00 00 8E FF 00 00
(00002.570824) can0 204 [6] 00 00 8E FF 00 00
(00002.578981) can0 204 [6] 00 00 8E FF 00 00
(00002.588272) can0 204 [6] 00 00 8E FF 00 00
(00002.598867) can0 204 [6] 00 00 8E FF 00 00
(00002.608524) can0 204 [6] 00 00 8E FF 00 00
(00002.621156) can0 204 [6] 00 00 8E FF 00 00
(00002.627817) can0 204 [6] 00 00 8E FF 00 00
(00002.638384) can0 204 [6] 00 00 8E FF 00 00
(00002.647565) can0 204 [6] 00 00 8E FF 00 00
(00002.658605) can0 204 [6] 00 00 8E FF 00 00
(00002.669872) can0 204 [6] 00 00 8E FF 00 00
(00002.677923) can0 204 [6] 00 00 8E FF 00 00
(00002.687302) can0 204 [6] 00 00 8E FF 00 00
(00002.697666) can0 204 [6] 00 00 8E FF 00 00
(00002.707321) can0 204 [6] 00 00 8E FF 00 00
(00002.719930) can0 204 [6] 00 00 8E FF 00 00
(00002.726648) can0 204 [6] 00 00 8E FF 00 00
(00002.737333) can0 204 [6] 00 00 8E FF 00 00
(00002.746642) can0 204 [6] 00 00 8E FF 00 00
(00002.757802) can0 204 [6] 00 00 8E FF 00 00
(00002.768631) can0 204 [6] 00 00 8E FF 00 00
(00002.777340) can0 204 [6] 00 00 8E FF 00 00
(00002.786643) can0 204 [6] 00 00 8E FF 00 00
(00002.797348) can0 204 [6] 00 00 8E FF 00 00
(00002.807100) can0 204 [6] 00 00 8E FF 00 00
(00002.818684) can0 204 [6] 00 00 8E FF 00 00
(00002.826642) can0 204 [6] 00 00 8E FF 00 00
(00002.837344) can0 204 [6] 00 00 8E FF 00 00
(00002.846651) can0 204 [6] 00 00 8E FF 00 00
(00002.857801) can0 204 [6] 00 00 8E FF 00 00
(00002.867370) can0 204 [6] 00 00 8E FF 00 00
(00002.877348) can0 204 [6] 00 00 8E FF 00 00
(00002.886641) can0 204 [6] 00 00 8E FF 00 00
(00002.897362) can0 204 [6] 00 00 8E FF 00 00
(00002.907118) can0 204 [6] 00 00 8E FF 00 00
(00002.917438) can0 204 [6] 00 00 8E FF 00 00
(00002.926673) can0 204 [6] 00 00 8E FF 00 00
(00002.937348) can0 204 [6] 00 00 8E FF 00 00
(00002.946646) can0 204 [6] 00 00 8E FF 00 00
(00002.957808) can0 204 [6] 00 00 8E FF 00 00
(00002.966649) can0 204 [6] 00 00 8E FF 00 00
(00002.977360) can0 204 [6] 00 00 8E FF 00 00
(00002.986654) can0 204 [6] 00 00 8E FF 00 00
(00002.997359) can0 204 [6] 00 00 8E FF 00 00
(00003.007111) can0 204 [6] 00 00 8E FF 00 00
(00003.017340) can0 204 [6] 00 00 8E FF 00 00
(00003.026684) can0 204 [6] 00 00 8E FF 00 00
(00003.037350) can0 204 [6] 00 00 8E FF 00 00
(00003.046672) can0 204 [6] 00 00 8E FF 00 00
(00003.057820) can0 204 [6] 00 00 8E FF 00 00
(00003.066644) can0 204 [6] 00 00 8E FF 00 00
(00003.077368) can0 204 [6] 00 00 8E FF 00 00
(00003.086638) can0 204 [6] 00 00 8E FF 00 00
(00003.097356) can0 204 [6] 00 00 8E FF 00 00
(00003.107105) can0 204 [6] 00 00 8E FF 00 00
(00003.117336) can0 204 [6] 00 00 8E FF 00 00
(00003.126661) can0 204 [6] 00 00 8E FF 00 00
(00003.137374) can0 204 [6] 00 00 8E FF 00 00
(00003.146666) can0 204 [6] 00 00 8E FF 00 00
(00003.157805) can0 204 [6] 00 00 8E FF 00 00
(00003.166661) can0 204 [6] 00 00 8E FF 00 00
(00003.177356) can0 204 [6] 00 00 8E FF 00 00
(00003.186649) can0 204 [6] 00 00 8E FF 00 00
(00003.197313) can0 204 [6] E1 FF 5E 01 00 00
(00003.207105) can0 204 [6] CB FF 5E 01 00 00
(00003.217328) can0 204 [6] C6 FF 5E 01 00 00
(00003.226669) can0 204 [6] C3 FF 5E 01 00 00
(00003.237314) can0 204 [6] C8 FF 5E 01 00 00
(00003.246642) can0 204 [6] D0 FF 5E 01 00 00
(00003.261923) can0 204 [6] D6 FF 5E 01 00 00
(00003.266641) can0 204 [6] DD FF 5E 01 00 00
(00003.278976) can0 204 [6] E2 FF 5E 01 00 00
(00003.286647) can0 204 [6] E8 FF 5E 01 00 00
(00003.298947) can0 204 [6] EC FF 27 01 00 00
(00003.311277) can0 204 [6] F0 FF F1 00 00 00
(00003.318957) can0 204 [6] F3 FF BE 00 00 00
(00003.326686) can0 204 [6] F5 FF 9A 00 00 00
(00003.338935) can0 204 [6] F8 FF 79 00 00 00
(00003.348284) can0 204 [6] F9 FF 5D 00 00 00
(00003.361939) can0 204 [6] FB FF 49 00 00 00
(00003.368279) can0 204 [6] FC FF 37 00 00 00
(00003.378987) can0 204 [6] FE FF 2B 00 00 00
(00003.388271) can0 204 [6] FE FF 20 00 00 00
(00003.398839) can0 204 [6] FF FF 17 00 00 00
(00003.411038) can0 204 [6] 00 00 11 00 00 00
(00003.418609) can0 204 [6] 00 00 0C 00 00 00
(00003.427812) can0 204 [6] 00 00 08 00 00 00
(00003.438380) can0 204 [6] 00 00 04 00 00 00
(00003.447553) can0 204 [6] 00 00 02 00 00 00
(00003.461135) can0 204 [6] 00 00 00 00 00 00
(00003.467328) can0 204 [6] 00 00 00 00 00 00
(00003.477908) can0 204 [6] 00 00 FF FF 00 00
(00003.487076) can0 204 [6] 00 00 FE FF 00 00
(00003.497644) can0 204 [6] 00 00 FD FF 00 00
(00003.509816) can0 204 [6] 00 00 FC FF 00 00
(00003.517411) can0 204 [6] 00 00 FB FF 00 00
(00003.526663) can0 204 [6] 00 00 FB FF 00 00
(00003.537353) can0 204 [6] 00 00 FB FF 00 00
(00003.546669) can0 204 [6] 00 00 FB FF 00 00
(00003.559921) can0 204 [6] 00 00 FA FF 00 00
(00003.566655) can0 204 [6] 00 00 FA FF 00 00
(00003.577350) can0 204 [6] 00 00 FA FF 00 00
(00003.586655) can0 204 [6] 00 00 FA FF 00 00
(00003.597348) can0 204 [6] 00 00 FA FF 00 00
(00003.608614) can0 204 [6] 00 00 FA FF 00 00
(00003.617349) can0 204 [6] 00 00 FA FF 00 00
(00003.626656) can0 204 [6] 00 00 FA FF 00 00
(00003.637345) can0 204 [6] 00 00 FA FF 00 00
(00003.646668) can0 204 [6] 00 00 FA FF 00 00
(00003.658702) can0 204 [6] 00 00 FA FF 00 00
(00003.666667) can0 204 [6] 00 00 FA FF 00 00
(00003.677356) can0 204 [6] 00 00 FA FF 00 00
(00003.686656) can0 204 [6] 00 00 FA FF 00 00
(00003.697356) can0 204 [6] 00 00 FA FF 00 00
(00003.707426) can0 204 [6] 00 00 FA FF 00 00
(00003.717348) can0 204 [6] 00 00 FA FF 00 00
(00003.726661) can0 204 [6] 00 00 FA FF 00 00
(00003.737347) can0 204 [6] 00 00 FA FF 00 00
(00003.746669) can0 204 [6] 00 00 FA FF 00 00
(00003.757808) can0 204 [6] 00 00 FA FF 00 00
(00003.766674) can0 204 [6] 00 00 FA FF 00 00
(00003.777357) can0 204 [6] 00 00 FA FF 00 00
(00003.786650) can0 204 [6] 00 00 FA FF 00 00
(00003.797393) can0 204 [6] 00 00 FA FF 00 00
(00003.807124) can0 204 [6] 00 00 FA FF 00 00
(00003.817364) can0 204 [6] 00 00 FA FF 00 00
(00003.826682) can0 204 [6] 00 00 FA FF 00 00
(00003.837349) can0 204 [6] 00 00 FA FF 00 00
(00003.846670) can0 204 [6] 00 00 FA FF 00 00
(00003.857810) can0 204 [6] 00 00 FA FF 00 00
(00003.866682) can0 204 [6] 00 00 FA FF 00 00
(00003.877375) can0 204 [6] 00 00 FA FF 00 00
(00003.886655) can0 204 [6] 00 00 FA FF 00 00
(00003.897357) can0 204 [6] 00 00 FA FF 00 00
(00003.907147) can0 204 [6] 00 00 FA FF 00 00
(00003.917353) can0 204 [6] 00 00 FA FF 00 00
(00003.926661) can0 204 [6] 00 00 FA FF 00 00
(00003.937361) can0 204 [6] 00 00 FA FF 00 00
(00003.946681) can0 204 [6] 00 00 FA FF 00 00
(00003.957832) can0 204 [6] 00 00 FA FF 00 00
(00003.966682) can0 204 [6] 00 00 FA FF 00 00
(00003.977358) can0 204 [6] 00 00 FA FF 00 00
(00003.986666) can0 204 [6] 00 00 FA FF 00 00
(00003.997378) can0 204 [6] 00 00 FA FF 00 00
(00004.007118) can0 204 [6] 00 00 FA FF 00 00
(00004.017351) can0 204 [6] 00 00 FA FF 00 00
(00004.026679) can0 204 [6] 00 00 FA FF 00 00
(00004.037362) can0 204 [6] 00 00 FA FF 00 00
(00004.046669) can0 204 [6] 00 00 FA FF 00 00
(00004.059444) can0 204 [6] 00 00 FA FF 00 00
(00004.066660) can0 204 [6] 00 00 FA FF 00 00
(00004.077384) can0 204 [6] 00 00 FA FF 00 00
(00004.086658) can0 204 [6] 00 00 FA FF 00 00
(00004.101520) can0 204 [6] 00 00 FA FF 00 00
(00004.108737) can0 204 [6] 00 00 FA FF 00 00
(00004.118983) can0 204 [6] 00 00 FA FF 00 00
(00004.126668) can0 204 [6] 00 00 FA FF 00 00
(00004.138988) can0 204 [6] 00 00 FA FF 00 00
(00004.150800) can0 204 [6] 00 00 FA FF 00 00
(00004.159450) can0 204 [6] 00 00 FA FF 00 00
(00004.168277) can0 204 [6] 00 00 FA FF 00 00
(00004.178994) can0 204 [6] 00 00 FA FF 00 00
(00004.188277) can0 204 [6] 00 00 FA FF 00 00
(00004.201474) can0 204 [6] 00 00 FA FF 00 00
(00004.208600) can0 204 [6] 00 00 FA FF 00 00
(00004.218676) can0 204 [6] 1F 00 A2 FE 00 00
(00004.227872) can0 204 [6] 35 00 A2 FE 00 00
(00004.238407) can0 204 [6] 3A 00 A2 FE 00 00
(00004.250149) can0 204 [6] 36 00 A2 FE 00 00
(00004.258626) can0 204 [6] 33 00 A2 FE 00 00
(00004.267372) can0 204 [6] 2D 00 A2 FE 00 00
(00004.277932) can0 204 [6] 28 00 A2 FE 00 00
(00004.287121) can0 204 [6] 21 00 A2 FE 00 00
(00004.300258) can0 204 [6] 1B 00 A2 FE 00 00
(00004.307353) can0 204 [6] 16 00 A2 FE 00 00
(00004.317433) can0 204 [6] 12 00 A2 FE 00 00
(00004.326669) can0 204 [6] 0F 00 A8 FE 00 00
(00004.337326) can0 204 [6] 0C 00 D5 FE 00 00
(00004.348944) can0 204 [6] 09 00 FE FE 00 00
(00004.357785) can0 204 [6] 07 00 1A FF 00 00
(00004.366644) can0 204 [6] 06 00 33 FF 00 00
(00004.377342) can0 204 [6] 05 00 44 FF 00 00
(00004.386643) can0 204 [6] 03 00 54 FF 00 00
(00004.398997) can0 204 [6] 02 00 61 FF 00 00
(00004.407098) can0 204 [6] 01 00 6A FF 00 00
(00004.417324) can0 204 [6] 01 00 72 FF 00 00
(00004.426659) can0 204 [6] 00 00 78 FF 00 00
(00004.437328) can0 204 [6] 00 00 7D FF 00 00
(00004.447693) can0 204 [6] 00 00 81 FF 00 00
(00004.457788) can0 204 [6] 00 00 84 FF 00 00
(00004.466653) can0 204 [6] 00 00 86 FF 00 00
(00004.477340) can0 204 [6] 00 00 88 FF 00 00
(00004.486659) can0 204 [6] 00 00 89 FF 00 00
(00004.497791) can0 204 [6] 00 00 8A FF 00 00
(00004.507102) can0 204 [6] 00 00 8C FF 00 00
(00004.517345) can0 204 [6] 00 00 8C FF 00 00
(00004.526682) can0 204 [6] 00 00 8D FF 00 00
(00004.537413) can0 204 [6] 00 00 8D FF 00 00
(00004.546641) can0 204 [6] 00 00 8E FF 00 00
(00004.557808) can0 204 [6] 00 00 8E FF 00 00
(00004.566652) can0 204 [6] 00 00 8E FF 00 00
(00004.577363) can0 204 [6] 00 00 8E FF 00 00
(00004.586647) can0 204 [6] 00 00 8E FF 00 00
(00004.597353) can0 204 [6] 00 00 8E FF 00 00
(00004.607109) can0 204 [6] 00 00 8E FF 00 00
(00004.617349) can0 204 [6] 00 00 8E FF 00 00
(00004.626684) can0 204 [6] 00 00 8E FF 00 00
(00004.637335) can0 204 [6] 00 00 8E FF 00 00
(00004.646658) can0 204 [6] 00 00 8E FF 00 00
(00004.657808) can0 204 [6] 00 00 8E FF 00 00
(00004.666671) can0 204 [6] 00 00 8E FF 00 00
(00004.677358) can0 204 [6] 00 00 8E FF 00 00
(00004.686646) can0 204 [6] 00 00 8E FF 00 00
(00004.697363) can0 204 [6] 00 00 8E FF 00 00
(00004.707131) can0 204 [6] 00 00 8E FF 00 00
(00004.717348) can0 204 [6] 00 00 8E FF 00 00
(00004.726673) can0 204 [6] 00 00 8E FF 00 00
(00004.737342) can0 204 [6] 00 00 8E FF 00 00
(00004.746683) can0 204 [6] 00 00 8E FF 00 00
(00004.757811) can0 204 [6] 00 00 8E FF 00 00
(00004.766650) can0 204 [6] 00 00 8E FF 00 00
(00004.777355) can0 204 [6] 00 00 8E FF 00 00
(00004.786647) can0 204 [6] 00 00 8E FF 00 00
(00004.797361) can0 204 [6] 00 00 8E FF 00 00
(00004.807114) can0 204 [6] 00 00 8E FF 00 00
(00004.817348) can0 204 [6] 00 00 8E FF 00 00
(00004.826668) can0 204 [6] 00 00 8E FF 00 00
(00004.837349) can0 204 [6] 00 00 8E FF 00 00
(00004.846687) can0 204 [6] 00 00 8E FF 00 00
(00004.859442) can0 204 [6] 00 00 8E FF 00 00
(00004.866673) can0 204 [6] 00 00 8E FF 00 00
(00004.877364) can0 204 [6] 00 00 8E FF 00 00
(00004.886645) can0 204 [6] 00 00 8E FF 00 00
(00004.898976) can0 204 [6] 00 00 8E FF 00 00
(00004.908734) can0 204 [6] 00 00 8E FF 00 00
(00004.919040) can0 204 [6] 00 00 8E FF 00 00
(00004.926655) can0 204 [6] 00 00 8E FF 00 00
(00004.941469) can0 204 [6] 00 00 8E FF 00 00
(00004.948286) can0 204 [6] 00 00 8E FF 00 00
(00004.959442) can0 204 [6] 00 00 8E FF 00 00
(00004.968303) can0 204 [6] 00 00 8E FF 00 00
(00004.978995) can0 204 [6] 00 00 8E FF 00 00
(00004.990808) can0 204 [6] 00 00 8E FF 00 00
(00004.998910) can0 204 [6] 00 00 8E FF 00 00
(00005.008550) can0 204 [6] 00 00 8E FF 00 00
(00005.018716) can0 204 [6] 00 00 8E FF 00 00
(00005.027829) can0 204 [6] 00 00 8E FF 00 00
(00005.040904) can0 204 [6] 00 00 8E FF 00 00
(00005.047575) can0 204 [6] 00 00 8E FF 00 00
(00005.058619) can0 204 [6] 00 00 8E FF 00 00
(00005.067334) can0 204 [6] 00 00 8E FF 00 00
(00005.077967) can0 204 [6] 00 00 8E FF 00 00
(00005.089639) can0 204 [6] 00 00 8E FF 00 00
(00005.097655) can0 204 [6] 00 00 8E FF 00 00
(00005.107307) can0 204 [6] 00 00 8E FF 00 00
(00005.117414) can0 204 [6] 00 00 8E FF 00 00
(00005.126678) can0 204 [6] 00 00 8E FF 00 00
(00005.139688) can0 204 [6] 00 00 8E FF 00 00
(00005.146644) can0 204 [6] 00 00 8E FF 00 00
(00005.157822) can0 204 [6] 00 00 8E FF 00 00
(00005.166642) can0 204 [6] 00 00 8E FF 00 00
(00005.177339) can0 204 [6] 00 00 8E FF 00 00
(00005.188391) can0 204 [6] 00 00 8E FF 00 00
(00005.197346) can0 204 [6] 00 00 8E FF 00 00
(00005.207118) can0 204 [6] 00 00 8E FF 00 00
(00005.217335) can0 204 [6] 00 00 8E FF 00 00
(00005.226663) can0 204 [6] 00 00 8E FF 00 00
(00005.238467) can0 204 [6] 00 00 8E FF 00 00
(00005.246678) can0 204 [6] 00 00 8E FF 00 00
(00005.257811) can0 204 [6] 00 00 8E FF 00 00
(00005.266652) can0 204 [6] 00 00 8E FF 00 00
(00005.277363) can0 204 [6] 00 00 8E FF 00 00
(00005.287179) can0 204 [6] 00 00 8E FF 00 00
(00005.297361) can0 204 [6] 00 00 8E FF 00 00
(00005.307117) can0 204 [6] 00 00 8E FF 00 00
(00005.317356) can0 204 [6] 00 00 8E FF 00 00
(00005.326655) can0 204 [6] 00 00 8E FF 00 00
(00005.337332) can0 204 [6] 00 00 8E FF 00 00
(00005.346677) can0 204 [6] 00 00 8E FF 00 00
(00005.357808) can0 204 [6] 00 00 8E FF 00 00
(00005.366661) can0 204 [6] 00 00 8E FF 00 00
(00005.377356) can0 204 [6] 00 00 8E FF 00 00
(00005.386638) can0 204 [6] 00 00 8E FF 00 00
(00005.397359) can0 204 [6] 00 00 8E FF 00 00
(00005.407105) can0 204 [6] 00 00 8E FF 00 00
(00005.417360) can0 204 [6] 00 00 8E FF 00 00
(00005.426654) can0 204 [6] 00 00 8E FF 00 00
(00005.437340) can0 204 [6] 00 00 8E FF 00 00
(00005.446646) can0 204 [6] 00 00 8E FF 00 00
(00005.457817) can0 204 [6] 00 00 8E FF 00 00
(00005.466714) can0 204 [6] 00 00 8E FF 00 00
(00005.477350) can0 204 [6] 00 00 8E FF 00 00
(00005.486640) can0 204 [6] 00 00 8E FF 00 00
(00005.497369) can0 204 [6] 00 00 8E FF 00 00
(00005.507121) can0 204 [6] 00 00 8E FF 00 00
(00005.517340) can0 204 [6] 00 00 8E FF 00 00
(00005.526667) can0 204 [6] 00 00 8E FF 00 00
(00005.537546) can0 204 [6] 00 00 8E FF 00 00
(00005.546669) can0 204 [6] 00 00 8E FF 00 00
(00005.557800) can0 204 [6] 00 00 8E FF 00 00
(00005.566646) can0 204 [6] 00 00 8E FF 00 00
(00005.577362) can0 204 [6] 00 00 8E FF 00 00
(00005.586651) can0 204 [6] 00 00 8E FF 00 00
(00005.597365) can0 204 [6] 00 00 8E FF 00 00
(00005.607111) can0 204 [6] 00 00 8E FF 00 00
(00005.617347) can0 204 [6] 00 00 8E FF 00 00
(00005.626665) can0 204 [6] 00 00 8E FF 00 00
(00005.637348) can0 204 [6] 00 00 8E FF 00 00
(00005.646681) can0 204 [6] 00 00 8E FF 00 00
(00005.659436) can0 204 [6] 00 00 8E FF 00 00
(00005.666664) can0 204 [6] 00 00 8E FF 00 00
(00005.677355) can0 204 [6] 00 00 8E FF 00 00
(00005.686668) can0 204 [6] 00 00 8E FF 00 00
(00005.698993) can0 204 [6] 00 00 8E FF 00 00
(00005.708750) can0 204 [6] 00 00 8E FF 00 00
(00005.719001) can0 204 [6] 00 00 8E FF 00 00
(00005.726659) can0 204 [6] 00 00 8E FF 00 00
(00005.738960) can0 204 [6] 00 00 8E FF 00 00
(00005.748486) can0 204 [6] 00 00 8E FF 00 00
(00005.759430) can0 204 [6] 00 00 8E FF 00 00
(00005.768302) can0 204 [6] 00 00 8E FF 00 00
(00005.781531) can0 204 [6] 00 00 8E FF 00 00
(00005.788288) can0 204 [6] 00 00 8E FF 00 00
(00005.798989) can0 204 [6] 00 00 8E FF 00 00
(00005.808681) can0 204 [6] 00 00 8E FF 00 00
(00005.818784) can0 204 [6] 00 00 8E FF 00 00
(00005.830487) can0 204 [6] 00 00 8E FF 00 00
(00005.838488) can0 204 [6] E1 FF 5E 01 00 00
(00005.847734) can0 204 [6] D7 FF 5E 01 00 00
(00005.858763) can0 204 [6] CF FF 5E 01 00 00
(00005.867485) can0 204 [6] D1 FF 5E 01 00 00
(00005.880574) can0 204 [6] D1 FF 5E 01 00 00
(00005.887272) can0 204 [6] D7 FF 5E 01 00 00
(00005.897802) can0 204 [6] DE FF 5E 01 00 00
(00005.907481) can0 204 [6] E3 FF 5E 01 00 00
(00005.917582) can0 204 [6] E8 FF 5E 01 00 00
(00005.929283) can0 204 [6] EC FF 39 01 00 00
(00005.937328) can0 204 [6] EF FF FD 00 00 00
(00005.946643) can0 204 [6] F2 FF D3 00 00 00
(00005.957781) can0 204 [6] F4 FF A9 00 00 00
(00005.966658) can0 204 [6] F7 FF 84 00 00 00
(00005.979363) can0 204 [6] F9 FF 69 00 00 00
(00005.986640) can0 204 [6] FA FF 52 00 00 00
(00005.997324) can0 204 [6] FC FF 3D 00 00 00
(00006.007094) can0 204 [6] FD FF 2F 00 00 00
(00006.017339) can0 204 [6] FE FF 24 00 00 00
(00006.028125) can0 204 [6] FF FF 1B 00 00 00
(00006.037341) can0 204 [6] FF FF 14 00 00 00
(00006.046673) can0 204 [6] 00 00 0E 00 00 00
(00006.057815) can0 204 [6] 00 00 09 00 00 00
(00006.066656) can0 204 [6] 00 00 05 00 00 00
(00006.078220) can0 204 [6] 00 00 03 00 00 00
(00006.086656) can0 204 [6] 00 00 01 00 00 00
(00006.097374) can0 204 [6] 00 00 00 00 00 00
(00006.107129) can0 204 [6] 00 00 FF FF 00 00
(00006.117343) can0 204 [6] 00 00 FE FF 00 00
(00006.126920) can0 204 [6] 00 00 FD FF 00 00
(00006.137344) can0 204 [6] 00 00 FC FF 00 00
(00006.146676) can0 204 [6] 00 00 FB FF 00 00
(00006.157812) can0 204 [6] 00 00 FB FF 00 00
(00006.166670) can0 204 [6] 00 00 FB FF 00 00
(00006.177353) can0 204 [6] 00 00 FB FF 00 00
(00006.186647) can0 204 [6] 00 00 FA FF 00 00
(00006.197362) can0 204 [6] 00 00 FA FF 00 00
(00006.207110) can0 204 [6] 00 00 FA FF 00 00
(00006.217356) can0 204 [6] 00 00 FA FF 00 00
(00006.226660) can0 204 [6] 00 00 FA FF 00 00
(00006.237359) can0 204 [6] 00 00 FA FF 00 00
(00006.246673) can0 204 [6] 00 00 FA FF 00 00
(00006.257811) can0 204 [6] 00 00 FA FF 00 00
(00006.266684) can0 204 [6] 00 00 FA FF 00 00
(00006.277360) can0 204 [6] 00 00 FA FF 00 00
(00006.286658) can0 204 [6] 00 00 FA FF 00 00
(00006.297362) can0 204 [6] 00 00 FA FF 00 00
(00006.307118) can0 204 [6] 00 00 FA FF 00 00
(00006.317362) can0 204 [6] 00 00 FA FF 00 00
(00006.326678) can0 204 [6] 00 00 FA FF 00 00
(00006.337345) can0 204 [6] 00 00 FA FF 00 00
(00006.346677) can0 204 [6] 00 00 FA FF 00 00
(00006.357816) can0 204 [6] 00 00 FA FF 00 00
(00006.366673) can0 204 [6] 00 00 FA FF 00 00
(00006.377364) can0 204 [6] 00 00 FA FF 00 00
(00006.386655) can0 204 [6] 00 00 FA FF 00 00
(00006.397358) can0 204 [6] 00 00 FA FF 00 00
(00006.407149) can0 204 [6] 00 00 FA FF 00 00
(00006.417357) can0 204 [6] 00 00 FA FF 00 00
(00006.426663) can0 204 [6] 00 00 FA FF 00 00
(00006.437346) can0 204 [6] 00 00 FA FF 00 00
(00006.446679) can0 204 [6] 00 00 FA FF 00 00
(00006.457815) can0 204 [6] 00 00 FA FF 00 00
(00006.466677) can0 204 [6] 00 00 FA FF 00 00
(00006.477361) can0 204 [6] 00 00 FA FF 00 00
(00006.486652) can0 204 [6] 00 00 FA FF 00 00
(00006.497348) can0 204 [6] 00 00 FA FF 00 00
(00006.507121) can0 204 [6] 00 00 FA FF 00 00
(00006.521524) can0 204 [6] 00 00 FA FF 00 00
(00006.526675) can0 204 [6] 00 00 FA FF 00 00
(00006.538977) can0 204 [6] 00 00 FA FF 00 00
(00006.546694) can0 204 [6] 00 00 FA FF 00 00
(00006.559455) can0 204 [6] 00 00 FA FF 00 00
(00006.566673) can0 204 [6] 00 00 FA FF 00 00
(00006.578992) can0 204 [6] 00 00 FA FF 00 00
(00006.588300) can0 204 [6] 00 00 FA FF 00 00
(00006.599015) can0 204 [6] 00 00 FA FF 00 00
(00006.608763) can0 204 [6] 00 00 FA FF 00 00
(00006.621575) can0 204 [6] 00 00 FA FF 00 00
(00006.628301) can0 204 [6] 00 00 FA FF 00 00
(00006.638881) can0 204 [6] 00 00 FA FF 00 00
(00006.647985) can0 204 [6] 00 00 FA FF 00 00
(00006.659017) can0 204 [6] 00 00 FA FF 00 00
(00006.670304) can0 204 [6] 00 00 FA FF 00 00
(00006.678308) can0 204 [6] 00 00 FA FF 00 00
(00006.687558) can0 204 [6] 00 00 FA FF 00 00
(00006.698067) can0 204 [6] 00 00 FA FF 00 00
(00006.707696) can0 204 [6] 00 00 FA FF 00 00
(00006.720312) can0 204 [6] 00 00 FA FF 00 00
(00006.726968) can0 204 [6] 00 00 FA FF 00 00
(00006.737542) can0 204 [6] 00 00 FA FF 00 00
(00006.746724) can0 204 [6] 00 00 FA FF 00 00
(00006.757816) can0 204 [6] 00 00 FA FF 00 00
(00006.768997) can0 204 [6] 00 00 FA FF 00 00
(00006.777350) can0 204 [6] 00 00 FA FF 00 00
(00006.786655) can0 204 [6] 00 00 FA FF 00 00
(00006.797357) can0 204 [6] 00 00 FA FF 00 00
(00006.807122) can0 204 [6] 00 00 FA FF 00 00
(00006.819056) can0 204 [6] 00 00 FA FF 00 00
(00006.826671) can0 204 [6] 00 00 FA FF 00 00
(00006.837298) can0 204 [6] 1F 00 A2 FE 00 00
(00006.846630) can0 204 [6] 29 00 A2 FE 00 00
(00006.857764) can0 204 [6] 31 00 A2 FE 00 00
(00006.867718) can0 204 [6] 2F 00 A2 FE 00 00
(00006.877307) can0 204 [6] 2F 00 A2 FE 00 00
(00006.886620) can0 204 [6] 29 00 A2 FE 00 00
(00006.897312) can0 204 [6] 22 00 A2 FE 00 00
(00006.907096) can0 204 [6] 1D 00 A2 FE 00 00
(00006.917771) can0 204 [6] 18 00 A2 FE 00 00
(00006.926671) can0 204 [6] 14 00 A2 FE 00 00
(00006.937296) can0 204 [6] 11 00 A2 FE 00 00
(00006.946664) can0 204 [6] 0D 00 C1 FE 00 00
(00006.957801) can0 204 [6] 0B 00 E7 FE 00 00
(00006.966647) can0 204 [6] 08 00 0A FF 00 00
(00006.977347) can0 204 [6] 07 00 22 FF 00 00
(00006.986661) can0 204 [6] 05 00 39 FF 00 00
(00006.997354) can0 204 [6] 04 00 4C FF 00 00
(00007.007112) can0 204 [6] 02 00 5A FF 00 00
(00007.017333) can0 204 [6] 02 00 65 FF 00 00
(00007.026667) can0 204 [6] 01 00 6D FF 00 00
(00007.037339) can0 204 [6] 00 00 74 FF 00 00
(00007.046682) can0 204 [6] 00 00 7A FF 00 00
(00007.057799) can0 204 [6] 00 00 7E FF 00 00
(00007.066662) can0 204 [6] 00 00 82 FF 00 00
(00007.077353) can0 204 [6] 00 00 85 FF 00 00
(00007.086656) can0 204 [6] 00 00 87 FF 00 00
(00007.097349) can0 204 [6] 00 00 88 FF 00 00
(00007.107109) can0 204 [6] 00 00 89 FF 00 00
(00007.117552) can0 204 [6] 00 00 8B FF 00 00
(00007.126661) can0 204 [6] 00 00 8C FF 00 00
(00007.137338) can0 204 [6] 00 00 8C FF 00 00
(00007.146665) can0 204 [6] 00 00 8D FF 00 00
(00007.157807) can0 204 [6] 00 00 8D FF 00 00
(00007.166654) can0 204 [6] 00 00 8E FF 00 00
(00007.177375) can0 204 [6] 00 00 8E FF 00 00
(00007.186648) can0 204 [6] 00 00 8E FF 00 00
(00007.197357) can0 204 [6] 00 00 8E FF 00 00
(00007.207115) can0 204 [6] 00 00 8E FF 00 00
(00007.217346) can0 204 [6] 00 00 8E FF 00 00
(00007.226671) can0 204 [6] 00 00 8E FF 00 00
(00007.237342) can0 204 [6] 00 00 8E FF 00 00
(00007.246666) can0 204 [6] 00 00 8E FF 00 00
(00007.257808) can0 204 [6] 00 00 8E FF 00 00
(00007.266657) can0 204 [6] 00 00 8E FF 00 00
(00007.277352) can0 204 [6] 00 00 8E FF 00 00
(00007.286651) can0 204 [6] 00 00 8E FF 00 00
(00007.297373) can0 204 [6] 00 00 8E FF 00 00
(00007.307102) can0 204 [6] 00 00 8E FF 00 00
(00007.318985) can0 204 [6] 00 00 8E FF 00 00
(00007.326671) can0 204 [6] 00 00 8E FF 00 00
(00007.338977) can0 204 [6] 00 00 8E FF 00 00
(00007.346683) can0 204 [6] 00 00 8E FF 00 00
(00007.361936) can0 204 [6] 00 00 8E FF 00 00
(00007.366656) can0 204 [6] 00 00 8E FF 00 00
(00007.378994) can0 204 [6] 00 00 8E FF 00 00
(00007.388260) can0 204 [6] 00 00 8E FF 00 00
(00007.398984) can0 204 [6] 00 00 8E FF 00 00
(00007.411248) can0 204 [6] 00 00 8E FF 00 00
(00007.418953) can0 204 [6] 00 00 8E FF 00 00
(00007.428258) can0 204 [6] 00 00 8E FF 00 00
(00007.438823) can0 204 [6] 00 00 8E FF 00 00
(00007.448029) can0 204 [6] 00 00 8E FF 00 00
(00007.461565) can0 204 [6] 00 00 8E FF 00 00
(00007.467778) can0 204 [6] 00 00 8E FF 00 00
(00007.478351) can0 204 [6] 00 00 8E FF 00 00
(00007.487533) can0 204 [6] 00 00 8E FF 00 00
(00007.498115) can0 204 [6] 00 00 8E FF 00 00
(00007.510324) can0 204 [6] 00 00 8E FF 00 00
(00007.517864) can0 204 [6] 00 00 8E FF 00 00
(00007.527065) can0 204 [6] 00 00 8E FF 00 00
(00007.537632) can0 204 [6] 00 00 8E FF 00 00
(00007.546818) can0 204 [6] 00 00 8E FF 00 00
(00007.560378) can0 204 [6] 00 00 8E FF 00 00
(00007.566659) can0 204 [6] 00 00 8E FF 00 00
(00007.577340) can0 204 [6] 00 00 8E FF 00 00
(00007.586641) can0 204 [6] 00 00 8E FF 00 00
(00007.597346) can0 204 [6] 00 00 8E FF 00 00
(00007.609072) can0 204 [6] 00 00 8E FF 00 00
(00007.617350) can0 204 [6] 00 00 8E FF 00 00
(00007.626648) can0 204 [6] 00 00 8E FF 00 00
(00007.637340) can0 204 [6] 00 00 8E FF 00 00
(00007.646650) can0 204 [6] 00 00 8E FF 00 00
(00007.659196) can0 204 [6] 00 00 8E FF 00 00
(00007.666651) can0 204 [6] 00 00 8E FF 00 00
(00007.677347) can0 204 [6] 00 00 8E FF 00 00
(00007.686654) can0 204 [6] 00 00 8E FF 00 00
(00007.697337) can0 204 [6] 00 00 8E FF 00 00
(00007.707879) can0 204 [6] 00 00 8E FF 00 00
(00007.717550) can0 204 [6] 00 00 8E FF 00 00
(00007.726652) can0 204 [6] 00 00 8E FF 00 00
(00007.737346) can0 204 [6] 00 00 8E FF 00 00
(00007.746657) can0 204 [6] 00 00 8E FF 00 00
(00007.757984) can0 204 [6] 00 00 8E FF 00 00
(00007.766641) can0 204 [6] 00 00 8E FF 00 00
(00007.777355) can0 204 [6] 00 00 8E FF 00 00
(00007.786644) can0 204 [6] 00 00 8E FF 00 00
(00007.797351) can0 204 [6] 00 00 8E FF 00 00
(00007.807113) can0 204 [6] 00 00 8E FF 00 00
(00007.817344) can0 204 [6] 00 00 8E FF 00 00
(00007.826672) can0 204 [6] 00 00 8E FF 00 00
(00007.837353) can0 204 [6] 00 00 8E FF 00 00
(00007.846667) can0 204 [6] 00 00 8E FF 00 00
(00007.857804) can0 204 [6] 00 00 8E FF 00 00
(00007.866647) can0 204 [6] 00 00 8E FF 00 00
(00007.877357) can0 204 [6] 00 00 8E FF 00 00
(00007.886649) can0 204 [6] 00 00 8E FF 00 00
(00007.897373) can0 204 [6] 00 00 8E FF 00 00
(00007.907109) can0 204 [6] 00 00 8E FF 00 00
(00007.917349) can0 204 [6] 00 00 8E FF 00 00
(00007.926663) can0 204 [6] 00 00 8E FF 00 00
(00007.937338) can0 204 [6] 00 00 8E FF 00 00
(00007.946662) can0 204 [6] 00 00 8E FF 00 00
(00007.957850) can0 204 [6] 00 00 8E FF 00 00
(00007.966647) can0 204 [6] 00 00 8E FF 00 00
(00007.977356) can0 204 [6] 00 00 8E FF 00 00
(00007.986651) can0 204 [6] 00 00 8E FF 00 00
(00007.997350) can0 204 [6] 00 00 8E FF 00 00
(00008.007105) can0 204 [6] 00 00 8E FF 00 00
(00008.017336) can0 204 [6] 00 00 8E FF 00 00
(00008.026671) can0 204 [6] 00 00 8E FF 00 00
(00008.037344) can0 204 [6] 00 00 8E FF 00 00
(00008.046652) can0 204 [6] 00 00 8E FF 00 00
(00008.057813) can0 204 [6] 00 00 8E FF 00 00
(00008.066672) can0 204 [6] 00 00 8E FF 00 00
(00008.077366) can0 204 [6] 00 00 8E FF 00 00
(00008.086649) can0 204 [6] 00 00 8E FF 00 00
(00008.097351) can0 204 [6] 00 00 8E FF 00 00
(00008.107100) can0 204 [6] 00 00 8E FF 00 00
(00008.117345) can0 204 [6] 00 00 8E FF 00 00
(00008.126662) can0 204 [6] 00 00 8E FF 00 00
(00008.138965) can0 204 [6] 00 00 8E FF 00 00
(00008.146668) can0 204 [6] 00 00 8E FF 00 00
(00008.159428) can0 204 [6] 00 00 8E FF 00 00
(00008.166659) can0 204 [6] 00 00 8E FF 00 00
(00008.179004) can0 204 [6] 00 00 8E FF 00 00
(00008.186641) can0 204 [6] 00 00 8E FF 00 00
(00008.201528) can0 204 [6] 00 00 8E FF 00 00
(00008.208741) can0 204 [6] 00 00 8E FF 00 00
(00008.218986) can0 204 [6] 00 00 8E FF 00 00
(00008.228320) can0 204 [6] 00 00 8E FF 00 00
(00008.238996) can0 204 [6] 00 00 8E FF 00 00
(00008.250847) can0 204 [6] 00 00 8E FF 00 00
(00008.259418) can0 204 [6] 00 00 8E FF 00 00
(00008.268141) can0 204 [6] 00 00 8E FF 00 00
(00008.278726) can0 204 [6] 00 00 8E FF 00 00
(00008.287910) can0 204 [6] 00 00 8E FF 00 00
(00008.301019) can0 204 [6] 00 00 8E FF 00 00
(00008.308148) can0 204 [6] 00 00 8E FF 00 00
(00008.318274) can0 204 [6] 00 00 8E FF 00 00
(00008.327454) can0 204 [6] 00 00 8E FF 00 00
(00008.338036) can0 204 [6] 00 00 8E FF 00 00
(00008.349755) can0 204 [6] 00 00 8E FF 00 00
(00008.358270) can0 204 [6] 00 00 8E FF 00 00
(00008.366996) can0 204 [6] 00 00 8E FF 00 00
(00008.377587) can0 204 [6] 00 00 8E FF 00 00
(00008.386779) can0 204 [6] 00 00 8E FF 00 00
(00008.399881) can0 204 [6] 00 00 8E FF 00 00
(00008.407120) can0 204 [6] 00 00 8E FF 00 00
(00008.417345) can0 204 [6] 00 00 8E FF 00 00
(00008.426651) can0 204 [6] 00 00 8E FF 00 00
(00008.437342) can0 204 [6] 00 00 8E FF 00 00
(00008.448630) can0 204 [6] 00 00 8E FF 00 00
(00008.457770) can0 204 [6] 00 00 8E FF 00 00
(00008.466635) can0 204 [6] E1 FF 5E 01 00 00
(00008.477291) can0 204 [6] CB FF 5E 01 00 00
(00008.486645) can0 204 [6] C6 FF 5E 01 00 00
(00008.498683) can0 204 [6] C3 FF 5E 01 00 00
(00008.507117) can0 204 [6] C8 FF 5E 01 00 00
(00008.517309) can0 204 [6] D0 FF 5E 01 00 00
(00008.526637) can0 204 [6] D6 FF 5E 01 00 00
(00008.537313) can0 204 [6] DD FF 5E 01 00 00
(00008.547413) can0 204 [6] E4 FF 5E 01 00 00
(00008.557765) can0 204 [6] E9 FF 5E 01 00 00
(00008.566634) can0 204 [6] ED FF 18 01 00 00
(00008.577319) can0 204 [6] F0 FF E6 00 00 00
(00008.586648) can0 204 [6] F3 FF B6 00 00 00
(00008.597500) can0 204 [6] F6 FF 8D 00 00 00
(00008.607129) can0 204 [6] F9 FF 70 00 00 00
(00008.617312) can0 204 [6] FA FF 56 00 00 00
(00008.626671) can0 204 [6] FB FF 44 00 00 00
(00008.637346) can0 204 [6] FD FF 34 00 00 00
(00008.646644) can0 204 [6] FE FF 27 00 00 00
(00008.657795) can0 204 [6] FF FF 1E 00 00 00
(00008.666664) can0 204 [6] FF FF 15 00 00 00
(00008.677654) can0 204 [6] 00 00 10 00 00 00
(00008.686665) can0 204 [6] 00 00 0B 00 00 00
(00008.697377) can0 204 [6] 00 00 06 00 00 00
(00008.707136) can0 204 [6] 00 00 03 00 00 00
(00008.717370) can0 204 [6] 00 00 01 00 00 00
(00008.726692) can0 204 [6] 00 00 00 00 00 00
(00008.737380) can0 204 [6] 00 00 00 00 00 00
(00008.746866) can0 204 [6] 00 00 FF FF 00 00
(00008.757812) can0 204 [6] 00 00 FD FF 00 00
(00008.766664) can0 204 [6] 00 00 FD FF 00 00
(00008.777376) can0 204 [6] 00 00 FC FF 00 00
(00008.786672) can0 204 [6] 00 00 FB FF 00 00
(00008.797351) can0 204 [6] 00 00 FB FF 00 00
(00008.807135) can0 204 [6] 00 00 FB FF 00 00
(00008.817360) can0 204 [6] 00 00 FB FF 00 00
(00008.826680) can0 204 [6] 00 00 FA FF 00 00
(00008.837368) can0 204 [6] 00 00 FA FF 00 00
(00008.846664) can0 204 [6] 00 00 FA FF 00 00
(00008.857821) can0 204 [6] 00 00 FA FF 00 00
(00008.866657) can0 204 [6] 00 00 FA FF 00 00
(00008.877377) can0 204 [6] 00 00 FA FF 00 00
(00008.886656) can0 204 [6] 00 00 FA FF 00 00
(00008.897351) can0 204 [6] 00 00 FA FF 00 00
(00008.907130) can0 204 [6] 00 00 FA FF 00 00
(00008.917358) can0 204 [6] 00 00 FA FF 00 00
(00008.926676) can0 204 [6] 00 00 FA FF 00 00
(00008.937370) can0 204 [6] 00 00 FA FF 00 00
(00008.946669) can0 204 [6] 00 00 FA FF 00 00
(00008.959458) can0 204 [6] 00 00 FA FF 00 00
(00008.966672) can0 204 [6] 00 00 FA FF 00 00
(00008.979008) can0 204 [6] 00 00 FA FF 00 00
(00008.986664) can0 204 [6] 00 00 FA FF 00 00
(00008.998999) can0 204 [6] 00 00 FA FF 00 00
(00009.008765) can0 204 [6] 00 00 FA FF 00 00
(00009.019007) can0 204 [6] 00 00 FA FF 00 00
(00009.026694) can0 204 [6] 00 00 FA FF 00 00
(00009.041507) can0 204 [6] 00 00 FA FF 00 00
(00009.048313) can0 204 [6] 00 00 FA FF 00 00
(00009.059435) can0 204 [6] 00 00 FA FF 00 00
(00009.068322) can0 204 [6] 00 00 FA FF 00 00
(00009.079007) can0 204 [6] 00 00 FA FF 00 00
(00009.090831) can0 204 [6] 00 00 FA FF 00 00
(00009.098955) can0 204 [6] 00 00 FA FF 00 00
(00009.108600) can0 204 [6] 00 00 FA FF 00 00
(00009.118718) can0 204 [6] 00 00 FA FF 00 00
(00009.127898) can0 204 [6] 00 00 FA FF 00 00
(00009.141002) can0 204 [6] 00 00 FA FF 00 00
(00009.147652) can0 204 [6] 00 00 FA FF 00 00
(00009.158694) can0 204 [6] 00 00 FA FF 00 00
(00009.167412) can0 204 [6] 00 00 FA FF 00 00
(00009.177989) can0 204 [6] 00 00 FA FF 00 00
(00009.189679) can0 204 [6] 00 00 FA FF 00 00
(00009.197753) can0 204 [6] 00 00 FA FF 00 00
(00009.207397) can0 204 [6] 00 00 FA FF 00 00
(00009.217518) can0 204 [6] 00 00 FA FF 00 00
(00009.226696) can0 204 [6] 00 00 FA FF 00 00
(00009.239801) can0 204 [6] 00 00 FA FF 00 00
(00009.246645) can0 204 [6] 00 00 FA FF 00 00
(00009.257803) can0 204 [6] 00 00 FA FF 00 00
(00009.266659) can0 204 [6] 00 00 FA FF 00 00
(00009.277352) can0 204 [6] 00 00 FA FF 00 00
(00009.288495) can0 204 [6] 00 00 FA FF 00 00
(00009.297353) can0 204 [6] 00 00 FA FF 00 00
(00009.307118) can0 204 [6] 00 00 FA FF 00 00
(00009.317345) can0 204 [6] 00 00 FA FF 00 00
(00009.326648) can0 204 [6] 00 00 FA FF 00 00
(00009.338616) can0 204 [6] 00 00 FA FF 00 00
(00009.346660) can0 204 [6] 00 00 FA FF 00 00
(00009.357813) can0 204 [6] 00 00 FA FF 00 00
(00009.366674) can0 204 [6] 00 00 FA FF 00 00
(00009.377363) can0 204 [6] 00 00 FA FF 00 00
(00009.387277) can0 204 [6] 00 00 FA FF 00 00
(00009.397358) can0 204 [6] 00 00 FA FF 00 00
(00009.407114) can0 204 [6] 00 00 FA FF 00 00
(00009.417347) can0 204 [6] 00 00 FA FF 00 00
(00009.426684) can0 204 [6] 00 00 FA FF 00 00
(00009.437365) can0 204 [6] 00 00 FA FF 00 00
(00009.446654) can0 204 [6] 00 00 FA FF 00 00
(00009.457811) can0 204 [6] 00 00 FA FF 00 00
(00009.466658) can0 204 [6] 00 00 FA FF 00 00
(00009.477345) can0 204 [6] 00 00 FA FF 00 00
(00009.486634) can0 204 [6] 1F 00 A2 FE 00 00
(00009.497322) can0 204 [6] 2A 00 A2 FE 00 00
(00009.507108) can0 204 [6] 32 00 A2 FE 00 00
(00009.517313) can0 204 [6] 30 00 A2 FE 00 00
(00009.526637) can0 204 [6] 2F 00 A2 FE 00 00
(00009.537298) can0 204 [6] 2A 00 A2 FE 00 00
(00009.546647) can0 204 [6] 26 00 A2 FE 00 00
(00009.557810) can0 204 [6] 20 00 A2 FE 00 00
(00009.566636) can0 204 [6] 1A 00 A2 FE 00 00
(00009.577342) can0 204 [6] 16 00 A2 FE 00 00
(00009.586944) can0 204 [6] 12 00 A2 FE 00 00
(00009.597324) can0 204 [6] 0E 00 B9 FE 00 00
(00009.607095) can0 204 [6] 0B 00 E2 FE 00 00
(00009.617322) can0 204 [6] 09 00 06 FF 00 00
(00009.626690) can0 204 [6] 07 00 20 FF 00 00
(00009.637367) can0 204 [6] 06 00 37 FF 00 00
(00009.646659) can0 204 [6] 04 00 4B FF 00 00
(00009.657795) can0 204 [6] 02 00 59 FF 00 00
(00009.666647) can0 204 [6] 02 00 64 FF 00 00
(00009.677362) can0 204 [6] 01 00 6C FF 00 00
(00009.686834) can0 204 [6] 01 00 74 FF 00 00
(00009.697373) can0 204 [6] 00 00 7A FF 00 00
(00009.707110) can0 204 [6] 00 00 7E FF 00 00
(00009.717349) can0 204 [6] 00 00 82 FF 00 00
(00009.726671) can0 204 [6] 00 00 85 FF 00 00
(00009.737328) can0 204 [6] 00 00 87 FF 00 00
(00009.746661) can0 204 [6] 00 00 88 FF 00 00
(00009.759434) can0 204 [6] 00 00 89 FF 00 00
(00009.766649) can0 204 [6] 00 00 8B FF 00 00
(00009.777347) can0 204 [6] 00 00 8C FF 00 00
(00009.786642) can0 204 [6] 00 00 8C FF 00 00
(00009.798970) can0 204 [6] 00 00 8D FF 00 00
(00009.807108) can0 204 [6] 00 00 8D FF 00 00
(00009.818972) can0 204 [6] 00 00 8E FF 00 00
(00009.826660) can0 204 [6] 00 00 8E FF 00 00
(00009.838971) can0 204 [6] 00 00 8E FF 00 00
(00009.846666) can0 204 [6] 00 00 8E FF 00 00
(00009.859427) can0 204 [6] 00 00 8E FF 00 00
(00009.868263) can0 204 [6] 00 00 8E FF 00 00
(00009.881497) can0 204 [6] 00 00 8E FF 00 00
(00009.888508) can0 204 [6] 00 00 8E FF 00 00
(00009.898969) can0 204 [6] 00 00 8E FF 00 00
(00009.908737) can0 204 [6] 00 00 8E FF 00 00
(00009.918860) can0 204 [6] 00 00 8E FF 00 00
(00009.930564) can0 204 [6] 00 00 8E FF 00 00
(00009.938629) can0 204 [6] 00 00 8E FF 00 00
(00009.947813) can0 204 [6] 00 00 8E FF 00 00
(00009.958859) can0 204 [6] 00 00 8E FF 00 00
(00009.967581) can0 204 [6] 00 00 8E FF 00 00
(00009.980670) can0 204 [6] 00 00 8E FF 00 00
(00009.987360) can0 204 [6] 00 00 8E FF 00 00
(00009.997928) can0 204 [6] 00 00 8E FF 00 00
(00010.007582) can0 204 [6] 00 00 8E FF 00 00
(00010.017699) can0 204 [6] 00 00 8E FF 00 00
(00010.029400) can0 204 [6] 00 00 8E FF 00 00
(00010.037467) can0 204 [6] 00 00 8E FF 00 00
(00010.046672) can0 204 [6] 00 00 8E FF 00 00
(00010.057801) can0 204 [6] 00 00 8E FF 00 00
(00010.066654) can0 204 [6] 00 00 8E FF 00 00
(00010.079528) can0 204 [6] 00 00 8E FF 00 00
(00010.086645) can0 204 [6] 00 00 8E FF 00 00
(00010.097333) can0 204 [6] 00 00 8E FF 00 00
(00010.107105) can0 204 [6] 00 00 8E FF 00 00
(00010.117337) can0 204 [6] 00 00 8E FF 00 00
(00010.128259) can0 204 [6] 00 00 8E FF 00 00
(00010.137333) can0 204 [6] 00 00 8E FF 00 00
(00010.146641) can0 204 [6] 00 00 8E FF 00 00
(00010.157798) can0 204 [6] 00 00 8E FF 00 00
(00010.166653) can0 204 [6] 00 00 8E FF 00 00
(00010.178363) can0 204 [6] 00 00 8E FF 00 00
(00010.186657) can0 204 [6] 00 00 8E FF 00 00
(00010.197366) can0 204 [6] 00 00 8E FF 00 00
(00010.207114) can0 204 [6] 00 00 8E FF 00 00
(00010.217336) can0 204 [6] 00 00 8E FF 00 00
(00010.227067) can0 204 [6] 00 00 8E FF 00 00
(00010.237340) can0 204 [6] 00 00 8E FF 00 00
(00010.246645) can0 204 [6] 00 00 8E FF 00 00
(00010.257809) can0 204 [6] 00 00 8E FF 00 00
(00010.266653) can0 204 [6] 00 00 8E FF 00 00
(00010.277347) can0 204 [6] 00 00 8E FF 00 00
(00010.286658) can0 204 [6] 00 00 8E FF 00 00
(00010.297344) can0 204 [6] 00 00 8E FF 00 00
(00010.307130) can0 204 [6] 00 00 8E FF 00 00
(00010.317342) can0 204 [6] 00 00 8E FF 00 00
(00010.326640) can0 204 [6] 00 00 8E FF 00 00
(00010.337356) can0 204 [6] 00 00 8E FF 00 00
(00010.346660) can0 204 [6] 00 00 8E FF 00 00
(00010.357816) can0 204 [6] 00 00 8E FF 00 00
(00010.366634) can0 204 [6] 00 00 8E FF 00 00
(00010.377339) can0 204 [6] 00 00 8E FF 00 00
(00010.386653) can0 204 [6] 00 00 8E FF 00 00
(00010.397334) can0 204 [6] 00 00 8E FF 00 00
(00010.407125) can0 204 [6] 00 00 8E FF 00 00
(00010.417361) can0 204 [6] 00 00 8E FF 00 00
(00010.426672) can0 204 [6] 00 00 8E FF 00 00
(00010.437354) can0 204 [6] 00 00 8E FF 00 00
(00010.446638) can0 204 [6] 00 00 8E FF 00 00
(00010.457812) can0 204 [6] 00 00 8E FF 00 00
(00010.466646) can0 204 [6] 00 00 8E FF 00 00
(00010.477354) can0 204 [6] 00 00 8E FF 00 00
(00010.486651) can0 204 [6] 00 00 8E FF 00 00
(00010.497333) can0 204 [6] 00 00 8E FF 00 00
(00010.507121) can0 204 [6] 00 00 8E FF 00 00
(00010.517358) can0 204 [6] 00 00 8E FF 00 00
(00010.526653) can0 204 [6] 00 00 8E FF 00 00
(00010.537350) can0 204 [6] 00 00 8E FF 00 00
(00010.546656) can0 204 [6] 00 00 8E FF 00 00
(00010.557821) can0 204 [6] 00 00 8E FF 00 00
(00010.566652) can0 204 [6] 00 00 8E FF 00 00
(00010.577354) can0 204 [6] 00 00 8E FF 00 00
(00010.586654) can0 204 [6] 00 00 8E FF 00 00
(00010.597360) can0 204 [6] 00 00 8E FF 00 00
(00010.607120) can0 204 [6] 00 00 8E FF 00 00
(00010.617359) can0 204 [6] 00 00 8E FF 00 00
(00010.626669) can0 204 [6] 00 00 8E FF 00 00
(00010.638994) can0 204 [6] 00 00 8E FF 00 00
(00010.646655) can0 204 [6] 00 00 8E FF 00 00
(00010.659451) can0 204 [6] 00 00 8E FF 00 00
(00010.666652) can0 204 [6] 00 00 8E FF 00 00
(00010.678998) can0 204 [6] 00 00 8E FF 00 00
(00010.688568) can0 204 [6] 00 00 8E FF 00 00
(00010.699195) can0 204 [6] 00 00 8E FF 00 00
(00010.708735) can0 204 [6] 00 00 8E FF 00 00
(00010.721492) can0 204 [6] 00 00 8E FF 00 00
(00010.728305) can0 204 [6] 00 00 8E FF 00 00
(00010.738992) can0 204 [6] 00 00 8E FF 00 00
(00010.748184) can0 204 [6] 00 00 8E FF 00 00
(00010.759228) can0 204 [6] 00 00 8E FF 00 00
(00010.770475) can0 204 [6] 00 00 8E FF 00 00
(00010.778519) can0 204 [6] 00 00 8E FF 00 00
(00010.787695) can0 204 [6] 00 00 8E FF 00 00
(00010.798277) can0 204 [6] 00 00 8E FF 00 00
(00010.807947) can0 204 [6] 00 00 8E FF 00 00
(00010.820574) can0 204 [6] 00 00 8E FF 00 00
(00010.827230) can0 204 [6] 00 00 8E FF 00 00
(00010.837811) can0 204 [6] 00 00 8E FF 00 00
(00010.847008) can0 204 [6] 00 00 8E FF 00 00
(00010.858045) can0 204 [6] 00 00 8E FF 00 00
(00010.869301) can0 204 [6] 00 00 8E FF 00 00
(00010.877345) can0 204 [6] 00 00 8E FF 00 00
(00010.886652) can0 204 [6] 00 00 8E FF 00 00
(00010.897346) can0 204 [6] 00 00 8E FF 00 00
(00010.907121) can0 204 [6] 00 00 8E FF 00 00
(00010.919396) can0 204 [6] 00 00 8E FF 00 00
(00010.926652) can0 204 [6] 00 00 8E FF 00 00
(00010.937344) can0 204 [6] 00 00 8E FF 00 00
(00010.946661) can0 204 [6] 00 00 8E FF 00 00
(00010.957818) can0 204 [6] 00 00 8E FF 00 00
(00010.968095) can0 204 [6] 00 00 8E FF 00 00
(00010.977394) can0 204 [6] 00 00 8E FF 00 00
(00010.986648) can0 204 [6] 00 00 8E FF 00 00
(00010.997346) can0 204 [6] 00 00 8E FF 00 00
(00011.007097) can0 204 [6] 00 00 8E FF 00 00
(00011.018183) can0 204 [6] 00 00 8E FF 00 00
(00011.026672) can0 204 [6] 00 00 8E FF 00 00
(00011.037340) can0 204 [6] 00 00 8E FF 00 00
(00011.046667) can0 204 [6] 00 00 8E FF 00 00
(00011.057808) can0 204 [6] 00 00 8E FF 00 00
(00011.066892) can0 204 [6] 00 00 8E FF 00 00
(00011.077352) can0 204 [6] 00 00 8E FF 00 00
(00011.086649) can0 204 [6] 00 00 8E FF 00 00
(00011.097286) can0 204 [6] E1 FF 5E 01 00 00
(00011.107098) can0 204 [6] CB FF 5E 01 00 00
(00011.117322) can0 204 [6] C7 FF 5E 01 00 00
(00011.126658) can0 204 [6] CB FF 5E 01 00 00
(00011.137304) can0 204 [6] CD FF 5E 01 00 00
(00011.146641) can0 204 [6] D4 FF 5E 01 00 00
(00011.157792) can0 204 [6] D8 FF 5E 01 00 00
(00011.166640) can0 204 [6] DF FF 5E 01 00 00
(00011.177332) can0 204 [6] E4 FF 5E 01 00 00
(00011.186639) can0 204 [6] E9 FF 5E 01 00 00
(00011.197310) can0 204 [6] ED FF 1E 01 00 00
(00011.207109) can0 204 [6] F0 FF EA 00 00 00
(00011.217310) can0 204 [6] F3 FF B9 00 00 00
(00011.226658) can0 204 [6] F5 FF 97 00 00 00
(00011.237328) can0 204 [6] F8 FF 77 00 00 00
(00011.246651) can0 204 [6] FA FF 61 00 00 00
(00011.257791) can0 204 [6] FB FF 4B 00 00 00
(00011.266648) can0 204 [6] FC FF 39 00 00 00
(00011.277351) can0 204 [6] FE FF 2C 00 00 00
(00011.286653) can0 204 [6] FF FF 21 00 00 00
(00011.297342) can0 204 [6] FF FF 18 00 00 00
(00011.307141) can0 204 [6] 00 00 11 00 00 00
(00011.317348) can0 204 [6] 00 00 0C 00 00 00
(00011.326683) can0 204 [6] 00 00 08 00 00 00
(00011.337360) can0 204 [6] 00 00 05 00 00 00
(00011.346670) can0 204 [6] 00 00 02 00 00 00
(00011.357825) can0 204 [6] 00 00 00 00 00 00
(00011.366663) can0 204 [6] 00 00 00 00 00 00
(00011.377364) can0 204 [6] 00 00 FE FF 00 00
(00011.386653) can0 204 [6] 00 00 FD FF 00 00
(00011.397371) can0 204 [6] 00 00 FC FF 00 00
(00011.407113) can0 204 [6] 00 00 FC FF 00 00
(00011.417388) can0 204 [6] 00 00 FB FF 00 00
(00011.426681) can0 204 [6] 00 00 FB FF 00 00
(00011.437368) can0 204 [6] 00 00 FB FF 00 00
(00011.446678) can0 204 [6] 00 00 FB FF 00 00
(00011.461955) can0 204 [6] 00 00 FA FF 00 00
(00011.466676) can0 204 [6] 00 00 FA FF 00 00
(00011.479004) can0 204 [6] 00 00 FA FF 00 00
(00011.486651) can0 204 [6] 00 00 FA FF 00 00
(00011.498997) can0 204 [6] 00 00 FA FF 00 00
(00011.511281) can0 204 [6] 00 00 FA FF 00 00
(00011.518989) can0 204 [6] 00 00 FA FF 00 00
(00011.528312) can0 204 [6] 00 00 FA FF 00 00
(00011.538996) can0 204 [6] 00 00 FA FF 00 00
(00011.548325) can0 204 [6] 00 00 FA FF 00 00
(00011.561973) can0 204 [6] 00 00 FA FF 00 00
(00011.568292) can0 204 [6] 00 00 FA FF 00 00
(00011.578824) can0 204 [6] 00 00 FA FF 00 00
(00011.588008) can0 204 [6] 00 00 FA FF 00 00
(00011.598605) can0 204 [6] 00 00 FA FF 00 00
(00011.610788) can0 204 [6] 00 00 FA FF 00 00
(00011.618354) can0 204 [6] 00 00 FA FF 00 00
(00011.627551) can0 204 [6] 00 00 FA FF 00 00
(00011.638117) can0 204 [6] 00 00 FA FF 00 00
(00011.647299) can0 204 [6] 00 00 FA FF 00 00
(00011.660879) can0 204 [6] 00 00 FA FF 00 00
(00011.667068) can0 204 [6] 00 00 FA FF 00 00
(00011.677632) can0 204 [6] 00 00 FA FF 00 00
(00011.686819) can0 204 [6] 00 00 FA FF 00 00
(00011.697402) can0 204 [6] 00 00 FA FF 00 00
(00011.709579) can0 204 [6] 00 00 FA FF 00 00
(00011.717343) can0 204 [6] 00 00 FA FF 00 00
(00011.726652) can0 204 [6] 00 00 FA FF 00 00
(00011.737336) can0 204 [6] 00 00 FA FF 00 00
(00011.746648) can0 204 [6] 00 00 FA FF 00 00
(00011.759665) can0 204 [6] 00 00 FA FF 00 00
(00011.766653) can0 204 [6] 00 00 FA FF 00 00
(00011.777364) can0 204 [6] 00 00 FA FF 00 00
(00011.786653) can0 204 [6] 00 00 FA FF 00 00
(00011.797352) can0 204 [6] 00 00 FA FF 00 00
(00011.808349) can0 204 [6] 00 00 FA FF 00 00
(00011.817357) can0 204 [6] 00 00 FA FF 00 00
(00011.826659) can0 204 [6] 00 00 FA FF 00 00
(00011.837357) can0 204 [6] 00 00 FA FF 00 00
(00011.846663) can0 204 [6] 00 00 FA FF 00 00
(00011.858491) can0 204 [6] 00 00 FA FF 00 00
(00011.866673) can0 204 [6] 00 00 FA FF 00 00
(00011.877368) can0 204 [6] 00 00 FA FF 00 00
(00011.886659) can0 204 [6] 00 00 FA FF 00 00
(00011.897364) can0 204 [6] 00 00 FA FF 00 00
(00011.907189) can0 204 [6] 00 00 FA FF 00 00
(00011.917359) can0 204 [6] 00 00 FA FF 00 00
(00011.926681) can0 204 [6] 00 00 FA FF 00 00
(00011.937370) can0 204 [6] 00 00 FA FF 00 00
(00011.946688) can0 204 [6] 00 00 FA FF 00 00
(00011.957822) can0 204 [6] 00 00 FA FF 00 00
(00011.966655) can0 204 [6] 00 00 FA FF 00 00
(00011.977371) can0 204 [6] 00 00 FA FF 00 00
(00011.986694) can0 204 [6] 00 00 FA FF 00 00
(00011.997349) can0 204 [6] 00 00 FA FF 00 00
(00012.007118) can0 204 [6] 00 00 FA FF 00 00
(00012.017346) can0 204 [6] 00 00 FA FF 00 00
(00012.026674) can0 204 [6] 00 00 FA FF 00 00
(00012.037348) can0 204 [6] 00 00 FA FF 00 00
(00012.046665) can0 204 [6] 00 00 FA FF 00 00
(00012.057811) can0 204 [6] 00 00 FA FF 00 00
(00012.066679) can0 204 [6] 00 00 FA FF 00 00
(00012.077379) can0 204 [6] 00 00 FA FF 00 00
(00012.086666) can0 204 [6] 00 00 FA FF 00 00
(00012.097382) can0 204 [6] 00 00 FA FF 00 00
(00012.107120) can0 204 [6] 00 00 FA FF 00 00
(00012.117329) can0 204 [6] 1F 00 A2 FE 00 00
(00012.126652) can0 204 [6] 35 00 A2 FE 00 00
(00012.137292) can0 204 [6] 3A 00 A2 FE 00 00
(00012.146671) can0 204 [6] 36 00 A2 FE 00 00
(00012.157749) can0 204 [6] 33 00 A2 FE 00 00
(00012.166649) can0 204 [6] 2D 00 A2 FE 00 00
(00012.177327) can0 204 [6] 28 00 A2 FE 00 00
(00012.186630) can0 204 [6] 21 00 A2 FE 00 00
(00012.197357) can0 204 [6] 1B 00 A2 FE 00 00
(00012.207105) can0 204 [6] 16 00 A2 FE 00 00
(00012.217309) can0 204 [6] 12 00 A2 FE 00 00
(00012.226704) can0 204 [6] 0F 00 A8 FE 00 00
(00012.237341) can0 204 [6] 0C 00 D5 FE 00 00
(00012.246671) can0 204 [6] 09 00 FD FE 00 00
(00012.259430) can0 204 [6] 07 00 1A FF 00 00
(00012.266673) can0 204 [6] 06 00 33 FF 00 00
(00012.278996) can0 204 [6] 05 00 44 FF 00 00
(00012.286646) can0 204 [6] 03 00 54 FF 00 00
(00012.301522) can0 204 [6] 02 00 61 FF 00 00
(00012.308817) can0 204 [6] 01 00 6A FF 00 00
(00012.318981) can0 204 [6] 01 00 72 FF 00 00
(00012.328312) can0 204 [6] 00 00 78 FF 00 00
(00012.338985) can0 204 [6] 00 00 7D FF 00 00
(00012.350826) can0 204 [6] 00 00 81 FF 00 00
(00012.359422) can0 204 [6] 00 00 84 FF 00 00
(00012.368524) can0 204 [6] 00 00 86 FF 00 00
(00012.379019) can0 204 [6] 00 00 88 FF 00 00
(00012.388155) can0 204 [6] 00 00 89 FF 00 00
(00012.401273) can0 204 [6] 00 00 8A FF 00 00
(00012.408369) can0 204 [6] 00 00 8C FF 00 00
(00012.418474) can0 204 [6] 00 00 8C FF 00 00
(00012.427658) can0 204 [6] 00 00 8D FF 00 00
(00012.438225) can0 204 [6] 00 00 8D FF 00 00
(00012.449927) can0 204 [6] 00 00 8E FF 00 00
(00012.458441) can0 204 [6] 00 00 8E FF 00 00
(00012.467153) can0 204 [6] 00 00 8E FF 00 00
(00012.477737) can0 204 [6] 00 00 8E FF 00 00
(00012.486907) can0 204 [6] 00 00 8E FF 00 00
(00012.500022) can0 204 [6] 00 00 8E FF 00 00
(00012.507141) can0 204 [6] 00 00 8E FF 00 00
(00012.517338) can0 204 [6] 00 00 8E FF 00 00
(00012.526647) can0 204 [6] 00 00 8E FF 00 00
(00012.537352) can0 204 [6] 00 00 8E FF 00 00
(00012.548711) can0 204 [6] 00 00 8E FF 00 00
(00012.557810) can0 204 [6] 00 00 8E FF 00 00
(00012.566652) can0 204 [6] 00 00 8E FF 00 00
(00012.577339) can0 204 [6] 00 00 8E FF 00 00
(00012.586646) can0 204 [6] 00 00 8E FF 00 00
(00012.598833) can0 204 [6] 00 00 8E FF 00 00
(00012.607110) can0 204 [6] 00 00 8E FF 00 00
(00012.617352) can0 204 [6] 00 00 8E FF 00 00
(00012.626658) can0 204 [6] 00 00 8E FF 00 00
(00012.637334) can0 204 [6] 00 00 8E FF 00 00
(00012.647519) can0 204 [6] 00 00 8E FF 00 00
(00012.657814) can0 204 [6] 00 00 8E FF 00 00
(00012.666652) can0 204 [6] 00 00 8E FF 00 00
(00012.677344) can0 204 [6] 00 00 8E FF 00 00
(00012.686640) can0 204 [6] 00 00 8E FF 00 00
(00012.697578) can0 204 [6] 00 00 8E FF 00 00
(00012.707102) can0 204 [6] 00 00 8E FF 00 00
(00012.717349) can0 204 [6] 00 00 8E FF 00 00
(00012.726654) can0 204 [6] 00 00 8E FF 00 00
(00012.737335) can0 204 [6] 00 00 8E FF 00 00
(00012.746650) can0 204 [6] 00 00 8E FF 00 00
(00012.757806) can0 204 [6] 00 00 8E FF 00 00
(00012.766670) can0 204 [6] 00 00 8E FF 00 00
(00012.777372) can0 204 [6] 00 00 8E FF 00 00
(00012.786637) can0 204 [6] 00 00 8E FF 00 00
(00012.797341) can0 204 [6] 00 00 8E FF 00 00
(00012.807309) can0 204 [6] 00 00 8E FF 00 00
(00012.817354) can0 204 [6] 00 00 8E FF 00 00
(00012.826686) can0 204 [6] 00 00 8E FF 00 00
(00012.837340) can0 204 [6] 00 00 8E FF 00 00
(00012.846649) can0 204 [6] 00 00 8E FF 00 00
(00012.857780) can0 204 [6] 00 00 8E FF 00 00
(00012.866660) can0 204 [6] 00 00 8E FF 00 00
(00012.877355) can0 204 [6] 00 00 8E FF 00 00
(00012.886634) can0 204 [6] 00 00 8E FF 00 00
(00012.897335) can0 204 [6] 00 00 8E FF 00 00
(00012.907101) can0 204 [6] 00 00 8E FF 00 00
(00012.917349) can0 204 [6] 00 00 8E FF 00 00
(00012.926676) can0 204 [6] 00 00 8E FF 00 00
(00012.937346) can0 204 [6] 00 00 8E FF 00 00
(00012.946674) can0 204 [6] 00 00 8E FF 00 00
(00012.957821) can0 204 [6] 00 00 8E FF 00 00
(00012.966658) can0 204 [6] 00 00 8E FF 00 00
(00012.977358) can0 204 [6] 00 00 8E FF 00 00
(00012.986694) can0 204 [6] 00 00 8E FF 00 00
(00012.997355) can0 204 [6] 00 00 8E FF 00 00
(00013.007106) can0 204 [6] 00 00 8E FF 00 00
(00013.017356) can0 204 [6] 00 00 8E FF 00 00
(00013.026671) can0 204 [6] 00 00 8E FF 00 00
(00013.037341) can0 204 [6] 00 00 8E FF 00 00
(00013.046699) can0 204 [6] 00 00 8E FF 00 00
(00013.059460) can0 204 [6] 00 00 8E FF 00 00
(00013.066664) can0 204 [6] 00 00 8E FF 00 00
(00013.078993) can0 204 [6] 00 00 8E FF 00 00
(00013.086660) can0 204 [6] 00 00 8E FF 00 00
(00013.098995) can0 204 [6] 00 00 8E FF 00 00
(00013.108744) can0 204 [6] 00 00 8E FF 00 00
(00013.118972) can0 204 [6] 00 00 8E FF 00 00
(00013.126660) can0 204 [6] 00 00 8E FF 00 00
(00013.141493) can0 204 [6] 00 00 8E FF 00 00
(00013.148393) can0 204 [6] 00 00 8E FF 00 00
(00013.159443) can0 204 [6] 00 00 8E FF 00 00
(00013.168281) can0 204 [6] 00 00 8E FF 00 00
(00013.178987) can0 204 [6] 00 00 8E FF 00 00
(00013.190775) can0 204 [6] 00 00 8E FF 00 00
(00013.198830) can0 204 [6] 00 00 8E FF 00 00
(00013.208477) can0 204 [6] 00 00 8E FF 00 00
(00013.218579) can0 204 [6] 00 00 8E FF 00 00
(00013.227766) can0 204 [6] 00 00 8E FF 00 00
(00013.240867) can0 204 [6] 00 00 8E FF 00 00
(00013.247522) can0 204 [6] 00 00 8E FF 00 00
(00013.258555) can0 204 [6] 00 00 8E FF 00 00
(00013.267275) can0 204 [6] 00 00 8E FF 00 00
(00013.277849) can0 204 [6] 00 00 8E FF 00 00
(00013.289568) can0 204 [6] 00 00 8E FF 00 00
(00013.297617) can0 204 [6] 00 00 8E FF 00 00
(00013.307270) can0 204 [6] 00 00 8E FF 00 00
(00013.317379) can0 204 [6] 00 00 8E FF 00 00
(00013.326657) can0 204 [6] 00 00 8E FF 00 00
(00013.339659) can0 204 [6] 00 00 8E FF 00 00
(00013.346641) can0 204 [6] 00 00 8E FF 00 00
(00013.357808) can0 204 [6] 00 00 8E FF 00 00
(00013.366646) can0 204 [6] 00 00 8E FF 00 00
(00013.377350) can0 204 [6] 00 00 8E FF 00 00
(00013.388338) can0 204 [6] 00 00 8E FF 00 00
(00013.397338) can0 204 [6] 00 00 8E FF 00 00
(00013.407103) can0 204 [6] 00 00 8E FF 00 00
(00013.417336) can0 204 [6] 00 00 8E FF 00 00
(00013.426647) can0 204 [6] 00 00 8E FF 00 00
(00013.438444) can0 204 [6] 00 00 8E FF 00 00
(00013.446648) can0 204 [6] 00 00 8E FF 00 00
(00013.457798) can0 204 [6] 00 00 8E FF 00 00
(00013.466647) can0 204 [6] 00 00 8E FF 00 00
(00013.477370) can0 204 [6] 00 00 8E FF 00 00
(00013.487129) can0 204 [6] 00 00 8E FF 00 00
(00013.497335) can0 204 [6] 00 00 8E FF 00 00
(00013.507108) can0 204 [6] 00 00 8E FF 00 00
(00013.517351) can0 204 [6] 00 00 8E FF 00 00
(00013.526661) can0 204 [6] 00 00 8E FF 00 00
(00013.537337) can0 204 [6] 00 00 8E FF 00 00
(00013.546662) can0 204 [6] 00 00 8E FF 00 00
(00013.557814) can0 204 [6] 00 00 8E FF 00 00
(00013.566647) can0 204 [6] 00 00 8E FF 00 00
(00013.577377) can0 204 [6] 00 00 8E FF 00 00
(00013.586646) can0 204 [6] 00 00 8E FF 00 00
(00013.597361) can0 204 [6] 00 00 8E FF 00 00
(00013.607119) can0 204 [6] 00 00 8E FF 00 00
(00013.617351) can0 204 [6] 00 00 8E FF 00 00
(00013.626671) can0 204 [6] 00 00 8E FF 00 00
(00013.637341) can0 204 [6] 00 00 8E FF 00 00
(00013.646657) can0 204 [6] 00 00 8E FF 00 00
(00013.657834) can0 204 [6] 00 00 8E FF 00 00
(00013.666655) can0 204 [6] 00 00 8E FF 00 00
(00013.677357) can0 204 [6] 00 00 8E FF 00 00
(00013.686638) can0 204 [6] 00 00 8E FF 00 00
(00013.697360) can0 204 [6] 00 00 8E FF 00 00
(00013.707122) can0 204 [6] 00 00 8E FF 00 00
(00013.717347) can0 204 [6] 00 00 8E FF 00 00
(00013.726703) can0 204 [6] 00 00 8E FF 00 00
(00013.737305) can0 204 [6] E1 FF 5E 01 00 00
(00013.746684) can0 204 [6] D7 FF 5E 01 00 00
(00013.757790) can0 204 [6] CF FF 5E 01 00 00
(00013.766664) can0 204 [6] D1 FF 5E 01 00 00
(00013.777326) can0 204 [6] D1 FF 5E 01 00 00
(00013.786663) can0 204 [6] D7 FF 5E 01 00 00
(00013.797336) can0 204 [6] DA FF 5E 01 00 00
(00013.807125) can0 204 [6] E0 FF 5E 01 00 00
(00013.817337) can0 204 [6] E6 FF 5E 01 00 00
(00013.826679) can0 204 [6] EB FF 49 01 00 00
(00013.837333) can0 204 [6] EE FF 08 01 00 00
(00013.846692) can0 204 [6] F2 FF CE 00 00 00
(00013.859425) can0 204 [6] F5 FF A6 00 00 00
(00013.866665) can0 204 [6] F7 FF 81 00 00 00
(00013.877333) can0 204 [6] F9 FF 68 00 00 00
(00013.886668) can0 204 [6] FA FF 51 00 00 00
(00013.898967) can0 204 [6] FC FF 3D 00 00 00
(00013.908747) can0 204 [6] FE FF 2F 00 00 00
(00013.918991) can0 204 [6] FE FF 23 00 00 00
(00013.926704) can0 204 [6] FF FF 1B 00 00 00
(00013.939130) can0 204 [6] FF FF 14 00 00 00
(00013.948323) can0 204 [6] 00 00 0D 00 00 00
(00013.959467) can0 204 [6] 00 00 09 00 00 00
(00013.968315) can0 204 [6] 00 00 05 00 00 00
(00013.981552) can0 204 [6] 00 00 03 00 00 00
(00013.988368) can0 204 [6] 00 00 01 00 00 00
(00013.998999) can0 204 [6] 00 00 00 00 00 00
(00014.008729) can0 204 [6] 00 00 FF FF 00 00
(00014.018851) can0 204 [6] 00 00 FE FF 00 00
(00014.030543) can0 204 [6] 00 00 FD FF 00 00
(00014.038586) can0 204 [6] 00 00 FC FF 00 00
(00014.047780) can0 204 [6] 00 00 FB FF 00 00
(00014.058816) can0 204 [6] 00 00 FB FF 00 00
(00014.067519) can0 204 [6] 00 00 FB FF 00 00
(00014.080611) can0 204 [6] 00 00 FB FF 00 00
(00014.087264) can0 204 [6] 00 00 FA FF 00 00
(00014.097847) can0 204 [6] 00 00 FA FF 00 00
(00014.107484) can0 204 [6] 00 00 FA FF 00 00
(00014.117652) can0 204 [6] 00 00 FA FF 00 00
(00014.129283) can0 204 [6] 00 00 FA FF 00 00
(00014.137400) can0 204 [6] 00 00 FA FF 00 00
(00014.146663) can0 204 [6] 00 00 FA FF 00 00
(00014.157809) can0 204 [6] 00 00 FA FF 00 00
(00014.166655) can0 204 [6] 00 00 FA FF 00 00
(00014.179340) can0 204 [6] 00 00 FA FF 00 00
(00014.186652) can0 204 [6] 00 00 FA FF 00 00
(00014.197364) can0 204 [6] 00 00 FA FF 00 00
(00014.207114) can0 204 [6] 00 00 FA FF 00 00
(00014.217356) can0 204 [6] 00 00 FA FF 00 00
(00014.228048) can0 204 [6] 00 00 FA FF 00 00
(00014.237338) can0 204 [6] 00 00 FA FF 00 00
(00014.246692) can0 204 [6] 00 00 FA FF 00 00
(00014.257807) can0 204 [6] 00 00 FA FF 00 00
(00014.266682) can0 204 [6] 00 00 FA FF 00 00
(00014.278118) can0 204 [6] 00 00 FA FF 00 00
(00014.286648) can0 204 [6] 00 00 FA FF 00 00
(00014.297367) can0 204 [6] 00 00 FA FF 00 00
(00014.307110) can0 204 [6] 00 00 FA FF 00 00
(00014.317345) can0 204 [6] 00 00 FA FF 00 00
(00014.326857) can0 204 [6] 00 00 FA FF 00 00
(00014.337361) can0 204 [6] 00 00 FA FF 00 00
(00014.346673) can0 204 [6] 00 00 FA FF 00 00
(00014.357804) can0 204 [6] 00 00 FA FF 00 00
(00014.366647) can0 204 [6] 00 00 FA FF 00 00
(00014.377350) can0 204 [6] 00 00 FA FF 00 00
(00014.386661) can0 204 [6] 00 00 FA FF 00 00
(00014.397363) can0 204 [6] 00 00 FA FF 00 00
(00014.407116) can0 204 [6] 00 00 FA FF 00 00
(00014.417360) can0 204 [6] 00 00 FA FF 00 00
(00014.426681) can0 204 [6] 00 00 FA FF 00 00
(00014.437351) can0 204 [6] 00 00 FA FF 00 00
(00014.446680) can0 204 [6] 00 00 FA FF 00 00
(00014.457807) can0 204 [6] 00 00 FA FF 00 00
(00014.466669) can0 204 [6] 00 00 FA FF 00 00
(00014.477357) can0 204 [6] 00 00 FA FF 00 00
(00014.486648) can0 204 [6] 00 00 FA FF 00 00
(00014.497359) can0 204 [6] 00 00 FA FF 00 00
(00014.507115) can0 204 [6] 00 00 FA FF 00 00
(00014.517357) can0 204 [6] 00 00 FA FF 00 00
(00014.526655) can0 204 [6] 00 00 FA FF 00 00
(00014.537353) can0 204 [6] 00 00 FA FF 00 00
(00014.546692) can0 204 [6] 00 00 FA FF 00 00
(00014.557816) can0 204 [6] 00 00 FA FF 00 00
(00014.566655) can0 204 [6] 00 00 FA FF 00 00
(00014.577377) can0 204 [6] 00 00 FA FF 00 00
(00014.586651) can0 204 [6] 00 00 FA FF 00 00
(00014.597370) can0 204 [6] 00 00 FA FF 00 00
(00014.607136) can0 204 [6] 00 00 FA FF 00 00
(00014.617346) can0 204 [6] 00 00 FA FF 00 00
(00014.626666) can0 204 [6] 00 00 FA FF 00 00
(00014.637357) can0 204 [6] 00 00 FA FF 00 00
(00014.646661) can0 204 [6] 00 00 FA FF 00 00
(00014.657817) can0 204 [6] 00 00 FA FF 00 00
(00014.666659) can0 204 [6] 00 00 FA FF 00 00
(00014.677359) can0 204 [6] 00 00 FA FF 00 00
(00014.686652) can0 204 [6] 00 00 FA FF 00 00
(00014.697352) can0 204 [6] 00 00 FA FF 00 00
(00014.707119) can0 204 [6] 00 00 FA FF 00 00
(00014.721498) can0 204 [6] 00 00 FA FF 00 00
(00014.726667) can0 204 [6] 00 00 FA FF 00 00
(00014.739169) can0 204 [6] 00 00 FA FF 00 00
(00014.746651) can0 204 [6] 1F 00 A2 FE 00 00
(00014.759398) can0 204 [6] 35 00 A2 FE 00 00
(00014.770990) can0 204 [6] 3A 00 A2 FE 00 00
(00014.778957) can0 204 [6] 36 00 A2 FE 00 00
(00014.788299) can0 204 [6] 33 00 A2 FE 00 00
(00014.798940) can0 204 [6] 2D 00 A2 FE 00 00
(00014.808755) can0 204 [6] 28 00 A2 FE 00 00
(00014.821476) can0 204 [6] 21 00 A2 FE 00 00
(00014.828189) can0 204 [6] 1D 00 A2 FE 00 00
(00014.838748) can0 204 [6] 17 00 A2 FE 00 00
(00014.847942) can0 204 [6] 13 00 A2 FE 00 00
(00014.858970) can0 204 [6] 10 00 A2 FE 00 00
(00014.870237) can0 204 [6] 0D 00 CE FE 00 00
(00014.878271) can0 204 [6] 0B 00 F0 FE 00 00
(00014.887473) can0 204 [6] 08 00 10 FF 00 00
(00014.898048) can0 204 [6] 06 00 2C FF 00 00
(00014.907710) can0 204 [6] 05 00 40 FF 00 00
(00014.920312) can0 204 [6] 04 00 51 FF 00 00
(00014.927007) can0 204 [6] 02 00 5D FF 00 00
(00014.937566) can0 204 [6] 01 00 67 FF 00 00
(00014.946728) can0 204 [6] 01 00 70 FF 00 00
(00014.957826) can0 204 [6] 00 00 77 FF 00 00
(00014.969042) can0 204 [6] 00 00 7C FF 00 00
(00014.977360) can0 204 [6] 00 00 80 FF 00 00
(00014.986667) can0 204 [6] 00 00 83 FF 00 00
(00014.997344) can0 204 [6] 00 00 85 FF 00 00
(00015.007117) can0 204 [6] 00 00 87 FF 00 00
(00015.019135) can0 204 [6] 00 00 88 FF 00 00
(00015.026661) can0 204 [6] 00 00 89 FF 00 00
(00015.037347) can0 204 [6] 00 00 8B FF 00 00
(00015.046643) can0 204 [6] 00 00 8C FF 00 00
(00015.057806) can0 204 [6] 00 00 8C FF 00 00
(00015.067865) can0 204 [6] 00 00 8D FF 00 00
(00015.077348) can0 204 [6] 00 00 8D FF 00 00
(00015.086642) can0 204 [6] 00 00 8E FF 00 00
(00015.097344) can0 204 [6] 00 00 8E FF 00 00
(00015.107109) can0 204 [6] 00 00 8E FF 00 00
(00015.117966) can0 204 [6] 00 00 8E FF 00 00
(00015.126664) can0 204 [6] 00 00 8E FF 00 00
(00015.137337) can0 204 [6] 00 00 8E FF 00 00
(00015.146668) can0 204 [6] 00 00 8E FF 00 00
(00015.157803) can0 204 [6] 00 00 8E FF 00 00
(00015.166665) can0 204 [6] 00 00 8E FF 00 00
(00015.177348) can0 204 [6] 00 00 8E FF 00 00
(00015.186651) can0 204 [6] 00 00 8E FF 00 00
(00015.197343) can0 204 [6] 00 00 8E FF 00 00
(00015.207101) can0 204 [6] 00 00 8E FF 00 00
(00015.217344) can0 204 [6] 00 00 8E FF 00 00
(00015.226680) can0 204 [6] 00 00 8E FF 00 00
(00015.237341) can0 204 [6] 00 00 8E FF 00 00
(00015.246642) can0 204 [6] 00 00 8E FF 00 00
(00015.257804) can0 204 [6] 00 00 8E FF 00 00
(00015.266638) can0 204 [6] 00 00 8E FF 00 00
(00015.277356) can0 204 [6] 00 00 8E FF 00 00
(00015.286645) can0 204 [6] 00 00 8E FF 00 00
(00015.297359) can0 204 [6] 00 00 8E FF 00 00
(00015.307111) can0 204 [6] 00 00 8E FF 00 00
(00015.317355) can0 204 [6] 00 00 8E FF 00 00
(00015.326666) can0 204 [6] 00 00 8E FF 00 00
(00015.337348) can0 204 [6] 00 00 8E FF 00 00
(00015.346686) can0 204 [6] 00 00 8E FF 00 00
(00015.357809) can0 204 [6] 00 00 8E FF 00 00
(00015.366652) can0 204 [6] 00 00 8E FF 00 00
(00015.377355) can0 204 [6] 00 00 8E FF 00 00
(00015.386644) can0 204 [6] 00 00 8E FF 00 00
(00015.397351) can0 204 [6] 00 00 8E FF 00 00
(00015.407109) can0 204 [6] 00 00 8E FF 00 00
(00015.417346) can0 204 [6] 00 00 8E FF 00 00
(00015.426680) can0 204 [6] 00 00 8E FF 00 00
(00015.437337) can0 204 [6] 00 00 8E FF 00 00
(00015.446675) can0 204 [6] 00 00 8E FF 00 00
(00015.457824) can0 204 [6] 00 00 8E FF 00 00
(00015.466657) can0 204 [6] 00 00 8E FF 00 00
(00015.477367) can0 204 [6] 00 00 8E FF 00 00
(00015.486829) can0 204 [6] 00 00 8E FF 00 00
(00015.497347) can0 204 [6] 00 00 8E FF 00 00
(00015.507108) can0 204 [6] 00 00 8E FF 00 00
(00015.517356) can0 204 [6] 00 00 8E FF 00 00
(00015.526689) can0 204 [6] 00 00 8E FF 00 00
(00015.538983) can0 204 [6] 00 00 8E FF 00 00
(00015.546663) can0 204 [6] 00 00 8E FF 00 00
(00015.561970) can0 204 [6] 00 00 8E FF 00 00
(00015.566655) can0 204 [6] 00 00 8E FF 00 00
(00015.578992) can0 204 [6] 00 00 8E FF 00 00
(00015.588298) can0 204 [6] 00 00 8E FF 00 00
(00015.598977) can0 204 [6] 00 00 8E FF 00 00
(00015.611281) can0 204 [6] 00 00 8E FF 00 00
(00015.618994) can0 204 [6] 00 00 8E FF 00 00
(00015.628283) can0 204 [6] 00 00 8E FF 00 00
(00015.638962) can0 204 [6] 00 00 8E FF 00 00
(00015.648188) can0 204 [6] 00 00 8E FF 00 00
(00015.661746) can0 204 [6] 00 00 8E FF 00 00
(00015.667950) can0 204 [6] 00 00 8E FF 00 00
(00015.678520) can0 204 [6] 00 00 8E FF 00 00
(00015.687706) can0 204 [6] 00 00 8E FF 00 00
(00015.698286) can0 204 [6] 00 00 8E FF 00 00
(00015.710456) can0 204 [6] 00 00 8E FF 00 00
(00015.718046) can0 204 [6] 00 00 8E FF 00 00
(00015.727237) can0 204 [6] 00 00 8E FF 00 00
(00015.737815) can0 204 [6] 00 00 8E FF 00 00
(00015.746996) can0 204 [6] 00 00 8E FF 00 00
(00015.760581) can0 204 [6] 00 00 8E FF 00 00
(00015.766754) can0 204 [6] 00 00 8E FF 00 00
(00015.777339) can0 204 [6] 00 00 8E FF 00 00
(00015.786637) can0 204 [6] 00 00 8E FF 00 00
(00015.797343) can0 204 [6] 00 00 8E FF 00 00
(00015.809289) can0 204 [6] 00 00 8E FF 00 00
(00015.817334) can0 204 [6] 00 00 8E FF 00 00
(00015.826660) can0 204 [6] 00 00 8E FF 00 00
(00015.837339) can0 204 [6] 00 00 8E FF 00 00
(00015.846652) can0 204 [6] 00 00 8E FF 00 00
(00015.859403) can0 204 [6] 00 00 8E FF 00 00
(00015.866644) can0 204 [6] 00 00 8E FF 00 00
(00015.877353) can0 204 [6] 00 00 8E FF 00 00
(00015.886655) can0 204 [6] 00 00 8E FF 00 00
(00015.897342) can0 204 [6] 00 00 8E FF 00 00
(00015.908147) can0 204 [6] 00 00 8E FF 00 00
(00015.917339) can0 204 [6] 00 00 8E FF 00 00
(00015.926662) can0 204 [6] 00 00 8E FF 00 00
(00015.937337) can0 204 [6] 00 00 8E FF 00 00
(00015.946680) can0 204 [6] 00 00 8E FF 00 00
(00015.958279) can0 204 [6] 00 00 8E FF 00 00
(00015.966650) can0 204 [6] 00 00 8E FF 00 00
(00015.977373) can0 204 [6] 00 00 8E FF 00 00
(00015.986652) can0 204 [6] 00 00 8E FF 00 00
(00015.997343) can0 204 [6] 00 00 8E FF 00 00
(00016.007110) can0 204 [6] 00 00 8E FF 00 00
(00016.017332) can0 204 [6] 00 00 8E FF 00 00
(00016.026650) can0 204 [6] 00 00 8E FF 00 00
(00016.037343) can0 204 [6] 00 00 8E FF 00 00
(00016.046640) can0 204 [6] 00 00 8E FF 00 00
(00016.057799) can0 204 [6] 00 00 8E FF 00 00
(00016.066659) can0 204 [6] 00 00 8E FF 00 00
(00016.077377) can0 204 [6] 00 00 8E FF 00 00
(00016.086644) can0 204 [6] 00 00 8E FF 00 00
(00016.097356) can0 204 [6] 00 00 8E FF 00 00
(00016.107096) can0 204 [6] 00 00 8E FF 00 00
(00016.117350) can0 204 [6] 00 00 8E FF 00 00
(00016.126655) can0 204 [6] 00 00 8E FF 00 00
(00016.137345) can0 204 [6] 00 00 8E FF 00 00
(00016.146641) can0 204 [6] 00 00 8E FF 00 00
(00016.157799) can0 204 [6] 00 00 8E FF 00 00
(00016.166646) can0 204 [6] 00 00 8E FF 00 00
(00016.177359) can0 204 [6] 00 00 8E FF 00 00
(00016.186653) can0 204 [6] 00 00 8E FF 00 00
(00016.197343) can0 204 [6] 00 00 8E FF 00 00
(00016.207109) can0 204 [6] 00 00 8E FF 00 00
(00016.217341) can0 204 [6] 00 00 8E FF 00 00
(00016.226661) can0 204 [6] 00 00 8E FF 00 00
(00016.237351) can0 204 [6] 00 00 8E FF 00 00
(00016.246665) can0 204 [6] 00 00 8E FF 00 00
(00016.257795) can0 204 [6] 00 00 8E FF 00 00
(00016.266649) can0 204 [6] 00 00 8E FF 00 00
(00016.277366) can0 204 [6] 00 00 8E FF 00 00
(00016.286650) can0 204 [6] 00 00 8E FF 00 00
(00016.297359) can0 204 [6] 00 00 8E FF 00 00
(00016.307105) can0 204 [6] 00 00 8E FF 00 00
(00016.317347) can0 204 [6] 00 00 8E FF 00 00
(00016.326664) can0 204 [6] 00 00 8E FF 00 00
(00016.337351) can0 204 [6] 00 00 8E FF 00 00
(00016.346872) can0 204 [6] 00 00 8E FF 00 00
(00016.359435) can0 204 [6] 00 00 8E FF 00 00
(00016.366636) can0 204 [6] E1 FF 5E 01 00 00
(00016.378977) can0 204 [6] CB FF 5E 01 00 00
(00016.386652) can0 204 [6] C6 FF 5E 01 00 00
(00016.401467) can0 204 [6] CA FF 5E 01 00 00
(00016.408746) can0 204 [6] CD FF 5E 01 00 00
(00016.418963) can0 204 [6] D3 FF 5E 01 00 00
(00016.428294) can0 204 [6] D8 FF 5E 01 00 00
(00016.438944) can0 204 [6] DF FF 5E 01 00 00
(00016.450788) can0 204 [6] E5 FF 5E 01 00 00
(00016.459386) can0 204 [6] EA FF 53 01 00 00
(00016.468285) can0 204 [6] EE FF 0F 01 00 00
(00016.478962) can0 204 [6] F1 FF E0 00 00 00
(00016.488208) can0 204 [6] F4 FF B2 00 00 00
(00016.501352) can0 204 [6] F7 FF 8A 00 00 00
(00016.508445) can0 204 [6] F9 FF 6E 00 00 00
(00016.518504) can0 204 [6] FA FF 55 00 00 00
(00016.527729) can0 204 [6] FB FF 43 00 00 00
(00016.538291) can0 204 [6] FD FF 33 00 00 00
(00016.550013) can0 204 [6] FE FF 26 00 00 00
(00016.558517) can0 204 [6] FF FF 1D 00 00 00
(00016.567258) can0 204 [6] FF FF 15 00 00 00
(00016.577827) can0 204 [6] 00 00 0F 00 00 00
(00016.587011) can0 204 [6] 00 00 0B 00 00 00
(00016.600113) can0 204 [6] 00 00 06 00 00 00
(00016.607244) can0 204 [6] 00 00 03 00 00 00
(00016.617362) can0 204 [6] 00 00 01 00 00 00
(00016.626667) can0 204 [6] 00 00 00 00 00 00
(00016.637358) can0 204 [6] 00 00 00 00 00 00
(00016.648807) can0 204 [6] 00 00 FE FF 00 00
(00016.657805) can0 204 [6] 00 00 FD FF 00 00
(00016.666730) can0 204 [6] 00 00 FC FF 00 00
(00016.677356) can0 204 [6] 00 00 FC FF 00 00
(00016.686658) can0 204 [6] 00 00 FB FF 00 00
(00016.698907) can0 204 [6] 00 00 FB FF 00 00
(00016.707125) can0 204 [6] 00 00 FB FF 00 00
(00016.717352) can0 204 [6] 00 00 FB FF 00 00
(00016.726660) can0 204 [6] 00 00 FA FF 00 00
(00016.737350) can0 204 [6] 00 00 FA FF 00 00
(00016.747569) can0 204 [6] 00 00 FA FF 00 00
(00016.757810) can0 204 [6] 00 00 FA FF 00 00
(00016.766655) can0 204 [6] 00 00 FA FF 00 00
(00016.777365) can0 204 [6] 00 00 FA FF 00 00
(00016.786666) can0 204 [6] 00 00 FA FF 00 00
(00016.797663) can0 204 [6] 00 00 FA FF 00 00
(00016.807121) can0 204 [6] 00 00 FA FF 00 00
(00016.817344) can0 204 [6] 00 00 FA FF 00 00
(00016.826668) can0 204 [6] 00 00 FA FF 00 00
(00016.837344) can0 204 [6] 00 00 FA FF 00 00
(00016.846649) can0 204 [6] 00 00 FA FF 00 00
(00016.857807) can0 204 [6] 00 00 FA FF 00 00
(00016.866649) can0 204 [6] 00 00 FA FF 00 00
(00016.877370) can0 204 [6] 00 00 FA FF 00 00
(00016.886669) can0 204 [6] 00 00 FA FF 00 00
(00016.897354) can0 204 [6] 00 00 FA FF 00 00
(00016.907122) can0 204 [6] 00 00 FA FF 00 00
(00016.917369) can0 204 [6] 00 00 FA FF 00 00
(00016.926695) can0 204 [6] 00 00 FA FF 00 00
(00016.937346) can0 204 [6] 00 00 FA FF 00 00
(00016.946651) can0 204 [6] 00 00 FA FF 00 00
(00016.957811) can0 204 [6] 00 00 FA FF 00 00
(00016.966651) can0 204 [6] 00 00 FA FF 00 00
(00016.977373) can0 204 [6] 00 00 FA FF 00 00
(00016.986659) can0 204 [6] 00 00 FA FF 00 00
(00016.997346) can0 204 [6] 00 00 FA FF 00 00
(00017.007119) can0 204 [6] 00 00 FA FF 00 00
(00017.017353) can0 204 [6] 00 00 FA FF 00 00
(00017.026672) can0 204 [6] 00 00 FA FF 00 00
(00017.037350) can0 204 [6] 00 00 FA FF 00 00
(00017.046654) can0 204 [6] 00 00 FA FF 00 00
(00017.057810) can0 204 [6] 00 00 FA FF 00 00
(00017.066679) can0 204 [6] 00 00 FA FF 00 00
(00017.077374) can0 204 [6] 00 00 FA FF 00 00
(00017.086658) can0 204 [6] 00 00 FA FF 00 00
(00017.097367) can0 204 [6] 00 00 FA FF 00 00
(00017.107119) can0 204 [6] 00 00 FA FF 00 00
(00017.117352) can0 204 [6] 00 00 FA FF 00 00
(00017.126678) can0 204 [6] 00 00 FA FF 00 00
(00017.137355) can0 204 [6] 00 00 FA FF 00 00
(00017.146672) can0 204 [6] 00 00 FA FF 00 00
(00017.159458) can0 204 [6] 00 00 FA FF 00 00
(00017.166661) can0 204 [6] 00 00 FA FF 00 00
(00017.177362) can0 204 [6] 00 00 FA FF 00 00
(00017.186651) can0 204 [6] 00 00 FA FF 00 00
(00017.198988) can0 204 [6] 00 00 FA FF 00 00
(00017.207115) can0 204 [6] 00 00 FA FF 00 00
(00017.218979) can0 204 [6] 00 00 FA FF 00 00
(00017.226668) can0 204 [6] 00 00 FA FF 00 00
(00017.241523) can0 204 [6] 00 00 FA FF 00 00
(00017.246669) can0 204 [6] 00 00 FA FF 00 00
(00017.259436) can0 204 [6] 00 00 FA FF 00 00
(00017.268297) can0 204 [6] 00 00 FA FF 00 00
(00017.279012) can0 204 [6] 00 00 FA FF 00 00
(00017.290830) can0 204 [6] 00 00 FA FF 00 00
(00017.299002) can0 204 [6] 00 00 FA FF 00 00
(00017.308761) can0 204 [6] 00 00 FA FF 00 00
(00017.318928) can0 204 [6] 00 00 FA FF 00 00
(00017.328130) can0 204 [6] 00 00 FA FF 00 00
(00017.341227) can0 204 [6] 00 00 FA FF 00 00
(00017.347883) can0 204 [6] 00 00 FA FF 00 00
(00017.358931) can0 204 [6] 00 00 FA FF 00 00
(00017.367692) can0 204 [6] 00 00 FA FF 00 00
(00017.378205) can0 204 [6] 00 00 FA FF 00 00
(00017.389929) can0 204 [6] 1F 00 A2 FE 00 00
(00017.397933) can0 204 [6] 2A 00 A2 FE 00 00
(00017.407629) can0 204 [6] 32 00 A2 FE 00 00
(00017.417720) can0 204 [6] 30 00 A2 FE 00 00
(00017.426897) can0 204 [6] 2F 00 A2 FE 00 00
(00017.439986) can0 204 [6] 2A 00 A2 FE 00 00
(00017.446665) can0 204 [6] 23 00 A2 FE 00 00
(00017.457797) can0 204 [6] 1D 00 A2 FE 00 00
(00017.466647) can0 204 [6] 18 00 A2 FE 00 00
(00017.477339) can0 204 [6] 14 00 A2 FE 00 00
(00017.488750) can0 204 [6] 11 00 A2 FE 00 00
(00017.497322) can0 204 [6] 0E 00 B4 FE 00 00
(00017.507125) can0 204 [6] 0C 00 DE FE 00 00
(00017.517334) can0 204 [6] 09 00 04 FF 00 00
(00017.526658) can0 204 [6] 07 00 1E FF 00 00
(00017.538755) can0 204 [6] 06 00 36 FF 00 00
(00017.546674) can0 204 [6] 04 00 4A FF 00 00
(00017.557800) can0 204 [6] 03 00 58 FF 00 00
(00017.566684) can0 204 [6] 02 00 64 FF 00 00
(00017.577357) can0 204 [6] 01 00 6C FF 00 00
(00017.587472) can0 204 [6] 01 00 74 FF 00 00
(00017.597333) can0 204 [6] 00 00 79 FF 00 00
(00017.607118) can0 204 [6] 00 00 7D FF 00 00
(00017.617341) can0 204 [6] 00 00 82 FF 00 00
(00017.626661) can0 204 [6] 00 00 84 FF 00 00
(00017.637563) can0 204 [6] 00 00 86 FF 00 00
(00017.646658) can0 204 [6] 00 00 88 FF 00 00
(00017.657816) can0 204 [6] 00 00 89 FF 00 00
(00017.666653) can0 204 [6] 00 00 8A FF 00 00
(00017.677371) can0 204 [6] 00 00 8C FF 00 00
(00017.686672) can0 204 [6] 00 00 8C FF 00 00
(00017.697344) can0 204 [6] 00 00 8D FF 00 00
(00017.707125) can0 204 [6] 00 00 8D FF 00 00
(00017.717347) can0 204 [6] 00 00 8E FF 00 00
(00017.726669) can0 204 [6] 00 00 8E FF 00 00
(00017.737347) can0 204 [6] 00 00 8E FF 00 00
(00017.746665) can0 204 [6] 00 00 8E FF 00 00
(00017.757808) can0 204 [6] 00 00 8E FF 00 00
(00017.766646) can0 204 [6] 00 00 8E FF 00 00
(00017.777378) can0 204 [6] 00 00 8E FF 00 00
(00017.786645) can0 204 [6] 00 00 8E FF 00 00
(00017.797359) can0 204 [6] 00 00 8E FF 00 00
(00017.807117) can0 204 [6] 00 00 8E FF 00 00
(00017.817347) can0 204 [6] 00 00 8E FF 00 00
(00017.826668) can0 204 [6] 00 00 8E FF 00 00
(00017.837344) can0 204 [6] 00 00 8E FF 00 00
(00017.846654) can0 204 [6] 00 00 8E FF 00 00
(00017.857819) can0 204 [6] 00 00 8E FF 00 00
(00017.866654) can0 204 [6] 00 00 8E FF 00 00
(00017.877349) can0 204 [6] 00 00 8E FF 00 00
(00017.886659) can0 204 [6] 00 00 8E FF 00 00
(00017.897361) can0 204 [6] 00 00 8E FF 00 00
(00017.907114) can0 204 [6] 00 00 8E FF 00 00
(00017.917359) can0 204 [6] 00 00 8E FF 00 00
(00017.926666) can0 204 [6] 00 00 8E FF 00 00
(00017.937337) can0 204 [6] 00 00 8E FF 00 00
(00017.946679) can0 204 [6] 00 00 8E FF 00 00
(00017.957810) can0 204 [6] 00 00 8E FF 00 00
(00017.966654) can0 204 [6] 00 00 8E FF 00 00
(00017.977371) can0 204 [6] 00 00 8E FF 00 00
(00017.986657) can0 204 [6] 00 00 8E FF 00 00
(00017.997363) can0 204 [6] 00 00 8E FF 00 00
(00018.007112) can0 204 [6] 00 00 8E FF 00 00
(00018.018977) can0 204 [6] 00 00 8E FF 00 00
(00018.026699) can0 204 [6] 00 00 8E FF 00 00
(00018.038971) can0 204 [6] 00 00 8E FF 00 00
(00018.046659) can0 204 [6] 00 00 8E FF 00 00
(00018.059499) can0 204 [6] 00 00 8E FF 00 00
(00018.068372) can0 204 [6] 00 00 8E FF 00 00
(00018.081502) can0 204 [6] 00 00 8E FF 00 00
(00018.088276) can0 204 [6] 00 00 8E FF 00 00
(00018.098990) can0 204 [6] 00 00 8E FF 00 00
(00018.108763) can0 204 [6] 00 00 8E FF 00 00
(00018.118876) can0 204 [6] 00 00 8E FF 00 00
(00018.130574) can0 204 [6] 00 00 8E FF 00 00
(00018.138630) can0 204 [6] 00 00 8E FF 00 00
(00018.147876) can0 204 [6] 00 00 8E FF 00 00
(00018.158841) can0 204 [6] 00 00 8E FF 00 00
(00018.167558) can0 204 [6] 00 00 8E FF 00 00
(00018.180636) can0 204 [6] 00 00 8E FF 00 00
(00018.187306) can0 204 [6] 00 00 8E FF 00 00
(00018.197873) can0 204 [6] 00 00 8E FF 00 00
(00018.207521) can0 204 [6] 00 00 8E FF 00 00
(00018.217633) can0 204 [6] 00 00 8E FF 00 00
(00018.229322) can0 204 [6] 00 00 8E FF 00 00
(00018.237435) can0 204 [6] 00 00 8E FF 00 00
(00018.246651) can0 204 [6] 00 00 8E FF 00 00
(00018.257812) can0 204 [6] 00 00 8E FF 00 00
(00018.266652) can0 204 [6] 00 00 8E FF 00 00
(00018.279461) can0 204 [6] 00 00 8E FF 00 00
(00018.286644) can0 204 [6] 00 00 8E FF 00 00
(00018.297352) can0 204 [6] 00 00 8E FF 00 00
(00018.307113) can0 204 [6] 00 00 8E FF 00 00
(00018.317335) can0 204 [6] 00 00 8E FF 00 00
(00018.328089) can0 204 [6] 00 00 8E FF 00 00
(00018.337346) can0 204 [6] 00 00 8E FF 00 00
(00018.346650) can0 204 [6] 00 00 8E FF 00 00
(00018.357816) can0 204 [6] 00 00 8E FF 00 00
(00018.366665) can0 204 [6] 00 00 8E FF 00 00
(00018.378204) can0 204 [6] 00 00 8E FF 00 00
(00018.386644) can0 204 [6] 00 00 8E FF 00 00
(00018.397344) can0 204 [6] 00 00 8E FF 00 00
(00018.407100) can0 204 [6] 00 00 8E FF 00 00
(00018.417356) can0 204 [6] 00 00 8E FF 00 00
(00018.426902) can0 204 [6] 00 00 8E FF 00 00
(00018.437343) can0 204 [6] 00 00 8E FF 00 00
(00018.446677) can0 204 [6] 00 00 8E FF 00 00
(00018.457813) can0 204 [6] 00 00 8E FF 00 00
(00018.466676) can0 204 [6] 00 00 8E FF 00 00
(00018.477366) can0 204 [6] 00 00 8E FF 00 00
(00018.486669) can0 204 [6] 00 00 8E FF 00 00
(00018.497349) can0 204 [6] 00 00 8E FF 00 00
(00018.507104) can0 204 [6] 00 00 8E FF 00 00
(00018.517358) can0 204 [6] 00 00 8E FF 00 00
(00018.526663) can0 204 [6] 00 00 8E FF 00 00
(00018.537347) can0 204 [6] 00 00 8E FF 00 00
(00018.546667) can0 204 [6] 00 00 8E FF 00 00
(00018.557811) can0 204 [6] 00 00 8E FF 00 00
(00018.566647) can0 204 [6] 00 00 8E FF 00 00
(00018.577351) can0 204 [6] 00 00 8E FF 00 00
(00018.586659) can0 204 [6] 00 00 8E FF 00 00
(00018.597353) can0 204 [6] 00 00 8E FF 00 00
(00018.607113) can0 204 [6] 00 00 8E FF 00 00
(00018.617349) can0 204 [6] 00 00 8E FF 00 00
(00018.626677) can0 204 [6] 00 00 8E FF 00 00
(00018.637356) can0 204 [6] 00 00 8E FF 00 00
(00018.646675) can0 204 [6] 00 00 8E FF 00 00
(00018.657809) can0 204 [6] 00 00 8E FF 00 00
(00018.666662) can0 204 [6] 00 00 8E FF 00 00
(00018.677347) can0 204 [6] 00 00 8E FF 00 00
(00018.686652) can0 204 [6] 00 00 8E FF 00 00
(00018.697364) can0 204 [6] 00 00 8E FF 00 00
(00018.707119) can0 204 [6] 00 00 8E FF 00 00
(00018.717344) can0 204 [6] 00 00 8E FF 00 00
(00018.726644) can0 204 [6] 00 00 8E FF 00 00
(00018.737333) can0 204 [6] 00 00 8E FF 00 00
(00018.746658) can0 204 [6] 00 00 8E FF 00 00
(00018.757875) can0 204 [6] 00 00 8E FF 00 00
(00018.766643) can0 204 [6] 00 00 8E FF 00 00
(00018.777356) can0 204 [6] 00 00 8E FF 00 00
(00018.786655) can0 204 [6] 00 00 8E FF 00 00
(00018.797369) can0 204 [6] 00 00 8E FF 00 00
(00018.807118) can0 204 [6] 00 00 8E FF 00 00
(00018.821526) can0 204 [6] 00 00 8E FF 00 00
(00018.826660) can0 204 [6] 00 00 8E FF 00 00
(00018.838967) can0 204 [6] 00 00 8E FF 00 00
(00018.846663) can0 204 [6] 00 00 8E FF 00 00
(00018.859427) can0 204 [6] 00 00 8E FF 00 00
(00018.866641) can0 204 [6] 00 00 8E FF 00 00
(00018.878984) can0 204 [6] 00 00 8E FF 00 00
(00018.888260) can0 204 [6] 00 00 8E FF 00 00
(00018.898997) can0 204 [6] 00 00 8E FF 00 00
(00018.908744) can0 204 [6] 00 00 8E FF 00 00
(00018.921500) can0 204 [6] 00 00 8E FF 00 00
(00018.928272) can0 204 [6] 00 00 8E FF 00 00
(00018.938899) can0 204 [6] 00 00 8E FF 00 00
(00018.948086) can0 204 [6] 00 00 8E FF 00 00
(00018.959132) can0 204 [6] 00 00 8E FF 00 00
(00018.970656) can0 204 [6] 00 00 8E FF 00 00
(00018.978438) can0 204 [6] 00 00 8E FF 00 00
(00018.987626) can0 204 [6] 00 00 8E FF 00 00
(00018.998160) can0 204 [6] E1 FF 5E 01 00 00
(00019.007870) can0 204 [6] CB FF 5E 01 00 00
(00019.020462) can0 204 [6] C7 FF 5E 01 00 00
(00019.027152) can0 204 [6] C5 FF 5E 01 00 00
(00019.037763) can0 204 [6] C9 FF 5E 01 00 00
(00019.046914) can0 204 [6] CC FF 5E 01 00 00
(00019.057947) can0 204 [6] D3 FF 5E 01 00 00
(00019.069190) can0 204 [6] DB FF 5E 01 00 00
(00019.077321) can0 204 [6] E3 FF 5E 01 00 00
(00019.086634) can0 204 [6] E8 FF 5E 01 00 00
(00019.097308) can0 204 [6] ED FF 24 01 00 00
(00019.107099) can0 204 [6] F0 FF EE 00 00 00
(00019.119240) can0 204 [6] F3 FF BC 00 00 00
(00019.126640) can0 204 [6] F5 FF 99 00 00 00
(00019.137305) can0 204 [6] F8 FF 78 00 00 00
(00019.146664) can0 204 [6] F9 FF 5C 00 00 00
(00019.157786) can0 204 [6] FB FF 48 00 00 00
(00019.168019) can0 204 [6] FC FF 37 00 00 00
(00019.177362) can0 204 [6] FE FF 2B 00 00 00
(00019.186665) can0 204 [6] FF FF 20 00 00 00
(00019.197347) can0 204 [6] FF FF 17 00 00 00
(00019.207138) can0 204 [6] 00 00 11 00 00 00
(00019.218073) can0 204 [6] 00 00 0C 00 00 00
(00019.226681) can0 204 [6] 00 00 07 00 00 00
(00019.237366) can0 204 [6] 00 00 04 00 00 00
(00019.246665) can0 204 [6] 00 00 01 00 00 00
(00019.257830) can0 204 [6] 00 00 00 00 00 00
(00019.266784) can0 204 [6] 00 00 00 00 00 00
(00019.277399) can0 204 [6] 00 00 FF FF 00 00
(00019.286659) can0 204 [6] 00 00 FE FF 00 00
(00019.297363) can0 204 [6] 00 00 FD FF 00 00
(00019.307113) can0 204 [6] 00 00 FC FF 00 00
(00019.317350) can0 204 [6] 00 00 FB FF 00 00
(00019.326679) can0 204 [6] 00 00 FB FF 00 00
(00019.337358) can0 204 [6] 00 00 FB FF 00 00
(00019.346663) can0 204 [6] 00 00 FB FF 00 00
(00019.357816) can0 204 [6] 00 00 FA FF 00 00
(00019.366654) can0 204 [6] 00 00 FA FF 00 00
(00019.377368) can0 204 [6] 00 00 FA FF 00 00
(00019.386654) can0 204 [6] 00 00 FA FF 00 00
(00019.397367) can0 204 [6] 00 00 FA FF 00 00
(00019.407121) can0 204 [6] 00 00 FA FF 00 00
(00019.417348) can0 204 [6] 00 00 FA FF 00 00
(00019.426674) can0 204 [6] 00 00 FA FF 00 00
(00019.437353) can0 204 [6] 00 00 FA FF 00 00
(00019.446681) can0 204 [6] 00 00 FA FF 00 00
(00019.457817) can0 204 [6] 00 00 FA FF 00 00
(00019.466652) can0 204 [6] 00 00 FA FF 00 00
(00019.477383) can0 204 [6] 00 00 FA FF 00 00
(00019.486666) can0 204 [6] 00 00 FA FF 00 00
(00019.497361) can0 204 [6] 00 00 FA FF 00 00
(00019.507116) can0 204 [6] 00 00 FA FF 00 00
(00019.517351) can0 204 [6] 00 00 FA FF 00 00
(00019.526679) can0 204 [6] 00 00 FA FF 00 00
(00019.537349) can0 204 [6] 00 00 FA FF 00 00
(00019.546680) can0 204 [6] 00 00 FA FF 00 00
(00019.557818) can0 204 [6] 00 00 FA FF 00 00
(00019.566656) can0 204 [6] 00 00 FA FF 00 00
(00019.577365) can0 204 [6] 00 00 FA FF 00 00
(00019.586647) can0 204 [6] 00 00 FA FF 00 00
(00019.597379) can0 204 [6] 00 00 FA FF 00 00
(00019.607117) can0 204 [6] 00 00 FA FF 00 00
(00019.617345) can0 204 [6] 00 00 FA FF 00 00
(00019.626704) can0 204 [6] 00 00 FA FF 00 00
(00019.638959) can0 204 [6] 00 00 FA FF 00 00
(00019.646687) can0 204 [6] 00 00 FA FF 00 00
(00019.662011) can0 204 [6] 00 00 FA FF 00 00
(00019.666659) can0 204 [6] 00 00 FA FF 00 00
(00019.678989) can0 204 [6] 00 00 FA FF 00 00
(00019.688302) can0 204 [6] 00 00 FA FF 00 00
(00019.699010) can0 204 [6] 00 00 FA FF 00 00
(00019.711277) can0 204 [6] 00 00 FA FF 00 00
(00019.718997) can0 204 [6] 00 00 FA FF 00 00
(00019.728302) can0 204 [6] 00 00 FA FF 00 00
(00019.738964) can0 204 [6] 00 00 FA FF 00 00
(00019.748150) can0 204 [6] 00 00 FA FF 00 00
(00019.761702) can0 204 [6] 00 00 FA FF 00 00
(00019.767905) can0 204 [6] 00 00 FA FF 00 00
(00019.778475) can0 204 [6] 00 00 FA FF 00 00
(00019.787658) can0 204 [6] 00 00 FA FF 00 00
(00019.798237) can0 204 [6] 00 00 FA FF 00 00
(00019.810395) can0 204 [6] 00 00 FA FF 00 00
(00019.817983) can0 204 [6] 00 00 FA FF 00 00
(00019.827184) can0 204 [6] 00 00 FA FF 00 00
(00019.837739) can0 204 [6] 00 00 FA FF 00 00
(00019.846935) can0 204 [6] 00 00 FA FF 00 00
(00019.860501) can0 204 [6] 00 00 FA FF 00 00
(00019.866703) can0 204 [6] 00 00 FA FF 00 00
(00019.877350) can0 204 [6] 00 00 FA FF 00 00
(00019.886656) can0 204 [6] 00 00 FA FF 00 00
(00019.897348) can0 204 [6] 00 00 FA FF 00 00
(00019.909260) can0 204 [6] 00 00 FA FF 00 00
(00019.917356) can0 204 [6] 00 00 FA FF 00 00
(00019.926659) can0 204 [6] 00 00 FA FF 00 00
(00019.937352) can0 204 [6] 00 00 FA FF 00 00
(00019.946654) can0 204 [6] 00 00 FA FF 00 00
(00019.959272) can0 204 [6] 00 00 FA FF 00 00
(00019.966653) can0 204 [6] 00 00 FA FF 00 00
(00019.977359) can0 204 [6] 00 00 FA FF 00 00
(00019.986651) can0 204 [6] 00 00 FA FF 00 00
(00019.997360) can0 204 [6] 00 00 FA FF 00 00
(00020.007979) can0 204 [6] 00 00 FA FF 00 00
(00020.017320) can0 204 [6] 1F 00 A2 FE 00 00
(00020.026640) can0 204 [6] 35 00 A2 FE 00 00
(00020.037304) can0 204 [6] 3A 00 A2 FE 00 00
(00020.046651) can0 204 [6] 36 00 A2 FE 00 00
(00020.058007) can0 204 [6] 33 00 A2 FE 00 00
(00020.066630) can0 204 [6] 2D 00 A2 FE 00 00
(00020.077316) can0 204 [6] 28 00 A2 FE 00 00
(00020.086630) can0 204 [6] 21 00 A2 FE 00 00
(00020.097323) can0 204 [6] 1D 00 A2 FE 00 00
(00020.107094) can0 204 [6] 17 00 A2 FE 00 00
(00020.117292) can0 204 [6] 13 00 A2 FE 00 00
(00020.126683) can0 204 [6] 0F 00 AA FE 00 00
(00020.137325) can0 204 [6] 0C 00 D7 FE 00 00
(00020.146689) can0 204 [6] 09 00 FF FE 00 00
(00020.157792) can0 204 [6] 07 00 1A FF 00 00
(00020.166647) can0 204 [6] 06 00 33 FF 00 00
(00020.177358) can0 204 [6] 05 00 45 FF 00 00
(00020.186638) can0 204 [6] 03 00 54 FF 00 00
(00020.197341) can0 204 [6] 02 00 61 FF 00 00
(00020.207100) can0 204 [6] 01 00 6A FF 00 00
(00020.217328) can0 204 [6] 01 00 72 FF 00 00
(00020.226686) can0 204 [6] 00 00 78 FF 00 00
(00020.237331) can0 204 [6] 00 00 7D FF 00 00
(00020.246685) can0 204 [6] 00 00 81 FF 00 00
(00020.257787) can0 204 [6] 00 00 84 FF 00 00
(00020.266657) can0 204 [6] 00 00 86 FF 00 00
(00020.277350) can0 204 [6] 00 00 88 FF 00 00
(00020.286666) can0 204 [6] 00 00 89 FF 00 00
(00020.297355) can0 204 [6] 00 00 8A FF 00 00
(00020.307098) can0 204 [6] 00 00 8C FF 00 00
(00020.317347) can0 204 [6] 00 00 8C FF 00 00
(00020.326665) can0 204 [6] 00 00 8D FF 00 00
(00020.337355) can0 204 [6] 00 00 8D FF 00 00
(00020.346660) can0 204 [6] 00 00 8E FF 00 00
(00020.357810) can0 204 [6] 00 00 8E FF 00 00
(00020.366655) can0 204 [6] 00 00 8E FF 00 00
(00020.377362) can0 204 [6] 00 00 8E FF 00 00
(00020.386662) can0 204 [6] 00 00 8E FF 00 00
(00020.397341) can0 204 [6] 00 00 8E FF 00 00
(00020.407105) can0 204 [6] 00 00 8E FF 00 00
(00020.417342) can0 204 [6] 00 00 8E FF 00 00
(00020.426698) can0 204 [6] 00 00 8E FF 00 00
(00020.439247) can0 204 [6] 00 00 8E FF 00 00
(00020.446674) can0 204 [6] 00 00 8E FF 00 00
(00020.459428) can0 204 [6] 00 00 8E FF 00 00
(00020.466675) can0 204 [6] 00 00 8E FF 00 00
(00020.478982) can0 204 [6] 00 00 8E FF 00 00
(00020.488310) can0 204 [6] 00 00 8E FF 00 00
(00020.501517) can0 204 [6] 00 00 8E FF 00 00
(00020.508747) can0 204 [6] 00 00 8E FF 00 00
(00020.518955) can0 204 [6] 00 00 8E FF 00 00
(00020.528311) can0 204 [6] 00 00 8E FF 00 00
(00020.538955) can0 204 [6] 00 00 8E FF 00 00
(00020.550683) can0 204 [6] 00 00 8E FF 00 00
(00020.559212) can0 204 [6] 00 00 8E FF 00 00
(00020.567937) can0 204 [6] 00 00 8E FF 00 00
(00020.578490) can0 204 [6] 00 00 8E FF 00 00
(00020.587676) can0 204 [6] 00 00 8E FF 00 00
(00020.600781) can0 204 [6] 00 00 8E FF 00 00
(00020.607910) can0 204 [6] 00 00 8E FF 00 00
(00020.618023) can0 204 [6] 00 00 8E FF 00 00
(00020.627209) can0 204 [6] 00 00 8E FF 00 00
(00020.637770) can0 204 [6] 00 00 8E FF 00 00
(00020.649454) can0 204 [6] 00 00 8E FF 00 00
(00020.657992) can0 204 [6] 00 00 8E FF 00 00
(00020.666705) can0 204 [6] 00 00 8E FF 00 00
(00020.677347) can0 204 [6] 00 00 8E FF 00 00
(00020.686653) can0 204 [6] 00 00 8E FF 00 00
(00020.699557) can0 204 [6] 00 00 8E FF 00 00
(00020.707105) can0 204 [6] 00 00 8E FF 00 00
(00020.717337) can0 204 [6] 00 00 8E FF 00 00
(00020.726666) can0 204 [6] 00 00 8E FF 00 00
(00020.737344) can0 204 [6] 00 00 8E FF 00 00
(00020.748231) can0 204 [6] 00 00 8E FF 00 00
(00020.757801) can0 204 [6] 00 00 8E FF 00 00
(00020.766640) can0 204 [6] 00 00 8E FF 00 00
(00020.777344) can0 204 [6] 00 00 8E FF 00 00
(00020.786631) can0 204 [6] 00 00 8E FF 00 00
(00020.798325) can0 204 [6] 00 00 8E FF 00 00
(00020.807109) can0 204 [6] 00 00 8E FF 00 00
(00020.817359) can0 204 [6] 00 00 8E FF 00 00
(00020.826648) can0 204 [6] 00 00 8E FF 00 00
(00020.837332) can0 204 [6] 00 00 8E FF 00 00
(00020.847026) can0 204 [6] 00 00 8E FF 00 00
(00020.857798) can0 204 [6] 00 00 8E FF 00 00
(00020.866644) can0 204 [6] 00 00 8E FF 00 00
(00020.877356) can0 204 [6] 00 00 8E FF 00 00
(00020.886645) can0 204 [6] 00 00 8E FF 00 00
(00020.897341) can0 204 [6] 00 00 8E FF 00 00
(00020.907115) can0 204 [6] 00 00 8E FF 00 00
(00020.917356) can0 204 [6] 00 00 8E FF 00 00
(00020.926666) can0 204 [6] 00 00 8E FF 00 00
(00020.937355) can0 204 [6] 00 00 8E FF 00 00
(00020.946649) can0 204 [6] 00 00 8E FF 00 00
(00020.957810) can0 204 [6] 00 00 8E FF 00 00
(00020.966650) can0 204 [6] 00 00 8E FF 00 00
(00020.977369) can0 204 [6] 00 00 8E FF 00 00
(00020.986662) can0 204 [6] 00 00 8E FF 00 00
(00020.997352) can0 204 [6] 00 00 8E FF 00 00
(00021.007108) can0 204 [6] 00 00 8E FF 00 00
(00021.017339) can0 204 [6] 00 00 8E FF 00 00
(00021.026658) can0 204 [6] 00 00 8E FF 00 00
(00021.037346) can0 204 [6] 00 00 8E FF 00 00
(00021.046646) can0 204 [6] 00 00 8E FF 00 00
(00021.057804) can0 204 [6] 00 00 8E FF 00 00
(00021.066667) can0 204 [6] 00 00 8E FF 00 00
(00021.077354) can0 204 [6] 00 00 8E FF 00 00
(00021.086656) can0 204 [6] 00 00 8E FF 00 00
(00021.097345) can0 204 [6] 00 00 8E FF 00 00
(00021.107109) can0 204 [6] 00 00 8E FF 00 00
(00021.117355) can0 204 [6] 00 00 8E FF 00 00
(00021.126664) can0 204 [6] 00 00 8E FF 00 00
(00021.137349) can0 204 [6] 00 00 8E FF 00 00
(00021.146657) can0 204 [6] 00 00 8E FF 00 00
(00021.157816) can0 204 [6] 00 00 8E FF 00 00
(00021.166677) can0 204 [6] 00 00 8E FF 00 00
(00021.177354) can0 204 [6] 00 00 8E FF 00 00
(00021.186657) can0 204 [6] 00 00 8E FF 00 00
(00021.197366) can0 204 [6] 00 00 8E FF 00 00
(00021.207113) can0 204 [6] 00 00 8E FF 00 00
(00021.217359) can0 204 [6] 00 00 8E FF 00 00
(00021.226659) can0 204 [6] 00 00 8E FF 00 00
(00021.241505) can0 204 [6] 00 00 8E FF 00 00
(00021.246656) can0 204 [6] 00 00 8E FF 00 00
(00021.259446) can0 204 [6] 00 00 8E FF 00 00
(00021.266667) can0 204 [6] 00 00 8E FF 00 00
(00021.278994) can0 204 [6] 00 00 8E FF 00 00
(00021.286647) can0 204 [6] 00 00 8E FF 00 00
(00021.298985) can0 204 [6] 00 00 8E FF 00 00
(00021.308735) can0 204 [6] 00 00 8E FF 00 00
(00021.318994) can0 204 [6] 00 00 8E FF 00 00
(00021.328280) can0 204 [6] 00 00 8E FF 00 00
(00021.341520) can0 204 [6] 00 00 8E FF 00 00
(00021.348282) can0 204 [6] 00 00 8E FF 00 00
(00021.359333) can0 204 [6] 00 00 8E FF 00 00
(00021.368048) can0 204 [6] 00 00 8E FF 00 00
(00021.378630) can0 204 [6] 00 00 8E FF 00 00
(00021.390343) can0 204 [6] 00 00 8E FF 00 00
(00021.398420) can0 204 [6] 00 00 8E FF 00 00
(00021.408048) can0 204 [6] 00 00 8E FF 00 00
(00021.418150) can0 204 [6] 00 00 8E FF 00 00
(00021.427324) can0 204 [6] 00 00 8E FF 00 00
(00021.440480) can0 204 [6] 00 00 8E FF 00 00
(00021.447091) can0 204 [6] 00 00 8E FF 00 00
(00021.458134) can0 204 [6] 00 00 8E FF 00 00
(00021.466850) can0 204 [6] 00 00 8E FF 00 00
(00021.477418) can0 204 [6] 00 00 8E FF 00 00
(00021.489129) can0 204 [6] 00 00 8E FF 00 00
(00021.497343) can0 204 [6] 00 00 8E FF 00 00
(00021.507108) can0 204 [6] 00 00 8E FF 00 00
(00021.517344) can0 204 [6] 00 00 8E FF 00 00
(00021.526653) can0 204 [6] 00 00 8E FF 00 00
(00021.539203) can0 204 [6] 00 00 8E FF 00 00
(00021.546654) can0 204 [6] 00 00 8E FF 00 00
(00021.557801) can0 204 [6] 00 00 8E FF 00 00
(00021.566664) can0 204 [6] 00 00 8E FF 00 00
(00021.577340) can0 204 [6] 00 00 8E FF 00 00
(00021.588107) can0 204 [6] 00 00 8E FF 00 00
(00021.597443) can0 204 [6] 00 00 8E FF 00 00
(00021.607107) can0 204 [6] 00 00 8E FF 00 00
(00021.617348) can0 204 [6] 00 00 8E FF 00 00
(00021.626661) can0 204 [6] 00 00 8E FF 00 00
(00021.637978) can0 204 [6] 00 00 8E FF 00 00
(00021.646653) can0 204 [6] 00 00 8E FF 00 00
(00021.657750) can0 204 [6] E1 FF 5E 01 00 00
(00021.666654) can0 204 [6] D6 FF 5E 01 00 00
(00021.677305) can0 204 [6] CE FF 5E 01 00 00
(00021.686644) can0 204 [6] D0 FF 5E 01 00 00
(00021.697306) can0 204 [6] D5 FF 5E 01 00 00
(00021.707105) can0 204 [6] D9 FF 5E 01 00 00
(00021.717335) can0 204 [6] E0 FF 5E 01 00 00
(00021.726654) can0 204 [6] E4 FF 5E 01 00 00
(00021.737293) can0 204 [6] E9 FF 5E 01 00 00
(00021.746653) can0 204 [6] ED FF 19 01 00 00
(00021.757774) can0 204 [6] F0 FF E7 00 00 00
(00021.766653) can0 204 [6] F3 FF B7 00 00 00
(00021.777335) can0 204 [6] F6 FF 95 00 00 00
