 (000.000000)  can0  102   [6]  60 06 0D 06 2C 06
 (000.000535)  can0  103   [2]  00 02
 (000.001382)  can0  104   [6]  00 00 00 00 00 00
 (000.001831)  can0  1FF   [1]  23
 (000.008387)  can0  100   [6]  41 00 BD 01 00 00
 (000.009191)  can0  102   [6]  60 06 0D 06 2C 06
 (000.018266)  can0  100   [6]  40 00 BC 01 00 00
 (000.019070)  can0  102   [6]  60 06 0D 06 2C 06
 (000.028145)  can0  100   [6]  40 00 BC 01 00 00
 (000.028950)  can0  102   [6]  60 06 0D 06 2C 06
 (000.038017)  can0  100   [6]  3F 00 BB 01 00 00
 (000.038820)  can0  102   [6]  60 06 0D 06 2C 06
 (000.047905)  can0  100   [6]  40 00 BB 01 00 00
 (000.048582)  can0  101   [4]  FD FF FD FF
 (000.049389)  can0  102   [6]  60 06 0D 06 2C 06
 (000.049925)  can0  103   [2]  00 02
 (000.050773)  can0  104   [6]  00 00 00 00 00 00
 (000.051224)  can0  1FF   [1]  24
 (000.055799)  can0  200   [4]  00 00 00 00
 (000.056491)  can0  201   [4]  00 00 00 00
 (000.056955)  can0  202   [1]  00
 (000.057786)  can0  100   [6]  40 00 BB 01 00 00
 (000.058589)  can0  102   [6]  60 06 0D 06 2C 06
 (000.059438)  can0  204   [6]  00 00 00 00 00 00
 (000.059910)  can0  2FF   [1]  00
 (000.065824)  can0  200   [4]  00 00 00 00
 (000.066679)  can0  204   [6]  00 00 00 00 00 00
 (000.067660)  can0  100   [6]  40 00 BC 01 00 00
 (000.068464)  can0  102   [6]  60 06 0D 06 2C 06
 (000.075837)  can0  200   [4]  00 00 00 00
 (000.076529)  can0  201   [4]  00 00 00 00
 (000.077493)  can0  204   [6]  00 00 00 00 00 00
 (000.078214)  can0  100   [6]  40 00 BC 01 00 00
 (000.079019)  can0  102   [6]  60 06 0D 06 2C 06
 (000.085815)  can0  200   [4]  00 00 00 00
 (000.086665)  can0  204   [6]  00 00 00 00 00 00
 (000.087496)  can0  100   [6]  40 00 BC 01 00 00
 (000.088300)  can0  102   [6]  60 06 0D 06 2C 06
 (000.095812)  can0  200   [4]  00 00 00 00
 (000.096502)  can0  201   [4]  00 00 00 00
 (000.097334)  can0  100   [6]  40 00 BB 01 00 00
 (000.098001)  can0  101   [4]  FC FF F9 FF
 (000.098812)  can0  102   [6]  60 06 0D 06 2C 06
 (000.099360)  can0  103   [2]  00 04
 (000.100209)  can0  104   [6]  00 00 00 00 00 00
 (000.100662)  can0  1FF   [1]  25
 (000.101515)  can0  204   [6]  00 00 00 00 00 00
 (000.105836)  can0  200   [4]  FF FF 00 00
 (000.106298)  can0  202   [1]  01
 (000.107153)  can0  204   [6]  00 00 00 00 00 00
 (000.107975)  can0  100   [6]  3F 00 BB 01 00 00
 (000.108784)  can0  102   [6]  60 06 0D 06 2C 06
 (000.109236)  can0  2FF   [1]  01
 (000.115822)  can0  200   [4]  FF FF 00 00
 (000.116517)  can0  201   [4]  00 00 00 00
 (000.117344)  can0  100   [6]  40 00 BA 01 00 00
 (000.118148)  can0  102   [6]  60 06 0D 06 2C 06
 (000.118996)  can0  204   [6]  00 00 00 00 00 00
 (000.125823)  can0  200   [4]  FF FF 00 00
 (000.126675)  can0  204   [6]  00 00 00 00 00 00
 (000.127505)  can0  100   [6]  3F 00 BA 01 00 00
 (000.128304)  can0  102   [6]  60 06 0D 06 2C 06
 (000.135817)  can0  200   [4]  FF FF 00 00
 (000.136508)  can0  201   [4]  00 00 00 00
 (000.137339)  can0  100   [6]  3E 00 BA 01 00 00
 (000.138143)  can0  102   [6]  60 06 0D 06 2C 06
 (000.138994)  can0  204   [6]  00 00 00 00 00 00
 (000.145837)  can0  200   [4]  FF FF 00 00
 (000.146684)  can0  204   [6]  00 00 00 00 00 00
 (000.147511)  can0  100   [6]  3F 00 BB 01 00 00
 (000.148165)  can0  101   [4]  03 00 FC FF
 (000.148974)  can0  102   [6]  60 06 0D 06 2C 06
 (000.149522)  can0  103   [2]  00 04
 (000.150368)  can0  104   [6]  00 00 00 00 00 00
 (000.150817)  can0  1FF   [1]  26
 (000.155807)  can0  200   [4]  FF FF 00 00
 (000.156628)  can0  100   [6]  3F 00 BC 01 00 00
 (000.157431)  can0  102   [6]  60 06 0D 06 2C 06
 (000.158124)  can0  201   [4]  00 00 00 00
 (000.158584)  can0  202   [1]  01
 (000.159440)  can0  204   [6]  00 00 00 00 00 00
 (000.159912)  can0  2FF   [1]  02
 (000.165818)  can0  200   [4]  FF FF 00 00
 (000.166652)  can0  100   [6]  40 00 BC 01 00 00
 (000.167451)  can0  102   [6]  60 06 0D 06 2C 06
 (000.168299)  can0  204   [6]  00 00 00 00 00 00
 (000.175823)  can0  200   [4]  FF FF 00 00
 (000.176661)  can0  100   [6]  40 00 BC 01 00 00
 (000.177457)  can0  102   [6]  60 06 0D 06 2C 06
 (000.178146)  can0  201   [4]  00 00 00 00
 (000.179001)  can0  204   [6]  00 00 00 00 00 00
 (000.185819)  can0  200   [4]  FF FF 00 00
 (000.186645)  can0  100   [6]  3F 00 BD 01 00 00
 (000.187448)  can0  102   [6]  60 06 0D 06 2C 06
 (000.188298)  can0  204   [6]  00 00 00 00 00 00
 (000.195822)  can0  200   [4]  FF FF 00 00
 (000.196655)  can0  100   [6]  40 00 BC 01 00 00
 (000.197321)  can0  101   [4]  0D 00 01 00
 (000.198126)  can0  102   [6]  60 06 0D 06 2C 06
 (000.198669)  can0  103   [2]  00 04
 (000.199515)  can0  104   [6]  00 00 00 00 00 00
 (000.199967)  can0  1FF   [1]  27
 (000.200658)  can0  201   [4]  00 00 00 00
 (000.201513)  can0  204   [6]  00 00 00 00 00 00
 (000.205809)  can0  200   [4]  FF FF 00 00
 (000.206642)  can0  100   [6]  40 00 BC 01 00 00
 (000.207449)  can0  102   [6]  60 06 0D 06 2C 06
 (000.207899)  can0  202   [1]  01
 (000.208757)  can0  204   [6]  00 00 00 00 00 00
 (000.209226)  can0  2FF   [1]  03
 (000.215823)  can0  100   [6]  40 00 BC 01 00 00
 (000.216632)  can0  102   [6]  60 06 0D 06 2C 06
 (000.217321)  can0  200   [4]  FF FF 00 00
 (000.218075)  can0  201   [4]  00 00 00 00
 (000.218886)  can0  204   [6]  00 00 00 00 00 00
 (000.225708)  can0  100   [6]  40 00 BC 01 00 00
 (000.226506)  can0  102   [6]  60 06 0D 06 2C 06
 (000.227204)  can0  200   [4]  FF FF 00 00
 (000.228057)  can0  204   [6]  00 00 00 00 00 00
 (000.235584)  can0  100   [6]  40 00 BC 01 00 00
 (000.236386)  can0  102   [6]  60 06 0D 06 2C 06
 (000.237082)  can0  200   [4]  FF FF 00 00
 (000.237775)  can0  201   [4]  00 00 00 00
 (000.238632)  can0  204   [6]  00 00 00 00 00 00
 (000.245460)  can0  100   [6]  40 00 BD 01 00 00
 (000.246117)  can0  101   [4]  F3 FF 02 00
 (000.246921)  can0  102   [6]  60 06 0D 06 2C 06
 (000.247466)  can0  103   [2]  00 04
 (000.248312)  can0  104   [6]  00 00 00 00 00 00
 (000.248762)  can0  1FF   [1]  28
 (000.249465)  can0  200   [4]  FF FF 00 00
 (000.250319)  can0  204   [6]  00 00 00 00 00 00
 (000.255330)  can0  100   [6]  41 00 BD 01 00 00
 (000.256132)  can0  102   [6]  60 06 0D 06 2C 06
 (000.256835)  can0  200   [4]  FF FF 00 00
 (000.257526)  can0  201   [4]  00 00 00 00
 (000.257989)  can0  202   [1]  01
 (000.258847)  can0  204   [6]  00 00 00 00 00 00
 (000.259312)  can0  2FF   [1]  04
 (000.265226)  can0  100   [6]  40 00 BE 01 00 00
 (000.266026)  can0  102   [6]  60 06 0D 06 2C 06
 (000.266724)  can0  200   [4]  FF FF 00 00
 (000.267589)  can0  204   [6]  00 00 00 00 00 00
 (000.275110)  can0  100   [6]  3F 00 BE 01 00 00
 (000.275903)  can0  102   [6]  60 06 0D 06 2C 06
 (000.276598)  can0  200   [4]  FF FF 00 00
 (000.277293)  can0  201   [4]  00 00 00 00
 (000.278153)  can0  204   [6]  00 00 00 00 00 00
 (000.284991)  can0  100   [6]  3E 00 BE 01 00 00
 (000.285792)  can0  102   [6]  60 06 0D 06 2C 06
 (000.286488)  can0  200   [4]  FF FF 00 00
 (000.287343)  can0  204   [6]  00 00 00 00 00 00
 (000.294870)  can0  100   [6]  3E 00 BE 01 00 00
 (000.295524)  can0  101   [4]  FD FF 06 00
 (000.296332)  can0  102   [6]  60 06 0D 06 2C 06
 (000.296875)  can0  103   [2]  00 04
 (000.297722)  can0  104   [6]  00 00 00 00 00 00
 (000.298172)  can0  1FF   [1]  29
 (000.298871)  can0  200   [4]  FF FF 00 00
 (000.299571)  can0  201   [4]  00 00 00 00
 (000.300428)  can0  204   [6]  00 00 00 00 00 00
 (000.304755)  can0  100   [6]  3E 00 BE 01 00 00
 (000.305556)  can0  102   [6]  60 06 0D 06 2C 06
 (000.306252)  can0  200   [4]  FF FF 00 00
 (000.306715)  can0  202   [1]  01
 (000.307579)  can0  204   [6]  00 00 00 00 00 00
 (000.308036)  can0  2FF   [1]  05
 (000.314622)  can0  100   [6]  3E 00 BC 01 00 00
 (000.315426)  can0  102   [6]  60 06 0D 06 2C 06
 (000.316121)  can0  200   [4]  FF FF 00 00
 (000.316818)  can0  201   [4]  00 00 00 00
 (000.317673)  can0  204   [6]  00 00 00 00 00 00
 (000.324506)  can0  100   [6]  3E 00 BD 01 00 00
 (000.325300)  can0  102   [6]  60 06 0D 06 2C 06
 (000.325997)  can0  200   [4]  FF FF 00 00
 (000.326853)  can0  204   [6]  00 00 00 00 00 00
 (000.334389)  can0  100   [6]  3F 00 BD 01 00 00
 (000.335194)  can0  102   [6]  60 06 0D 06 2C 06
 (000.335874)  can0  200   [4]  FF FF 00 00
 (000.336567)  can0  201   [4]  00 00 00 00
 (000.337423)  can0  204   [6]  00 00 00 00 00 00
 (000.344237)  can0  100   [6]  3F 00 BC 01 00 00
 (000.344892)  can0  101   [4]  05 00 07 00
 (000.345698)  can0  102   [6]  60 06 0D 06 2C 06
 (000.346241)  can0  103   [2]  00 04
 (000.347092)  can0  104   [6]  00 00 00 00 00 00
 (000.347550)  can0  1FF   [1]  2A
 (000.348244)  can0  200   [4]  FF FF 00 00
 (000.349100)  can0  204   [6]  00 00 00 00 00 00
 (000.354120)  can0  100   [6]  40 00 BD 01 00 00
 (000.354924)  can0  102   [6]  60 06 0D 06 2C 06
 (000.355819)  can0  200   [4]  FF FF 00 00
 (000.356514)  can0  201   [4]  00 00 00 00
 (000.356982)  can0  202   [1]  01
 (000.357837)  can0  204   [6]  00 00 00 00 00 00
 (000.358300)  can0  2FF   [1]  06
 (000.364006)  can0  100   [6]  3F 00 BE 01 00 00
 (000.364806)  can0  102   [6]  60 06 0D 06 2C 06
 (000.365810)  can0  200   [4]  FF FF 00 00
 (000.366666)  can0  204   [6]  00 00 00 00 00 00
 (000.373880)  can0  100   [6]  3F 00 BD 01 00 00
 (000.374681)  can0  102   [6]  60 06 0D 06 2C 06
 (000.375817)  can0  200   [4]  FF FF 00 00
 (000.376512)  can0  201   [4]  00 00 00 00
 (000.377369)  can0  204   [6]  00 00 00 00 00 00
 (000.383759)  can0  100   [6]  3F 00 BE 01 00 00
 (000.384564)  can0  102   [6]  60 06 0D 06 2C 06
 (000.385822)  can0  200   [4]  FF FF 00 00
 (000.386874)  can0  204   [6]  00 00 00 00 00 00
 (000.393638)  can0  100   [6]  40 00 BE 01 00 00
 (000.394531)  can0  101   [4]  00 00 00 00
 (000.395125)  can0  102   [6]  60 06 0D 06 2C 06
 (000.395660)  can0  103   [2]  00 04
 (000.396713)  can0  104   [6]  00 00 00 00 00 00
 (000.396960)  can0  1FF   [1]  2B
 (000.397659)  can0  200   [4]  FF FF 00 00
 (000.398352)  can0  201   [4]  00 00 00 00
 (000.399208)  can0  204   [6]  00 00 00 00 00 00
 (000.403502)  can0  100   [6]  40 00 BE 01 00 00
 (000.405820)  can0  200   [4]  FF FF 00 00
 (000.406284)  can0  202   [1]  01
 (000.407137)  can0  204   [6]  00 00 00 00 00 00
 (000.407608)  can0  2FF   [1]  07
 (000.413600)  can0  100   [6]  40 00 BE 01 00 00
 (000.414184)  can0  102   [6]  60 06 0D 06 2C 06
 (000.415815)  can0  200   [4]  FF FF 00 00
 (000.416510)  can0  201   [4]  00 00 00 00
 (000.417365)  can0  204   [6]  00 00 00 00 00 00
 (000.423264)  can0  100   [6]  40 00 BE 01 00 00
 (000.424063)  can0  102   [6]  60 06 0D 06 2C 06
 (000.425813)  can0  200   [4]  FF FF 00 00
 (000.426668)  can0  204   [6]  00 00 00 00 00 00
 (000.433144)  can0  100   [6]  40 00 BE 01 00 00
 (000.433939)  can0  102   [6]  60 06 0D 06 2C 06
 (000.435833)  can0  200   [4]  FF FF 00 00
 (000.436523)  can0  201   [4]  00 00 00 00
 (000.437380)  can0  204   [6]  00 00 00 00 00 00
 (000.443016)  can0  100   [6]  40 00 BE 01 00 00
 (000.443762)  can0  101   [4]  FB FF 01 00
 (000.444515)  can0  102   [6]  60 06 0D 06 2C 06
 (000.445031)  can0  103   [2]  00 04
 (000.445878)  can0  104   [6]  00 00 00 00 00 00
 (000.446346)  can0  1FF   [1]  2C
 (000.447026)  can0  200   [4]  FF FF 00 00
 (000.447880)  can0  204   [6]  00 00 00 00 00 00
 (000.452896)  can0  100   [6]  40 00 BF 01 00 00
 (000.453700)  can0  102   [6]  60 06 0D 06 2C 06
 (000.455819)  can0  200   [4]  FF FF 00 00
 (000.456505)  can0  201   [4]  00 00 00 00
 (000.456968)  can0  202   [1]  01
 (000.457825)  can0  204   [6]  00 00 00 00 00 00
 (000.458287)  can0  2FF   [1]  08
 (000.462773)  can0  100   [6]  40 00 BF 01 00 00
 (000.463578)  can0  102   [6]  60 06 0D 06 2C 06
 (000.466198)  can0  200   [4]  FF FF 00 00
 (000.466681)  can0  204   [6]  00 00 00 00 00 00
 (000.472818)  can0  100   [6]  40 00 BF 01 00 00
 (000.473456)  can0  102   [6]  60 06 0D 06 2C 06
 (000.475829)  can0  200   [4]  FF FF 00 00
 (000.476518)  can0  201   [4]  00 00 00 00
 (000.477372)  can0  204   [6]  00 00 00 00 00 00
 (000.482524)  can0  100   [6]  41 00 BF 01 00 00
 (000.483321)  can0  102   [6]  60 06 0D 06 2C 06
 (000.485813)  can0  200   [4]  FF FF 00 00
 (000.486666)  can0  204   [6]  00 00 00 00 00 00
 (000.492421)  can0  100   [6]  40 00 BF 01 00 00
 (000.493086)  can0  101   [4]  04 00 03 00
 (000.493895)  can0  102   [6]  60 06 0D 06 2C 06
 (000.494446)  can0  103   [2]  00 04
 (000.495288)  can0  104   [6]  00 00 00 00 00 00
 (000.495742)  can0  1FF   [1]  2D
 (000.496441)  can0  200   [4]  FF FF 00 00
 (000.497136)  can0  201   [4]  00 00 00 00
 (000.497992)  can0  204   [6]  00 00 00 00 00 00
 (000.502303)  can0  100   [6]  40 00 BE 01 00 00
 (000.503089)  can0  102   [6]  60 06 0D 06 2C 06
 (000.505813)  can0  200   [4]  FF FF 00 00
 (000.506276)  can0  202   [1]  01
 (000.507133)  can0  204   [6]  00 00 00 00 00 00
 (000.507595)  can0  2FF   [1]  09
 (000.512161)  can0  100   [6]  40 00 BD 01 00 00
 (000.512958)  can0  102   [6]  60 06 0D 06 2C 06
 (000.515827)  can0  200   [4]  FF FF 00 00
 (000.516521)  can0  201   [4]  00 00 00 00
 (000.517374)  can0  204   [6]  00 00 00 00 00 00
 (000.522040)  can0  100   [6]  41 00 BD 01 00 00
 (000.522835)  can0  102   [6]  60 06 0D 06 2C 06
 (000.525832)  can0  200   [4]  FF FF 00 00
 (000.526683)  can0  204   [6]  00 00 00 00 00 00
 (000.531924)  can0  100   [6]  40 00 BE 01 00 00
 (000.532720)  can0  102   [6]  60 06 0D 06 2C 06
 (000.535827)  can0  200   [4]  FF FF 00 00
 (000.536522)  can0  201   [4]  00 00 00 00
 (000.537376)  can0  204   [6]  00 00 00 00 00 00
 (000.541799)  can0  100   [6]  40 00 BD 01 00 00
 (000.542457)  can0  101   [4]  FA FF 00 00
 (000.543268)  can0  102   [6]  60 06 0D 06 2C 06
 (000.543810)  can0  103   [2]  00 04
 (000.544659)  can0  104   [6]  00 00 00 00 00 00
 (000.545119)  can0  1FF   [1]  2E
 (000.545836)  can0  200   [4]  FF FF 00 00
 (000.546690)  can0  204   [6]  00 00 00 00 00 00
 (000.551665)  can0  100   [6]  40 00 BD 01 00 00
 (000.552466)  can0  102   [6]  60 06 0D 06 2C 06
 (000.555858)  can0  200   [4]  FF FF 00 00
 (000.556541)  can0  201   [4]  00 00 00 00
 (000.557039)  can0  202   [1]  01
 (000.557843)  can0  204   [6]  00 00 00 00 00 00
 (000.558304)  can0  2FF   [1]  0A
 (000.561547)  can0  100   [6]  40 00 BE 01 00 00
 (000.562351)  can0  102   [6]  60 06 0D 06 2C 06
 (000.565834)  can0  200   [4]  FF FF 00 00
 (000.566685)  can0  204   [6]  00 00 00 00 00 00
 (000.571423)  can0  100   [6]  3F 00 BD 01 00 00
 (000.572228)  can0  102   [6]  60 06 0D 06 2C 06
 (000.575825)  can0  200   [4]  FF FF 00 00
 (000.576520)  can0  201   [4]  00 00 00 00
 (000.577376)  can0  204   [6]  00 00 00 00 00 00
 (000.581307)  can0  100   [6]  3F 00 BD 01 00 00
 (000.582101)  can0  102   [6]  60 06 0D 06 2C 06
 (000.585807)  can0  200   [4]  FF FF 00 00
 (000.586660)  can0  204   [6]  00 00 00 00 00 00
 (000.591168)  can0  100   [6]  3E 00 BD 01 00 00
 (000.591836)  can0  101   [4]  0F 00 04 00
 (000.592645)  can0  102   [6]  60 06 0D 06 2C 06
 (000.593186)  can0  103   [2]  00 04
 (000.594032)  can0  104   [6]  00 00 00 00 00 00
 (000.594482)  can0  1FF   [1]  2F
 (000.595821)  can0  200   [4]  FF FF 00 00
 (000.596516)  can0  201   [4]  00 00 00 00
 (000.597373)  can0  204   [6]  00 00 00 00 00 00
 (000.601051)  can0  100   [6]  3E 00 BC 01 00 00
 (000.601854)  can0  102   [6]  60 06 0D 06 2C 06
 (000.605817)  can0  200   [4]  FF FF 00 00
 (000.606282)  can0  202   [1]  01
 (000.607136)  can0  204   [6]  00 00 00 00 00 00
 (000.607588)  can0  2FF   [1]  0B
 (000.610922)  can0  100   [6]  3E 00 BD 01 00 00
 (000.611725)  can0  102   [6]  60 06 0D 06 2C 06
 (000.615820)  can0  200   [4]  FF FF 00 00
 (000.616512)  can0  201   [4]  00 00 00 00
 (000.617369)  can0  204   [6]  00 00 00 00 00 00
 (000.620799)  can0  100   [6]  3F 00 BD 01 00 00
 (000.621602)  can0  102   [6]  60 06 0D 06 2C 06
 (000.625846)  can0  200   [4]  FF FF 00 00
 (000.626700)  can0  204   [6]  00 00 00 00 00 00
 (000.630680)  can0  100   [6]  3F 00 BE 01 00 00
 (000.631475)  can0  102   [6]  60 06 0D 06 2C 06
 (000.635815)  can0  200   [4]  FF FF 00 00
 (000.636508)  can0  201   [4]  00 00 00 00
 (000.637364)  can0  204   [6]  00 00 00 00 00 00
 (000.640548)  can0  100   [6]  3F 00 BE 01 00 00
 (000.641225)  can0  101   [4]  FF FF FF FF
 (000.642032)  can0  102   [6]  60 06 0D 06 2C 06
 (000.642580)  can0  103   [2]  00 04
 (000.643427)  can0  104   [6]  00 00 00 00 00 00
 (000.643881)  can0  1FF   [1]  30
 (000.645827)  can0  200   [4]  FF FF 00 00
 (000.647011)  can0  204   [6]  00 00 00 00 00 00
 (000.650420)  can0  100   [6]  3F 00 BE 01 00 00
 (000.651220)  can0  102   [6]  60 06 0D 06 2C 06
 (000.655809)  can0  200   [4]  FF FF 00 00
 (000.656503)  can0  201   [4]  00 00 00 00
 (000.656963)  can0  202   [1]  01
 (000.657822)  can0  204   [6]  00 00 00 00 00 00
 (000.658276)  can0  2FF   [1]  0C
 (000.660301)  can0  100   [6]  3F 00 BD 01 00 00
 (000.661103)  can0  102   [6]  60 06 0D 06 2C 06
 (000.665823)  can0  200   [4]  FF FF 00 00
 (000.666674)  can0  204   [6]  00 00 00 00 00 00
 (000.670182)  can0  100   [6]  3F 00 BD 01 00 00
 (000.670977)  can0  102   [6]  60 06 0D 06 2C 06
 (000.675822)  can0  200   [4]  FF FF 00 00
 (000.676517)  can0  201   [4]  00 00 00 00
 (000.677373)  can0  204   [6]  00 00 00 00 00 00
 (000.680043)  can0  100   [6]  3F 00 BC 01 00 00
 (000.680840)  can0  102   [6]  60 06 0D 06 2C 06
 (000.685810)  can0  200   [4]  FF FF 00 00
 (000.686661)  can0  204   [6]  00 00 00 00 00 00
 (000.689905)  can0  100   [6]  3F 00 BC 01 00 00
 (000.690586)  can0  101   [4]  0E 00 00 00
 (000.691389)  can0  102   [6]  60 06 0D 06 2C 06
 (000.691934)  can0  103   [2]  00 04
 (000.692781)  can0  104   [6]  00 00 00 00 00 00
 (000.693228)  can0  1FF   [1]  31
 (000.695817)  can0  200   [4]  FF FF 00 00
 (000.696511)  can0  201   [4]  00 00 00 00
 (000.697365)  can0  204   [6]  00 00 00 00 00 00
 (000.699778)  can0  100   [6]  3F 00 BC 01 00 00
 (000.700580)  can0  102   [6]  60 06 0D 06 2C 06
 (000.705804)  can0  200   [4]  FF FF 00 00
 (000.706266)  can0  202   [1]  01
 (000.707126)  can0  204   [6]  00 00 00 00 00 00
 (000.707581)  can0  2FF   [1]  0D
 (000.709659)  can0  100   [6]  3F 00 BC 01 00 00
 (000.710510)  can0  102   [6]  60 06 0D 06 2C 06
 (000.715822)  can0  200   [4]  FF FF 00 00
 (000.716513)  can0  201   [4]  00 00 00 00
 (000.717368)  can0  204   [6]  00 00 00 00 00 00
 (000.719552)  can0  100   [6]  3F 00 BD 01 00 00
 (000.720354)  can0  102   [6]  60 06 0D 06 2C 06
 (000.725827)  can0  200   [4]  FF FF 00 00
 (000.726678)  can0  204   [6]  00 00 00 00 00 00
 (000.729434)  can0  100   [6]  3F 00 BD 01 00 00
 (000.730232)  can0  102   [6]  60 06 0D 06 2C 06
 (000.735819)  can0  200   [4]  FF FF 00 00
 (000.736511)  can0  201   [4]  00 00 00 00
 (000.737367)  can0  204   [6]  00 00 00 00 00 00
 (000.739297)  can0  100   [6]  3E 00 BD 01 00 00
 (000.740834)  can0  102   [6]  60 06 0D 06 2C 06
 (000.741373)  can0  103   [2]  00 04
 (000.742224)  can0  104   [6]  00 00 00 00 00 00
 (000.742671)  can0  1FF   [1]  32
 (000.745834)  can0  200   [4]  FF FF 00 00
 (000.746687)  can0  204   [6]  00 00 00 00 00 00
 (000.749177)  can0  100   [6]  3F 00 BD 01 00 00
 (000.749982)  can0  102   [6]  60 06 0D 06 2C 06
 (000.755814)  can0  200   [4]  FF FF 00 00
 (000.756508)  can0  201   [4]  00 00 00 00
 (000.756977)  can0  202   [1]  01
 (000.757831)  can0  204   [6]  00 00 00 00 00 00
 (000.758285)  can0  2FF   [1]  0E
 (000.759114)  can0  100   [6]  3F 00 BC 01 00 00
 (000.759915)  can0  102   [6]  60 06 0D 06 2C 06
 (000.765830)  can0  200   [4]  FF FF 00 00
 (000.766681)  can0  204   [6]  00 00 00 00 00 00
 (000.768928)  can0  100   [6]  3F 00 BD 01 00 00
 (000.769730)  can0  102   [6]  60 06 0D 06 2C 06
 (000.775833)  can0  200   [4]  FF FF 00 00
 (000.776526)  can0  201   [4]  00 00 00 00
 (000.777385)  can0  204   [6]  00 00 00 00 00 00
 (000.778805)  can0  100   [6]  40 00 BD 01 00 00
 (000.779606)  can0  102   [6]  60 06 0D 06 2C 06
 (000.785817)  can0  200   [4]  FF FF 00 00
 (000.786663)  can0  204   [6]  00 00 00 00 00 00
 (000.788684)  can0  100   [6]  41 00 BD 01 00 00
 (000.789351)  can0  101   [4]  0A 00 00 00
 (000.790159)  can0  102   [6]  60 06 0D 06 2C 06
 (000.790710)  can0  103   [2]  00 04
 (000.791565)  can0  104   [6]  00 00 00 00 00 00
 (000.792014)  can0  1FF   [1]  33
 (000.795829)  can0  200   [4]  FF FF 00 00
 (000.796521)  can0  201   [4]  00 00 00 00
 (000.797378)  can0  204   [6]  00 00 00 00 00 00
 (000.798561)  can0  100   [6]  40 00 BD 01 00 00
 (000.799361)  can0  102   [6]  60 06 0D 06 2C 06
 (000.805812)  can0  200   [4]  FF FF 00 00
 (000.806273)  can0  202   [1]  01
 (000.807130)  can0  204   [6]  00 00 00 00 00 00
 (000.807600)  can0  2FF   [1]  0F
 (000.808434)  can0  100   [6]  40 00 BD 01 00 00
 (000.809243)  can0  102   [6]  60 06 0D 06 2C 06
 (000.815817)  can0  200   [4]  FF FF 00 00
 (000.816508)  can0  201   [4]  00 00 00 00
 (000.817364)  can0  204   [6]  00 00 00 00 00 00
 (000.818308)  can0  100   [6]  41 00 BD 01 00 00
 (000.819111)  can0  102   [6]  60 06 0D 06 2C 06
 (000.825956)  can0  200   [4]  FF FF 00 00
 (000.826705)  can0  204   [6]  00 00 00 00 00 00
 (000.828193)  can0  100   [6]  41 00 BE 01 00 00
 (000.828998)  can0  102   [6]  60 06 0D 06 2C 06
 (000.835822)  can0  200   [4]  FF FF 00 00
 (000.836516)  can0  201   [4]  00 00 00 00
 (000.837370)  can0  204   [6]  00 00 00 00 00 00
 (000.838210)  can0  100   [6]  40 00 BE 01 00 00
 (000.838897)  can0  101   [4]  00 00 01 00
 (000.839703)  can0  102   [6]  60 06 0D 06 2C 06
 (000.840251)  can0  103   [2]  00 04
 (000.841099)  can0  104   [6]  00 00 00 00 00 00
 (000.841558)  can0  1FF   [1]  34
 (000.845835)  can0  200   [4]  FF FF 00 00
 (000.846691)  can0  204   [6]  00 00 00 00 00 00
 (000.847936)  can0  100   [6]  40 00 BD 01 00 00
 (000.848735)  can0  102   [6]  60 06 0D 06 2C 06
 (000.855810)  can0  200   [4]  FF FF 00 00
 (000.856510)  can0  201   [4]  00 00 00 00
 (000.856969)  can0  202   [1]  01
 (000.857825)  can0  204   [6]  00 00 00 00 00 00
 (000.858668)  can0  100   [6]  3F 00 BE 01 00 00
 (000.859979)  can0  2FF   [1]  10
 (000.865845)  can0  200   [4]  FF FF 00 00
 (000.866701)  can0  204   [6]  00 00 00 00 00 00
 (000.867689)  can0  100   [6]  40 00 BE 01 00 00
 (000.868500)  can0  102   [6]  60 06 0D 06 2C 06
 (000.875824)  can0  200   [4]  FF FF 00 00
 (000.876518)  can0  201   [4]  00 00 00 00
 (000.877378)  can0  204   [6]  00 00 00 00 00 00
 (000.878223)  can0  100   [6]  40 00 BD 01 00 00
 (000.879012)  can0  102   [6]  60 06 0D 06 2C 06
 (000.885823)  can0  200   [4]  FF FF 00 00
 (000.886895)  can0  204   [6]  00 00 00 00 00 00
 (000.887506)  can0  100   [6]  40 00 BD 01 00 00
 (000.888179)  can0  101   [4]  F8 FF 0C 00
 (000.889094)  can0  102   [6]  60 06 0D 06 2C 06
 (000.889534)  can0  103   [2]  00 04
 (000.890389)  can0  104   [6]  00 00 00 00 00 00
 (000.891069)  can0  1FF   [1]  35
 (000.895836)  can0  200   [4]  FF FF 00 00
 (000.896532)  can0  201   [4]  00 00 00 00
 (000.897363)  can0  100   [6]  41 00 BD 01 00 00
 (000.898164)  can0  102   [6]  60 06 0D 06 2C 06
 (000.899011)  can0  204   [6]  00 00 00 00 00 00
 (000.905815)  can0  200   [4]  FF FF 00 00
 (000.906276)  can0  202   [1]  01
 (000.907133)  can0  204   [6]  00 00 00 00 00 00
 (000.907975)  can0  100   [6]  40 00 BE 01 00 00
 (000.908778)  can0  102   [6]  60 06 0D 06 2C 06
 (000.909241)  can0  2FF   [1]  11
 (000.915821)  can0  200   [4]  FF FF 00 00
 (000.916513)  can0  201   [4]  00 00 00 00
 (000.917342)  can0  100   [6]  40 00 BD 01 00 00
 (000.918146)  can0  102   [6]  60 06 0D 06 2C 06
 (000.918996)  can0  204   [6]  00 00 00 00 00 00
 (000.925837)  can0  200   [4]  FF FF 00 00
 (000.926694)  can0  204   [6]  00 00 00 00 00 00
 (000.927526)  can0  100   [6]  41 00 BD 01 00 00
 (000.928329)  can0  102   [6]  60 06 0D 06 2C 06
 (000.935816)  can0  200   [4]  FF FF 00 00
 (000.936509)  can0  201   [4]  00 00 00 00
 (000.937339)  can0  100   [6]  41 00 BD 01 00 00
 (000.938009)  can0  101   [4]  0B 00 F7 FF
 (000.938822)  can0  102   [6]  60 06 0D 06 2C 06
 (000.939365)  can0  103   [2]  00 04
 (000.940213)  can0  104   [6]  00 00 00 00 00 00
 (000.940661)  can0  1FF   [1]  36
 (000.941509)  can0  204   [6]  00 00 00 00 00 00
 (000.945862)  can0  200   [4]  FF FF 00 00
 (000.946700)  can0  100   [6]  41 00 BE 01 00 00
 (000.947514)  can0  102   [6]  60 06 0D 06 2C 06
 (000.948349)  can0  204   [6]  00 00 00 00 00 00
 (000.955806)  can0  200   [4]  FF FF 00 00
 (000.956644)  can0  100   [6]  41 00 BE 01 00 00
 (000.957455)  can0  102   [6]  60 06 0D 06 2C 06
 (000.958139)  can0  201   [4]  00 00 00 00
 (000.958603)  can0  202   [1]  01
 (000.959459)  can0  204   [6]  00 00 00 00 00 00
 (000.959916)  can0  2FF   [1]  12
 (000.965840)  can0  200   [4]  FF FF 00 00
 (000.966676)  can0  100   [6]  41 00 BE 01 00 00
 (000.967476)  can0  102   [6]  60 06 0D 06 2C 06
 (000.968323)  can0  204   [6]  00 00 00 00 00 00
 (000.975847)  can0  200   [4]  FF FF 00 00
 (000.976661)  can0  100   [6]  40 00 BD 01 00 00
 (000.977470)  can0  102   [6]  60 06 0D 06 2C 06
 (000.978156)  can0  201   [4]  00 00 00 00
 (000.979008)  can0  204   [6]  00 00 00 00 00 00
 (000.985821)  can0  200   [4]  FF FF 00 00
 (000.986654)  can0  100   [6]  3F 00 BD 01 00 00
 (000.987339)  can0  101   [4]  00 00 02 00
 (000.988145)  can0  102   [6]  60 06 0D 06 2C 06
 (000.988689)  can0  103   [2]  00 04
 (000.989544)  can0  104   [6]  00 00 00 00 00 00
 (000.989998)  can0  1FF   [1]  37
 (000.990846)  can0  204   [6]  00 00 00 00 00 00
 (000.995835)  can0  200   [4]  FF FF 00 00
 (000.996671)  can0  100   [6]  3F 00 BD 01 00 00
 (000.997475)  can0  102   [6]  60 06 0D 06 2C 06
 (000.998161)  can0  201   [4]  00 00 00 00
 (000.999016)  can0  204   [6]  00 00 00 00 00 00
 (001.005928)  can0  100   [6]  3F 00 BD 01 00 00
 (001.006734)  can0  102   [6]  60 06 0D 06 2C 06
 (001.007426)  can0  200   [4]  FF FF 00 00
 (001.007889)  can0  202   [1]  01
 (001.008749)  can0  204   [6]  00 00 00 00 00 00
 (001.009235)  can0  2FF   [1]  13
 (001.015829)  can0  100   [6]  3F 00 BD 01 00 00
 (001.016627)  can0  102   [6]  60 06 0D 06 2C 06
 (001.017304)  can0  200   [4]  FF FF 00 00
 (001.017998)  can0  201   [4]  00 00 00 00
 (001.018855)  can0  204   [6]  00 00 00 00 00 00
 (001.025682)  can0  100   [6]  3F 00 BE 01 00 00
 (001.026479)  can0  102   [6]  60 06 0D 06 2C 06
 (001.027183)  can0  200   [4]  FF FF 00 00
 (001.028054)  can0  204   [6]  00 00 00 00 00 00
 (001.035555)  can0  100   [6]  40 00 BE 01 00 00
 (001.036237)  can0  101   [4]  0A 00 01 00
 (001.037052)  can0  102   [6]  60 06 0D 06 2C 06
 (001.037587)  can0  103   [2]  00 04
 (001.038445)  can0  104   [6]  00 00 00 00 00 00
 (001.038911)  can0  1FF   [1]  38
 (001.039589)  can0  200   [4]  FF FF 00 00
 (001.040283)  can0  201   [4]  00 00 00 00
 (001.041136)  can0  204   [6]  00 00 00 00 00 00
 (001.045420)  can0  100   [6]  3F 00 BE 01 00 00
 (001.046979)  can0  200   [4]  FF FF 00 00
 (001.047834)  can0  204   [6]  00 00 00 00 00 00
 (001.055291)  can0  100   [6]  40 00 BE 01 00 00
 (001.056851)  can0  200   [4]  FF FF 00 00
 (001.057543)  can0  201   [4]  00 00 00 00
 (001.058006)  can0  202   [1]  01
 (001.059072)  can0  204   [6]  00 00 00 00 00 00
 (001.059320)  can0  2FF   [1]  14
 (001.065365)  can0  100   [6]  40 00 BE 01 00 00
 (001.066723)  can0  200   [4]  FF FF 00 00
 (001.067577)  can0  204   [6]  00 00 00 00 00 00
 (001.075037)  can0  100   [6]  41 00 BE 01 00 00
 (001.075833)  can0  102   [6]  60 06 0D 06 2C 06
 (001.076527)  can0  200   [4]  FF FF 00 00
 (001.077225)  can0  201   [4]  00 00 00 00
 (001.078079)  can0  204   [6]  00 00 00 00 00 00
 (001.084910)  can0  100   [6]  40 00 BE 01 00 00
 (001.085568)  can0  101   [4]  09 00 03 00
 (001.086373)  can0  102   [6]  60 06 0D 06 2C 06
 (001.086918)  can0  103   [2]  00 04
 (001.087765)  can0  104   [6]  00 00 00 00 00 00
 (001.088215)  can0  1FF   [1]  39
 (001.088913)  can0  200   [4]  FF FF 00 00
 (001.089776)  can0  204   [6]  00 00 00 00 00 00
 (001.094785)  can0  100   [6]  40 00 BE 01 00 00
 (001.095586)  can0  102   [6]  60 06 0D 06 2C 06
 (001.096279)  can0  200   [4]  FF FF 00 00
 (001.096974)  can0  201   [4]  00 00 00 00
 (001.097830)  can0  204   [6]  00 00 00 00 00 00
 (001.104655)  can0  100   [6]  41 00 BE 01 00 00
 (001.105458)  can0  102   [6]  60 06 0D 06 2C 06
 (001.106152)  can0  200   [4]  FF FF 00 00
 (001.106616)  can0  202   [1]  01
 (001.107475)  can0  204   [6]  00 00 00 00 00 00
 (001.107935)  can0  2FF   [1]  15
 (001.114533)  can0  100   [6]  41 00 BD 01 00 00
 (001.115323)  can0  102   [6]  60 06 0D 06 2C 06
 (001.116033)  can0  200   [4]  FF FF 00 00
 (001.116713)  can0  201   [4]  00 00 00 00
 (001.117585)  can0  204   [6]  00 00 00 00 00 00
 (001.124405)  can0  100   [6]  41 00 BC 01 00 00
 (001.125203)  can0  102   [6]  60 06 0D 06 2C 06
 (001.125905)  can0  200   [4]  FF FF 00 00
 (001.126756)  can0  204   [6]  00 00 00 00 00 00
 (001.134284)  can0  100   [6]  40 00 BC 01 00 00
 (001.134936)  can0  101   [4]  02 00 FE FF
 (001.135740)  can0  102   [6]  60 06 0D 06 2C 06
 (001.136285)  can0  103   [2]  00 04
 (001.137133)  can0  104   [6]  00 00 00 00 00 00
 (001.137582)  can0  1FF   [1]  3A
 (001.138280)  can0  200   [4]  FF FF 00 00
 (001.138978)  can0  201   [4]  00 00 00 00
 (001.139835)  can0  204   [6]  00 00 00 00 00 00
 (001.144156)  can0  100   [6]  40 00 BC 01 00 00
 (001.144946)  can0  102   [6]  60 06 0D 06 2C 06
 (001.145823)  can0  200   [4]  FF FF 00 00
 (001.146674)  can0  204   [6]  00 00 00 00 00 00
 (001.154024)  can0  100   [6]  41 00 BD 01 00 00
 (001.154825)  can0  102   [6]  60 06 0D 06 2C 06
 (001.155800)  can0  200   [4]  FF FF 00 00
 (001.156500)  can0  201   [4]  00 00 00 00
 (001.156964)  can0  202   [1]  01
 (001.157816)  can0  204   [6]  00 00 00 00 00 00
 (001.158289)  can0  2FF   [1]  16
 (001.163899)  can0  100   [6]  41 00 BC 01 00 00
 (001.164703)  can0  102   [6]  60 06 0D 06 2C 06
 (001.165809)  can0  200   [4]  FF FF 00 00
 (001.166666)  can0  204   [6]  00 00 00 00 00 00
 (001.173773)  can0  100   [6]  42 00 BD 01 00 00
 (001.174572)  can0  102   [6]  60 06 0D 06 2C 06
 (001.175832)  can0  200   [4]  FF FF 00 00
 (001.176528)  can0  201   [4]  00 00 00 00
 (001.177383)  can0  204   [6]  00 00 00 00 00 00
 (001.183648)  can0  100   [6]  42 00 BD 01 00 00
 (001.184318)  can0  101   [4]  04 00 FB FF
 (001.185125)  can0  102   [6]  60 06 0D 06 2C 06
 (001.185668)  can0  103   [2]  00 04
 (001.186731)  can0  104   [6]  00 00 00 00 00 00
 (001.186975)  can0  1FF   [1]  3B
 (001.187671)  can0  200   [4]  FF FF 00 00
 (001.188528)  can0  204   [6]  00 00 00 00 00 00
 (001.193533)  can0  100   [6]  41 00 BD 01 00 00
 (001.194331)  can0  102   [6]  60 06 0D 06 2C 06
 (001.195818)  can0  200   [4]  FF FF 00 00
 (001.196510)  can0  201   [4]  00 00 00 00
 (001.197370)  can0  204   [6]  00 00 00 00 00 00
 (001.203420)  can0  100   [6]  41 00 BE 01 00 00
 (001.204210)  can0  102   [6]  60 06 0D 06 2C 06
 (001.205813)  can0  200   [4]  FF FF 00 00
 (001.206278)  can0  202   [1]  01
 (001.207131)  can0  204   [6]  00 00 00 00 00 00
 (001.207586)  can0  2FF   [1]  17
 (001.213312)  can0  100   [6]  41 00 BE 01 00 00
 (001.214273)  can0  102   [6]  60 06 0D 06 2C 06
 (001.215841)  can0  200   [4]  FF FF 00 00
 (001.216507)  can0  201   [4]  00 00 00 00
 (001.217364)  can0  204   [6]  00 00 00 00 00 00
 (001.223162)  can0  100   [6]  41 00 BD 01 00 00
 (001.223967)  can0  102   [6]  60 06 0D 06 2C 06
 (001.225838)  can0  200   [4]  FF FF 00 00
 (001.226690)  can0  204   [6]  00 00 00 00 00 00
 (001.233037)  can0  100   [6]  41 00 BD 01 00 00
 (001.234552)  can0  102   [6]  60 06 0D 06 2C 06
 (001.235096)  can0  103   [2]  00 04
 (001.235942)  can0  104   [6]  00 00 00 00 00 00
 (001.236408)  can0  1FF   [1]  3C
 (001.237106)  can0  200   [4]  FF FF 00 00
 (001.237801)  can0  201   [4]  00 00 00 00
 (001.238661)  can0  204   [6]  00 00 00 00 00 00
 (001.243064)  can0  100   [6]  41 00 BE 01 00 00
 (001.243722)  can0  102   [6]  60 06 0D 06 2C 06
 (001.245836)  can0  200   [4]  FF FF 00 00
 (001.246676)  can0  204   [6]  00 00 00 00 00 00
 (001.252787)  can0  100   [6]  40 00 BD 01 00 00
 (001.253585)  can0  102   [6]  60 06 0D 06 2C 06
 (001.255806)  can0  200   [4]  FF FF 00 00
 (001.256506)  can0  201   [4]  00 00 00 00
 (001.256971)  can0  202   [1]  01
 (001.257820)  can0  204   [6]  00 00 00 00 00 00
 (001.258284)  can0  2FF   [1]  18
 (001.262657)  can0  100   [6]  40 00 BD 01 00 00
 (001.263463)  can0  102   [6]  60 06 0D 06 2C 06
 (001.265809)  can0  200   [4]  FF FF 00 00
 (001.266665)  can0  204   [6]  00 00 00 00 00 00
 (001.272529)  can0  100   [6]  40 00 BD 01 00 00
 (001.273335)  can0  102   [6]  60 06 0D 06 2C 06
 (001.275824)  can0  200   [4]  FF FF 00 00
 (001.276517)  can0  201   [4]  00 00 00 00
 (001.277374)  can0  204   [6]  00 00 00 00 00 00
 (001.282415)  can0  100   [6]  40 00 BD 01 00 00
 (001.283082)  can0  101   [4]  00 00 07 00
 (001.283892)  can0  102   [6]  60 06 0D 06 2C 06
 (001.284435)  can0  103   [2]  00 04
 (001.285292)  can0  104   [6]  00 00 00 00 00 00
 (001.285739)  can0  1FF   [1]  3D
 (001.286436)  can0  200   [4]  FF FF 00 00
 (001.287290)  can0  204   [6]  00 00 00 00 00 00
 (001.292281)  can0  100   [6]  41 00 BD 01 00 00
 (001.293084)  can0  102   [6]  60 06 0D 06 2C 06
 (001.295826)  can0  200   [4]  FF FF 00 00
 (001.296522)  can0  201   [4]  00 00 00 00
 (001.297376)  can0  204   [6]  00 00 00 00 00 00
 (001.302150)  can0  100   [6]  41 00 BC 01 00 00
 (001.302952)  can0  102   [6]  60 06 0D 06 2C 06
 (001.305822)  can0  200   [4]  FF FF 00 00
 (001.306286)  can0  202   [1]  01
 (001.307137)  can0  204   [6]  00 00 00 00 00 00
 (001.307601)  can0  2FF   [1]  19
 (001.312025)  can0  100   [6]  41 00 BC 01 00 00
 (001.315813)  can0  200   [4]  FF FF 00 00
 (001.316509)  can0  201   [4]  00 00 00 00
 (001.317366)  can0  204   [6]  00 00 00 00 00 00
 (001.321897)  can0  100   [6]  41 00 BD 01 00 00
 (001.322695)  can0  102   [6]  60 06 0D 06 2C 06
 (001.325848)  can0  200   [4]  FF FF 00 00
 (001.326698)  can0  204   [6]  00 00 00 00 00 00
 (001.331787)  can0  100   [6]  40 00 BD 01 00 00
 (001.332440)  can0  101   [4]  FD FF 04 00
 (001.333250)  can0  102   [6]  60 06 0D 06 2C 06
 (001.333794)  can0  103   [2]  00 04
 (001.334643)  can0  104   [6]  00 00 00 00 00 00
 (001.335097)  can0  1FF   [1]  3E
 (001.335813)  can0  200   [4]  FF FF 00 00
 (001.336507)  can0  201   [4]  00 00 00 00
 (001.337361)  can0  204   [6]  00 00 00 00 00 00
 (001.341688)  can0  100   [6]  40 00 BE 01 00 00
 (001.342460)  can0  102   [6]  60 06 0D 06 2C 06
 (001.345823)  can0  200   [4]  FF FF 00 00
 (001.346678)  can0  204   [6]  00 00 00 00 00 00
 (001.351547)  can0  100   [6]  41 00 BE 01 00 00
 (001.352344)  can0  102   [6]  60 06 0D 06 2C 06
 (001.355808)  can0  200   [4]  FF FF 00 00
 (001.356507)  can0  201   [4]  00 00 00 00
 (001.356967)  can0  202   [1]  01
 (001.357823)  can0  204   [6]  00 00 00 00 00 00
 (001.358286)  can0  2FF   [1]  1A
 (001.361416)  can0  100   [6]  41 00 BD 01 00 00
 (001.362224)  can0  102   [6]  60 06 0D 06 2C 06
 (001.365816)  can0  200   [4]  FF FF 00 00
 (001.366670)  can0  204   [6]  00 00 00 00 00 00
 (001.371294)  can0  100   [6]  41 00 BE 01 00 00
 (001.372100)  can0  102   [6]  60 06 0D 06 2C 06
 (001.375831)  can0  200   [4]  FF FF 00 00
 (001.376526)  can0  201   [4]  00 00 00 00
 (001.377381)  can0  204   [6]  00 00 00 00 00 00
 (001.381177)  can0  100   [6]  40 00 BD 01 00 00
 (001.381818)  can0  101   [4]  F7 FF 01 00
 (001.382624)  can0  102   [6]  60 06 0D 06 2C 06
 (001.383168)  can0  103   [2]  00 04
 (001.384019)  can0  104   [6]  00 00 00 00 00 00
 (001.384474)  can0  1FF   [1]  3F
 (001.385813)  can0  200   [4]  FF FF 00 00
 (001.386667)  can0  204   [6]  00 00 00 00 00 00
 (001.391046)  can0  100   [6]  3F 00 BD 01 00 00
 (001.391844)  can0  102   [6]  60 06 0D 06 2C 06
 (001.395831)  can0  200   [4]  FF FF 00 00
 (001.396524)  can0  201   [4]  00 00 00 00
 (001.397379)  can0  204   [6]  00 00 00 00 00 00
 (001.400925)  can0  100   [6]  3F 00 BD 01 00 00
 (001.401726)  can0  102   [6]  60 06 0D 06 2C 06
 (001.405809)  can0  200   [4]  FF FF 00 00
 (001.406271)  can0  202   [1]  01
 (001.407129)  can0  204   [6]  00 00 00 00 00 00
 (001.407581)  can0  2FF   [1]  1B
 (001.410794)  can0  100   [6]  3E 00 BD 01 00 00
 (001.411597)  can0  102   [6]  60 06 0D 06 2C 06
 (001.415832)  can0  200   [4]  FF FF 00 00
 (001.416526)  can0  201   [4]  00 00 00 00
 (001.417384)  can0  204   [6]  00 00 00 00 00 00
 (001.420678)  can0  100   [6]  3F 00 BD 01 00 00
 (001.421695)  can0  102   [6]  60 06 0D 06 2C 06
 (001.425829)  can0  200   [4]  FF FF 00 00
 (001.426679)  can0  204   [6]  00 00 00 00 00 00
 (001.430533)  can0  100   [6]  3F 00 BC 01 00 00
 (001.431214)  can0  101   [4]  00 00 FF FF
 (001.432021)  can0  102   [6]  60 06 0D 06 2C 06
 (001.432563)  can0  103   [2]  00 04
 (001.433419)  can0  104   [6]  00 00 00 00 00 00
 (001.433872)  can0  1FF   [1]  40
 (001.435807)  can0  200   [4]  FF FF 00 00
 (001.436500)  can0  201   [4]  00 00 00 00
 (001.437356)  can0  204   [6]  00 00 00 00 00 00
 (001.440423)  can0  100   [6]  3E 00 BC 01 00 00
 (001.441223)  can0  102   [6]  60 06 0D 06 2C 06
 (001.445850)  can0  200   [4]  FF FF 00 00
 (001.446703)  can0  204   [6]  00 00 00 00 00 00
 (001.450305)  can0  100   [6]  3E 00 BC 01 00 00
 (001.451116)  can0  102   [6]  60 06 0D 06 2C 06
 (001.455831)  can0  200   [4]  FF FF 00 00
 (001.456583)  can0  201   [4]  00 00 00 00
 (001.456980)  can0  202   [1]  01
 (001.457838)  can0  204   [6]  00 00 00 00 00 00
 (001.458293)  can0  2FF   [1]  1C
 (001.460170)  can0  100   [6]  3E 00 BC 01 00 00
 (001.460978)  can0  102   [6]  60 06 0D 06 2C 06
 (001.465840)  can0  200   [4]  FF FF 00 00
 (001.466693)  can0  204   [6]  00 00 00 00 00 00
 (001.470044)  can0  100   [6]  3E 00 BC 01 00 00
 (001.470847)  can0  102   [6]  60 06 0D 06 2C 06
 (001.475834)  can0  200   [4]  FF FF 00 00
 (001.476528)  can0  201   [4]  00 00 00 00
 (001.477384)  can0  204   [6]  00 00 00 00 00 00
 (001.479928)  can0  100   [6]  3E 00 BC 01 00 00
 (001.480600)  can0  101   [4]  00 00 00 00
 (001.481408)  can0  102   [6]  60 06 0D 06 2C 06
 (001.481950)  can0  103   [2]  00 04
 (001.482797)  can0  104   [6]  00 00 00 00 00 00
 (001.483267)  can0  1FF   [1]  41
 (001.485824)  can0  200   [4]  FF FF 00 00
 (001.486673)  can0  204   [6]  00 00 00 00 00 00
 (001.489819)  can0  100   [6]  3F 00 BD 01 00 00
 (001.490606)  can0  102   [6]  60 06 0D 06 2C 06
 (001.495837)  can0  200   [4]  FF FF 00 00
 (001.496532)  can0  201   [4]  00 00 00 00
 (001.497388)  can0  204   [6]  00 00 00 00 00 00
 (001.499667)  can0  100   [6]  3F 00 BC 01 00 00
 (001.500469)  can0  102   [6]  60 06 0D 06 2C 06
 (001.505813)  can0  200   [4]  FF FF 00 00
 (001.506278)  can0  202   [1]  01
 (001.507135)  can0  204   [6]  00 00 00 00 00 00
 (001.507590)  can0  2FF   [1]  1D
 (001.509564)  can0  100   [6]  3E 00 BC 01 00 00
 (001.510366)  can0  102   [6]  60 06 0D 06 2C 06
 (001.515838)  can0  200   [4]  FF FF 00 00
 (001.516533)  can0  201   [4]  00 00 00 00
 (001.517386)  can0  204   [6]  00 00 00 00 00 00
 (001.519418)  can0  100   [6]  3F 00 BC 01 00 00
 (001.520224)  can0  102   [6]  60 06 0D 06 2C 06
 (001.525845)  can0  200   [4]  FF FF 00 00
 (001.526696)  can0  204   [6]  00 00 00 00 00 00
 (001.529291)  can0  100   [6]  3F 00 BC 01 00 00
 (001.529968)  can0  101   [4]  FB FF 08 00
 (001.530774)  can0  102   [6]  60 06 0D 06 2C 06
 (001.531317)  can0  103   [2]  00 04
 (001.532175)  can0  104   [6]  00 00 00 00 00 00
 (001.532617)  can0  1FF   [1]  42
 (001.535823)  can0  200   [4]  FF FF 00 00
 (001.536516)  can0  201   [4]  00 00 00 00
 (001.537371)  can0  204   [6]  00 00 00 00 00 00
 (001.539182)  can0  100   [6]  3E 00 BC 01 00 00
 (001.539993)  can0  102   [6]  60 06 0D 06 2C 06
 (001.545832)  can0  200   [4]  FF FF 00 00
 (001.546683)  can0  204   [6]  00 00 00 00 00 00
 (001.549042)  can0  100   [6]  3F 00 BB 01 00 00
 (001.555822)  can0  200   [4]  FF FF 00 00
 (001.556513)  can0  201   [4]  00 00 00 00
 (001.556978)  can0  202   [1]  01
 (001.557841)  can0  204   [6]  00 00 00 00 00 00
 (001.558307)  can0  2FF   [1]  1E
 (001.559135)  can0  100   [6]  3F 00 BB 01 00 00
 (001.559941)  can0  102   [6]  60 06 0D 06 2C 06
 (001.565837)  can0  200   [4]  FF FF 00 00
 (001.566690)  can0  204   [6]  00 00 00 00 00 00
 (001.568785)  can0  100   [6]  3F 00 BB 01 00 00
 (001.569653)  can0  102   [6]  60 06 0D 06 2C 06
 (001.575849)  can0  200   [4]  18 00 FF FF
 (001.576516)  can0  201   [4]  18 02 DD FF
 (001.577373)  can0  204   [6]  00 00 00 00 00 00
 (001.578672)  can0  100   [6]  3F 00 BA 01 00 00
 (001.579344)  can0  101   [4]  FE FF F3 FF
 (001.580138)  can0  102   [6]  60 06 0D 06 2C 06
 (001.580682)  can0  103   [2]  00 04
 (001.581544)  can0  104   [6]  00 00 00 00 00 00
 (001.581990)  can0  1FF   [1]  43
 (001.585815)  can0  200   [4]  18 00 FF FF
 (001.586636)  can0  204   [6]  1F 00 A2 FE 00 00
 (001.588537)  can0  100   [6]  3F 00 B9 01 00 00
 (001.589341)  can0  102   [6]  60 06 0D 06 2C 06
 (001.595838)  can0  200   [4]  18 00 FF FF
 (001.596511)  can0  201   [4]  5D 01 E9 FF
 (001.597330)  can0  204   [6]  2A 00 A2 FE 00 00
 (001.598417)  can0  100   [6]  40 00 BA 01 00 00
 (001.599221)  can0  102   [6]  60 06 0D 06 2C 06
 (001.605814)  can0  200   [4]  18 00 FF FF
 (001.606280)  can0  202   [1]  01
 (001.607102)  can0  204   [6]  32 00 A2 FE 00 00
 (001.607563)  can0  2FF   [1]  1F
 (001.608387)  can0  100   [6]  40 00 BA 01 00 00
 (001.609191)  can0  102   [6]  60 06 0D 06 2C 06
 (001.615828)  can0  200   [4]  18 00 FF FF
 (001.616486)  can0  201   [4]  E3 00 F1 FF
 (001.617319)  can0  204   [6]  30 00 A2 FE 00 00
 (001.618165)  can0  100   [6]  40 00 BA 01 00 00
 (001.618976)  can0  102   [6]  60 06 0D 06 2C 06
 (001.625835)  can0  200   [4]  18 00 FF FF
 (001.626646)  can0  204   [6]  2F 00 A2 FE 00 00
 (001.628062)  can0  100   [6]  41 00 BB 01 00 00
 (001.628733)  can0  101   [4]  07 00 00 00
 (001.629535)  can0  102   [6]  60 06 0D 06 2C 06
 (001.630079)  can0  103   [2]  00 04
 (001.630927)  can0  104   [6]  00 00 00 00 00 00
 (001.631384)  can0  1FF   [1]  44
 (001.635821)  can0  200   [4]  18 00 FF FF
 (001.636489)  can0  201   [4]  60 00 FA FF
 (001.637311)  can0  204   [6]  2A 00 A2 FE 00 00
 (001.638144)  can0  100   [6]  41 00 BB 01 00 00
 (001.638965)  can0  102   [6]  60 06 0D 06 2C 06
 (001.645854)  can0  200   [4]  18 00 FF FF
 (001.646661)  can0  204   [6]  23 00 A2 FE 00 00
 (001.647802)  can0  100   [6]  40 00 BB 01 00 00
 (001.648826)  can0  102   [6]  60 06 0D 06 2C 06
 (001.655829)  can0  200   [4]  18 00 FF FF
 (001.656511)  can0  201   [4]  3E 00 FC FF
 (001.656974)  can0  202   [1]  01
 (001.657799)  can0  100   [6]  3F 00 BB 01 00 00
 (001.658603)  can0  102   [6]  60 06 0D 06 2C 06
 (001.659420)  can0  204   [6]  1D 00 A2 FE 00 00
 (001.659881)  can0  2FF   [1]  20
 (001.665838)  can0  200   [4]  18 00 FF FF
 (001.666656)  can0  204   [6]  18 00 A2 FE 00 00
 (001.667551)  can0  100   [6]  40 00 BC 01 00 00
 (001.668357)  can0  102   [6]  60 06 0D 06 2C 06
 (001.675846)  can0  200   [4]  18 00 FF FF
 (001.676523)  can0  201   [4]  28 00 FD FF
 (001.677355)  can0  204   [6]  14 00 A2 FE 00 00
 (001.678196)  can0  100   [6]  3F 00 BC 01 00 00
 (001.678864)  can0  101   [4]  FA FF FE FF
 (001.679663)  can0  102   [6]  60 06 0D 06 2C 06
 (001.680207)  can0  103   [2]  00 04
 (001.681053)  can0  104   [6]  00 00 00 00 00 00
 (001.681510)  can0  1FF   [1]  45
 (001.685824)  can0  200   [4]  18 00 FF FF
 (001.686634)  can0  204   [6]  11 00 A2 FE 00 00
 (001.687457)  can0  100   [6]  3F 00 BC 01 00 00
 (001.688263)  can0  102   [6]  60 06 0D 06 2C 06
 (001.695829)  can0  200   [4]  18 00 FF FF
 (001.696497)  can0  201   [4]  1A 00 FE FF
 (001.697320)  can0  100   [6]  3F 00 BC 01 00 00
 (001.698123)  can0  102   [6]  60 06 0D 06 2C 06
 (001.698941)  can0  204   [6]  0D 00 C6 FE 00 00
 (001.705825)  can0  200   [4]  18 00 FF FF
 (001.706289)  can0  202   [1]  01
 (001.707107)  can0  100   [6]  3F 00 BC 01 00 00
 (001.707912)  can0  102   [6]  60 06 0D 06 2C 06
 (001.708729)  can0  204   [6]  0B 00 EC FE 00 00
 (001.709184)  can0  2FF   [1]  21
 (001.715908)  can0  200   [4]  18 00 FF FF
 (001.716503)  can0  201   [4]  11 00 FF FF
 (001.717327)  can0  100   [6]  3F 00 BC 01 00 00
 (001.718130)  can0  102   [6]  60 06 0D 06 2C 06
 (001.718978)  can0  204   [6]  08 00 0F FF 00 00
 (001.725841)  can0  200   [4]  18 00 FF FF
 (001.726693)  can0  204   [6]  07 00 27 FF 00 00
 (001.727519)  can0  100   [6]  3F 00 BC 01 00 00
 (001.728191)  can0  101   [4]  FE FF FE FF
 (001.728997)  can0  102   [6]  60 06 0D 06 2C 06
 (001.729542)  can0  103   [2]  00 04
 (001.730389)  can0  104   [6]  00 00 00 00 00 00
 (001.730838)  can0  1FF   [1]  46
 (001.735823)  can0  200   [4]  18 00 FF FF
 (001.736505)  can0  201   [4]  07 00 00 00
 (001.737345)  can0  100   [6]  3E 00 BC 01 00 00
 (001.738148)  can0  102   [6]  60 06 0D 06 2C 06
 (001.738982)  can0  204   [6]  05 00 3D FF 00 00
 (001.745858)  can0  200   [4]  18 00 FF FF
 (001.746693)  can0  100   [6]  3E 00 BC 01 00 00
 (001.747497)  can0  102   [6]  60 06 0D 06 2C 06
 (001.748322)  can0  204   [6]  04 00 50 FF 00 00
 (001.755833)  can0  200   [4]  18 00 FF FF
 (001.756668)  can0  100   [6]  3E 00 BC 01 00 00
 (001.757470)  can0  102   [6]  60 06 0D 06 2C 06
 (001.758150)  can0  201   [4]  05 00 00 00
 (001.758613)  can0  202   [1]  01
 (001.759454)  can0  204   [6]  02 00 5D FF 00 00
 (001.759911)  can0  2FF   [1]  22
 (001.765821)  can0  200   [4]  18 00 FF FF
 (001.766647)  can0  100   [6]  3F 00 BC 01 00 00
 (001.767478)  can0  102   [6]  60 06 0D 06 2C 06
 (001.768284)  can0  204   [6]  02 00 68 FF 00 00
 (001.775869)  can0  200   [4]  18 00 FF FF
 (001.776691)  can0  100   [6]  3F 00 BC 01 00 00
 (001.777363)  can0  101   [4]  00 00 FC FF
 (001.778168)  can0  102   [6]  60 06 0D 06 2C 06
 (001.778712)  can0  103   [2]  00 04
 (001.779560)  can0  104   [6]  00 00 00 00 00 00
 (001.780017)  can0  1FF   [1]  47
 (001.780700)  can0  201   [4]  03 00 00 00
 (001.781538)  can0  204   [6]  01 00 6F FF 00 00
 (001.785829)  can0  200   [4]  18 00 FF FF
 (001.786690)  can0  100   [6]  3E 00 BC 01 00 00
 (001.787470)  can0  102   [6]  60 06 0D 06 2C 06
 (001.788294)  can0  204   [6]  00 00 76 FF 00 00
 (001.795964)  can0  100   [6]  3E 00 BC 01 00 00
 (001.796761)  can0  102   [6]  60 06 0D 06 2C 06
 (001.797457)  can0  200   [4]  18 00 FF FF
 (001.798152)  can0  201   [4]  02 00 00 00
 (001.799002)  can0  204   [6]  00 00 7C FF 00 00
 (001.805847)  can0  100   [6]  3E 00 BC 01 00 00
 (001.806642)  can0  102   [6]  60 06 0D 06 2C 06
 (001.807339)  can0  200   [4]  18 00 FF FF
 (001.807801)  can0  202   [1]  01
 (001.808657)  can0  204   [6]  00 00 7F FF 00 00
 (001.809120)  can0  2FF   [1]  23
 (001.815709)  can0  100   [6]  3E 00 BD 01 00 00
 (001.816511)  can0  102   [6]  60 06 0D 06 2C 06
 (001.817208)  can0  200   [4]  18 00 FF FF
 (001.817887)  can0  201   [4]  01 00 00 00
 (001.818757)  can0  204   [6]  00 00 83 FF 00 00
 (001.825593)  can0  100   [6]  3E 00 BC 01 00 00
 (001.826256)  can0  101   [4]  FE FF 00 00
 (001.827064)  can0  102   [6]  60 06 0D 06 2C 06
 (001.827608)  can0  103   [2]  00 04
 (001.828455)  can0  104   [6]  00 00 00 00 00 00
 (001.828904)  can0  1FF   [1]  48
 (001.829603)  can0  200   [4]  18 00 FF FF
 (001.830435)  can0  204   [6]  00 00 85 FF 00 00
 (001.835470)  can0  100   [6]  3E 00 BC 01 00 00
 (001.836273)  can0  102   [6]  60 06 0D 06 2C 06
 (001.836970)  can0  200   [4]  18 00 FF FF
 (001.837649)  can0  201   [4]  01 00 00 00
 (001.838495)  can0  204   [6]  00 00 87 FF 00 00
 (001.845322)  can0  100   [6]  3D 00 BC 01 00 00
 (001.846120)  can0  102   [6]  60 06 0D 06 2C 06
 (001.846817)  can0  200   [4]  18 00 FF FF
 (001.847656)  can0  204   [6]  00 00 88 FF 00 00
 (001.855197)  can0  100   [6]  3D 00 BC 01 00 00
 (001.856005)  can0  102   [6]  60 06 0D 06 2C 06
 (001.856701)  can0  200   [4]  18 00 FF FF
 (001.857396)  can0  201   [4]  00 00 00 00
 (001.857860)  can0  202   [1]  01
 (001.858699)  can0  204   [6]  00 00 89 FF 00 00
 (001.859163)  can0  2FF   [1]  24
 (001.865101)  can0  100   [6]  3E 00 BC 01 00 00
 (001.865901)  can0  102   [6]  60 06 0D 06 2C 06
 (001.866598)  can0  200   [4]  18 00 FF FF
 (001.867437)  can0  204   [6]  00 00 8B FF 00 00
 (001.874964)  can0  100   [6]  3F 00 BC 01 00 00
 (001.875620)  can0  101   [4]  F7 FF 03 00
 (001.876427)  can0  102   [6]  60 06 0D 06 2C 06
 (001.876971)  can0  103   [2]  00 04
 (001.877816)  can0  104   [6]  00 00 00 00 00 00
 (001.878268)  can0  1FF   [1]  49
 (001.878962)  can0  200   [4]  18 00 FF FF
 (001.879660)  can0  201   [4]  00 00 00 00
 (001.880489)  can0  204   [6]  00 00 8C FF 00 00
 (001.884857)  can0  100   [6]  3F 00 BD 01 00 00
 (001.885659)  can0  102   [6]  60 06 0D 06 2C 06
 (001.886355)  can0  200   [4]  18 00 FF FF
 (001.887184)  can0  204   [6]  00 00 8C FF 00 00
 (001.894726)  can0  100   [6]  40 00 BD 01 00 00
 (001.895520)  can0  102   [6]  60 06 0D 06 2C 06
 (001.896217)  can0  200   [4]  18 00 FF FF
 (001.896913)  can0  201   [4]  00 00 00 00
 (001.897744)  can0  204   [6]  00 00 8D FF 00 00
 (001.904605)  can0  100   [6]  40 00 BB 01 00 00
 (001.905404)  can0  102   [6]  60 06 0D 06 2C 06
 (001.906100)  can0  200   [4]  18 00 FF FF
 (001.906562)  can0  202   [1]  01
 (001.907399)  can0  204   [6]  00 00 8D FF 00 00
 (001.907854)  can0  2FF   [1]  25
 (001.914480)  can0  100   [6]  40 00 BB 01 00 00
 (001.915277)  can0  102   [6]  60 06 0D 06 2C 06
 (001.915974)  can0  200   [4]  18 00 FF FF
 (001.916673)  can0  201   [4]  00 00 00 00
 (001.917505)  can0  204   [6]  00 00 8E FF 00 00
 (001.924364)  can0  100   [6]  40 00 BC 01 00 00
 (001.925040)  can0  101   [4]  FD FF 02 00
 (001.925846)  can0  102   [6]  60 06 0D 06 2C 06
 (001.926390)  can0  103   [2]  00 04
 (001.927243)  can0  104   [6]  00 00 00 00 00 00
 (001.927688)  can0  1FF   [1]  4A
 (001.928386)  can0  200   [4]  18 00 FF FF
 (001.929220)  can0  204   [6]  00 00 8E FF 00 00
 (001.934236)  can0  100   [6]  40 00 BB 01 00 00
 (001.935033)  can0  102   [6]  60 06 0D 06 2C 06
 (001.935819)  can0  200   [4]  18 00 FF FF
 (001.936511)  can0  201   [4]  00 00 00 00
 (001.937343)  can0  204   [6]  00 00 8E FF 00 00
 (001.944112)  can0  100   [6]  40 00 BC 01 00 00
 (001.944906)  can0  102   [6]  60 06 0D 06 2C 06
 (001.945811)  can0  200   [4]  18 00 FF FF
 (001.946640)  can0  204   [6]  00 00 8E FF 00 00
 (001.953980)  can0  100   [6]  40 00 BC 01 00 00
 (001.954780)  can0  102   [6]  60 06 0D 06 2C 06
 (001.955822)  can0  200   [4]  18 00 FF FF
 (001.956516)  can0  201   [4]  00 00 00 00
 (001.956978)  can0  202   [1]  01
 (001.957810)  can0  204   [6]  00 00 8E FF 00 00
 (001.958273)  can0  2FF   [1]  26
 (001.963863)  can0  100   [6]  40 00 BB 01 00 00
 (001.964662)  can0  102   [6]  60 06 0D 06 2C 06
 (001.965823)  can0  200   [4]  18 00 FF FF
 (001.966651)  can0  204   [6]  00 00 8E FF 00 00
 (001.973739)  can0  100   [6]  41 00 BB 01 00 00
 (001.974403)  can0  101   [4]  FE FF 03 00
 (001.975210)  can0  102   [6]  60 06 0D 06 2C 06
 (001.975756)  can0  103   [2]  00 04
 (001.976603)  can0  104   [6]  00 00 00 00 00 00
 (001.977047)  can0  1FF   [1]  4B
 (001.977746)  can0  200   [4]  18 00 FF FF
 (001.978463)  can0  201   [4]  00 00 00 00
 (001.979275)  can0  204   [6]  00 00 8E FF 00 00
 (001.983604)  can0  100   [6]  42 00 BB 01 00 00
 (001.984403)  can0  102   [6]  60 06 0D 06 2C 06
 (001.985820)  can0  200   [4]  18 00 FF FF
 (001.986650)  can0  204   [6]  00 00 8E FF 00 00
 (001.993487)  can0  100   [6]  42 00 BB 01 00 00
 (001.994294)  can0  102   [6]  60 06 0D 06 2C 06
 (001.995829)  can0  200   [4]  18 00 FF FF
 (001.996524)  can0  201   [4]  00 00 00 00
 (001.997360)  can0  204   [6]  00 00 8E FF 00 00
 (002.003369)  can0  100   [6]  41 00 BB 01 00 00
 (002.004168)  can0  102   [6]  60 06 0D 06 2C 06
 (002.005817)  can0  200   [4]  18 00 FF FF
 (002.006282)  can0  202   [1]  01
 (002.007111)  can0  204   [6]  00 00 8E FF 00 00
 (002.007582)  can0  2FF   [1]  27
 (002.013232)  can0  100   [6]  40 00 BA 01 00 00
 (002.014030)  can0  102   [6]  60 06 0D 06 2C 06
 (002.015808)  can0  200   [4]  18 00 FF FF
 (002.016504)  can0  201   [4]  00 00 00 00
 (002.017334)  can0  204   [6]  00 00 8E FF 00 00
 (002.023107)  can0  100   [6]  3F 00 BA 01 00 00
 (002.023765)  can0  101   [4]  00 00 F0 FF
 (002.024572)  can0  102   [6]  60 06 0D 06 2C 06
 (002.025136)  can0  103   [2]  00 04
 (002.025966)  can0  104   [6]  00 00 00 00 00 00
 (002.026595)  can0  1FF   [1]  4C
 (002.027121)  can0  200   [4]  18 00 FF FF
 (002.027956)  can0  204   [6]  00 00 8E FF 00 00
 (002.032984)  can0  100   [6]  3F 00 BA 01 00 00
 (002.033779)  can0  102   [6]  60 06 0D 06 2C 06
 (002.035815)  can0  200   [4]  18 00 FF FF
 (002.036508)  can0  201   [4]  00 00 00 00
 (002.037339)  can0  204   [6]  00 00 8E FF 00 00
 (002.042869)  can0  100   [6]  3F 00 BA 01 00 00
 (002.043662)  can0  102   [6]  60 06 0D 06 2C 06
 (002.045823)  can0  200   [4]  18 00 FF FF
 (002.046652)  can0  204   [6]  00 00 8E FF 00 00
 (002.052730)  can0  100   [6]  3F 00 BA 01 00 00
 (002.053534)  can0  102   [6]  60 06 0D 06 2C 06
 (002.055813)  can0  200   [4]  18 00 FF FF
 (002.056508)  can0  201   [4]  00 00 00 00
 (002.056970)  can0  202   [1]  01
 (002.057801)  can0  204   [6]  00 00 8E FF 00 00
 (002.058257)  can0  2FF   [1]  28
 (002.062626)  can0  100   [6]  3F 00 BB 01 00 00
 (002.063417)  can0  102   [6]  60 06 0D 06 2C 06
 (002.065839)  can0  200   [4]  18 00 FF FF
 (002.066664)  can0  204   [6]  00 00 8E FF 00 00
 (002.072485)  can0  100   [6]  3F 00 BB 01 00 00
 (002.073147)  can0  101   [4]  FA FF 00 00
 (002.073953)  can0  102   [6]  60 06 0D 06 2C 06
 (002.074504)  can0  103   [2]  00 04
 (002.075346)  can0  104   [6]  00 00 00 00 00 00
 (002.075794)  can0  1FF   [1]  4D
 (002.076492)  can0  200   [4]  18 00 FF FF
 (002.077190)  can0  201   [4]  00 00 00 00
 (002.078021)  can0  204   [6]  00 00 8E FF 00 00
 (002.082373)  can0  100   [6]  3F 00 BB 01 00 00
 (002.083167)  can0  102   [6]  60 06 0D 06 2C 06
 (002.085823)  can0  200   [4]  18 00 FF FF
 (002.086652)  can0  204   [6]  00 00 8E FF 00 00
 (002.092263)  can0  100   [6]  3E 00 BB 01 00 00
 (002.093051)  can0  102   [6]  60 06 0D 06 2C 06
 (002.095842)  can0  200   [4]  18 00 FF FF
 (002.096534)  can0  201   [4]  00 00 00 00
 (002.097375)  can0  204   [6]  00 00 8E FF 00 00
 (002.102132)  can0  100   [6]  3E 00 BB 01 00 00
 (002.102920)  can0  102   [6]  60 06 0D 06 2C 06
 (002.105826)  can0  200   [4]  18 00 FF FF
 (002.106286)  can0  202   [1]  01
 (002.107118)  can0  204   [6]  00 00 8E FF 00 00
 (002.107572)  can0  2FF   [1]  29
 (002.111996)  can0  100   [6]  3F 00 BC 01 00 00
 (002.112792)  can0  102   [6]  60 06 0D 06 2C 06
 (002.115831)  can0  200   [4]  18 00 FF FF
 (002.116524)  can0  201   [4]  00 00 00 00
 (002.117356)  can0  204   [6]  00 00 8E FF 00 00
 (002.121876)  can0  100   [6]  3E 00 BB 01 00 00
 (002.122529)  can0  101   [4]  F9 FF FA FF
 (002.123946)  can0  103   [2]  00 04
 (002.124789)  can0  104   [6]  00 00 00 00 00 00
 (002.125246)  can0  1FF   [1]  4E
 (002.125945)  can0  200   [4]  18 00 FF FF
 (002.126775)  can0  204   [6]  00 00 8E FF 00 00
 (002.131762)  can0  100   [6]  3E 00 BB 01 00 00
 (002.132542)  can0  102   [6]  60 06 0D 06 2C 06
 (002.135831)  can0  200   [4]  18 00 FF FF
 (002.136523)  can0  201   [4]  00 00 00 00
 (002.137354)  can0  204   [6]  00 00 8E FF 00 00
 (002.141623)  can0  100   [6]  3E 00 BB 01 00 00
 (002.142425)  can0  102   [6]  60 06 0D 06 2C 06
 (002.145858)  can0  200   [4]  18 00 FF FF
 (002.146680)  can0  204   [6]  00 00 8E FF 00 00
 (002.151497)  can0  100   [6]  3E 00 BB 01 00 00
 (002.152293)  can0  102   [6]  60 06 0D 06 2C 06
 (002.155820)  can0  200   [4]  18 00 FF FF
 (002.156517)  can0  201   [4]  00 00 00 00
 (002.156979)  can0  202   [1]  01
 (002.157809)  can0  204   [6]  00 00 8E FF 00 00
 (002.158265)  can0  2FF   [1]  2A
 (002.161353)  can0  100   [6]  3F 00 BB 01 00 00
 (002.165818)  can0  200   [4]  18 00 FF FF
 (002.166644)  can0  204   [6]  00 00 8E FF 00 00
 (002.171215)  can0  100   [6]  3F 00 BB 01 00 00
 (002.171874)  can0  101   [4]  0B 00 F6 FF
 (002.173294)  can0  103   [2]  00 04
 (002.174140)  can0  104   [6]  00 00 00 00 00 00
 (002.174583)  can0  1FF   [1]  4F
 (002.175809)  can0  200   [4]  18 00 FF FF
 (002.176506)  can0  201   [4]  00 00 00 00
 (002.177337)  can0  204   [6]  00 00 8E FF 00 00
 (002.181093)  can0  100   [6]  3E 00 BB 01 00 00
 (002.181895)  can0  102   [6]  60 06 0D 06 2C 06
 (002.185814)  can0  200   [4]  18 00 FF FF
 (002.186644)  can0  204   [6]  00 00 8E FF 00 00
 (002.190965)  can0  100   [6]  3F 00 BA 01 00 00
 (002.191764)  can0  102   [6]  60 06 0D 06 2C 06
 (002.195829)  can0  200   [4]  18 00 FF FF
 (002.196528)  can0  201   [4]  00 00 00 00
 (002.197355)  can0  204   [6]  00 00 8E FF 00 00
 (002.200839)  can0  100   [6]  40 00 BC 01 00 00
 (002.205802)  can0  200   [4]  18 00 FF FF
 (002.206266)  can0  202   [1]  01
 (002.207099)  can0  204   [6]  00 00 8E FF 00 00
 (002.207563)  can0  2FF   [1]  2B
 (002.210706)  can0  100   [6]  40 00 BC 01 00 00
 (002.211512)  can0  102   [6]  60 06 0D 06 2C 06
 (002.215817)  can0  200   [4]  18 00 FF FF
 (002.216510)  can0  201   [4]  00 00 00 00
 (002.217342)  can0  204   [6]  00 00 8E FF 00 00
 (002.220564)  can0  100   [6]  3F 00 BC 01 00 00
 (002.221231)  can0  101   [4]  FE FF 00 00
 (002.222039)  can0  102   [6]  60 06 0D 06 2C 06
 (002.222583)  can0  103   [2]  00 04
 (002.223436)  can0  104   [6]  00 00 00 00 00 00
 (002.223899)  can0  1FF   [1]  50
 (002.225811)  can0  200   [4]  18 00 FF FF
 (002.226641)  can0  204   [6]  00 00 8E FF 00 00
 (002.230463)  can0  100   [6]  3F 00 BC 01 00 00
 (002.231256)  can0  102   [6]  60 06 0D 06 2C 06
 (002.235835)  can0  200   [4]  18 00 FF FF
 (002.236529)  can0  201   [4]  00 00 00 00
 (002.237377)  can0  204   [6]  00 00 8E FF 00 00
 (002.240333)  can0  100   [6]  40 00 BC 01 00 00
 (002.241131)  can0  102   [6]  60 06 0D 06 2C 06
 (002.245836)  can0  200   [4]  18 00 FF FF
 (002.246663)  can0  204   [6]  00 00 8E FF 00 00
 (002.250199)  can0  100   [6]  40 00 BB 01 00 00
 (002.251000)  can0  102   [6]  60 06 0D 06 2C 06
 (002.255820)  can0  200   [4]  18 00 FF FF
 (002.256505)  can0  201   [4]  00 00 00 00
 (002.256968)  can0  202   [1]  01
 (002.257799)  can0  204   [6]  00 00 8E FF 00 00
 (002.258264)  can0  2FF   [1]  2C
 (002.260080)  can0  100   [6]  40 00 BB 01 00 00
 (002.260877)  can0  102   [6]  60 06 0D 06 2C 06
 (002.265820)  can0  200   [4]  18 00 FF FF
 (002.266648)  can0  204   [6]  00 00 8E FF 00 00
 (002.269944)  can0  100   [6]  40 00 BB 01 00 00
 (002.270618)  can0  101   [4]  09 00 02 00
 (002.271427)  can0  102   [6]  60 06 0D 06 2C 06
 (002.271970)  can0  103   [2]  00 04
 (002.272823)  can0  104   [6]  00 00 00 00 00 00
 (002.273271)  can0  1FF   [1]  51
 (002.275815)  can0  200   [4]  18 00 FF FF
 (002.276512)  can0  201   [4]  00 00 00 00
 (002.277348)  can0  204   [6]  00 00 8E FF 00 00
 (002.279822)  can0  100   [6]  3F 00 BB 01 00 00
 (002.280623)  can0  102   [6]  60 06 0D 06 2C 06
 (002.285816)  can0  200   [4]  18 00 FF FF
 (002.286646)  can0  204   [6]  00 00 8E FF 00 00
 (002.289705)  can0  100   [6]  40 00 BB 01 00 00
 (002.290500)  can0  102   [6]  60 06 0D 06 2C 06
 (002.295840)  can0  200   [4]  18 00 FF FF
 (002.296532)  can0  201   [4]  00 00 00 00
 (002.297363)  can0  204   [6]  00 00 8E FF 00 00
 (002.299578)  can0  100   [6]  40 00 BC 01 00 00
 (002.300384)  can0  102   [6]  60 06 0D 06 2C 06
 (002.305819)  can0  200   [4]  18 00 FF FF
 (002.306337)  can0  202   [1]  01
 (002.307112)  can0  204   [6]  00 00 8E FF 00 00
 (002.307576)  can0  2FF   [1]  2D
 (002.309451)  can0  100   [6]  40 00 BD 01 00 00
 (002.310256)  can0  102   [6]  60 06 0D 06 2C 06
 (002.315818)  can0  200   [4]  18 00 FF FF
 (002.316512)  can0  201   [4]  00 00 00 00
 (002.317343)  can0  204   [6]  00 00 8E FF 00 00
 (002.319326)  can0  100   [6]  40 00 BD 01 00 00
 (002.320012)  can0  101   [4]  FF FF FF FF
 (002.320819)  can0  102   [6]  60 06 0D 06 2C 06
 (002.321363)  can0  103   [2]  00 04
 (002.322209)  can0  104   [6]  00 00 00 00 00 00
 (002.322659)  can0  1FF   [1]  52
 (002.325827)  can0  200   [4]  18 00 FF FF
 (002.326654)  can0  204   [6]  00 00 8E FF 00 00
 (002.329221)  can0  100   [6]  40 00 BE 01 00 00
 (002.330021)  can0  102   [6]  60 06 0D 06 2C 06
 (002.335817)  can0  200   [4]  18 00 FF FF
 (002.336509)  can0  201   [4]  00 00 00 00
 (002.337340)  can0  204   [6]  00 00 8E FF 00 00
 (002.339086)  can0  100   [6]  41 00 BD 01 00 00
 (002.339886)  can0  102   [6]  60 06 0D 06 2C 06
 (002.345832)  can0  200   [4]  18 00 FF FF
 (002.346656)  can0  204   [6]  00 00 8E FF 00 00
 (002.348962)  can0  100   [6]  41 00 BD 01 00 00
 (002.349773)  can0  102   [6]  60 06 0D 06 2C 06
 (002.355818)  can0  200   [4]  18 00 FF FF
 (002.356517)  can0  201   [4]  00 00 00 00
 (002.356976)  can0  202   [1]  01
 (002.357806)  can0  204   [6]  00 00 8E FF 00 00
 (002.358269)  can0  2FF   [1]  2E
 (002.359103)  can0  100   [6]  41 00 BD 01 00 00
 (002.359906)  can0  102   [6]  60 06 0D 06 2C 06
 (002.365839)  can0  200   [4]  18 00 FF FF
 (002.366666)  can0  204   [6]  00 00 8E FF 00 00
 (002.368706)  can0  100   [6]  40 00 BD 01 00 00
 (002.369382)  can0  101   [4]  08 00 08 00
 (002.370189)  can0  102   [6]  60 06 0D 06 2C 06
 (002.370733)  can0  103   [2]  00 04
 (002.371580)  can0  104   [6]  00 00 00 00 00 00
 (002.372042)  can0  1FF   [1]  53
 (002.375819)  can0  200   [4]  18 00 FF FF
 (002.376516)  can0  201   [4]  00 00 00 00
 (002.377349)  can0  204   [6]  00 00 8E FF 00 00
 (002.378586)  can0  100   [6]  40 00 BC 01 00 00
 (002.379391)  can0  102   [6]  60 06 0D 06 2C 06
 (002.385818)  can0  200   [4]  18 00 FF FF
 (002.386647)  can0  204   [6]  00 00 8E FF 00 00
 (002.388449)  can0  100   [6]  3F 00 BC 01 00 00
 (002.389253)  can0  102   [6]  60 06 0D 06 2C 06
 (002.395852)  can0  200   [4]  18 00 FF FF
 (002.396546)  can0  201   [4]  00 00 00 00
 (002.397375)  can0  204   [6]  00 00 8E FF 00 00
 (002.398326)  can0  100   [6]  3F 00 BC 01 00 00
 (002.399128)  can0  102   [6]  60 06 0D 06 2C 06
 (002.405827)  can0  200   [4]  18 00 FF FF
 (002.406290)  can0  202   [1]  01
 (002.407123)  can0  204   [6]  00 00 8E FF 00 00
 (002.407578)  can0  2FF   [1]  2F
 (002.408418)  can0  100   [6]  3E 00 BC 01 00 00
 (002.409220)  can0  102   [6]  60 06 0D 06 2C 06
 (002.415826)  can0  200   [4]  18 00 FF FF
 (002.416519)  can0  201   [4]  00 00 00 00
 (002.417347)  can0  204   [6]  00 00 8E FF 00 00
 (002.418165)  can0  100   [6]  3D 00 BC 01 00 00
 (002.418840)  can0  101   [4]  FB FF FE FF
 (002.419648)  can0  102   [6]  60 06 0D 06 2C 06
 (002.420193)  can0  103   [2]  00 04
 (002.421039)  can0  104   [6]  00 00 00 00 00 00
 (002.421497)  can0  1FF   [1]  54
 (002.425823)  can0  200   [4]  18 00 FF FF
 (002.426656)  can0  204   [6]  00 00 8E FF 00 00
 (002.427960)  can0  100   [6]  3D 00 BB 01 00 00
 (002.428747)  can0  102   [6]  60 06 0D 06 2C 06
 (002.435820)  can0  200   [4]  18 00 FF FF
 (002.436513)  can0  201   [4]  00 00 00 00
 (002.437343)  can0  204   [6]  00 00 8E FF 00 00
 (002.438183)  can0  100   [6]  3E 00 BC 01 00 00
 (002.438994)  can0  102   [6]  60 06 0D 06 2C 06
 (002.445852)  can0  200   [4]  18 00 FF FF
 (002.446680)  can0  204   [6]  00 00 8E FF 00 00
 (002.447700)  can0  100   [6]  3D 00 BC 01 00 00
 (002.448501)  can0  102   [6]  60 06 0D 06 2C 06
 (002.455816)  can0  200   [4]  18 00 FF FF
 (002.456514)  can0  201   [4]  00 00 00 00
 (002.456973)  can0  202   [1]  01
 (002.457792)  can0  100   [6]  3D 00 BC 01 00 00
 (002.458609)  can0  102   [6]  60 06 0D 06 2C 06
 (002.459417)  can0  204   [6]  00 00 8E FF 00 00
 (002.459897)  can0  2FF   [1]  30
 (002.465829)  can0  200   [4]  18 00 FF FF
 (002.466656)  can0  204   [6]  00 00 8E FF 00 00
 (002.467488)  can0  100   [6]  3D 00 BD 01 00 00
 (002.468152)  can0  101   [4]  03 00 FB FF
 (002.468958)  can0  102   [6]  60 06 0D 06 2C 06
 (002.469501)  can0  103   [2]  00 04
 (002.470347)  can0  104   [6]  00 00 00 00 00 00
 (002.470795)  can0  1FF   [1]  55
 (002.475833)  can0  200   [4]  18 00 FF FF
 (002.476527)  can0  201   [4]  00 00 00 00
 (002.477342)  can0  100   [6]  3D 00 BC 01 00 00
 (002.478144)  can0  102   [6]  60 06 0D 06 2C 06
 (002.478968)  can0  204   [6]  00 00 8E FF 00 00
 (002.485811)  can0  200   [4]  18 00 FF FF
 (002.486640)  can0  204   [6]  00 00 8E FF 00 00
 (002.487454)  can0  100   [6]  3D 00 BC 01 00 00
 (002.488259)  can0  102   [6]  60 06 0D 06 2C 06
 (002.495849)  can0  200   [4]  18 00 FF FF
 (002.496540)  can0  201   [4]  00 00 00 00
 (002.497371)  can0  100   [6]  3E 00 BD 01 00 00
 (002.498174)  can0  102   [6]  60 06 0D 06 2C 06
 (002.499000)  can0  204   [6]  00 00 8E FF 00 00
 (002.505819)  can0  200   [4]  18 00 FF FF
 (002.506283)  can0  202   [1]  01
 (002.507118)  can0  100   [6]  3E 00 BD 01 00 00
 (002.507916)  can0  102   [6]  60 06 0D 06 2C 06
 (002.508740)  can0  204   [6]  00 00 8E FF 00 00
 (002.509216)  can0  2FF   [1]  31
 (002.515832)  can0  200   [4]  18 00 FF FF
 (002.516524)  can0  201   [4]  00 00 00 00
 (002.517364)  can0  100   [6]  3F 00 BD 01 00 00
 (002.518024)  can0  101   [4]  03 00 F9 FF
 (002.518832)  can0  102   [6]  60 06 0D 06 2C 06
 (002.519375)  can0  103   [2]  00 04
 (002.520222)  can0  104   [6]  00 00 00 00 00 00
 (002.520679)  can0  1FF   [1]  56
 (002.521506)  can0  204   [6]  00 00 8E FF 00 00
 (002.525849)  can0  200   [4]  18 00 FF FF
 (002.526673)  can0  204   [6]  00 00 8E FF 00 00
 (002.527509)  can0  100   [6]  40 00 BD 01 00 00
 (002.528313)  can0  102   [6]  60 06 0D 06 2C 06
 (002.535824)  can0  200   [4]  18 00 FF FF
 (002.536652)  can0  100   [6]  40 00 BD 01 00 00
 (002.537456)  can0  102   [6]  60 06 0D 06 2C 06
 (002.538145)  can0  201   [4]  00 00 00 00
 (002.538978)  can0  204   [6]  00 00 8E FF 00 00
 (002.545841)  can0  200   [4]  18 00 FF FF
 (002.546659)  can0  100   [6]  3F 00 BC 01 00 00
 (002.547469)  can0  102   [6]  60 06 0D 06 2C 06
 (002.548285)  can0  204   [6]  00 00 8E FF 00 00
 (002.555815)  can0  200   [4]  18 00 FF FF
 (002.556649)  can0  100   [6]  3F 00 BC 01 00 00
 (002.557450)  can0  102   [6]  60 06 0D 06 2C 06
 (002.558141)  can0  201   [4]  00 00 00 00
 (002.558597)  can0  202   [1]  01
 (002.559430)  can0  204   [6]  00 00 8E FF 00 00
 (002.559892)  can0  2FF   [1]  32
 (002.565832)  can0  200   [4]  18 00 FF FF
 (002.566663)  can0  100   [6]  40 00 BC 01 00 00
 (002.567349)  can0  101   [4]  00 00 00 00
 (002.568142)  can0  102   [6]  60 06 0D 06 2C 06
 (002.568687)  can0  103   [2]  00 04
 (002.569532)  can0  104   [6]  00 00 00 00 00 00
 (002.569982)  can0  1FF   [1]  57
 (002.570824)  can0  204   [6]  00 00 8E FF 00 00
 (002.575837)  can0  200   [4]  18 00 FF FF
 (002.576658)  can0  100   [6]  40 00 BC 01 00 00
 (002.577462)  can0  102   [6]  60 06 0D 06 2C 06
 (002.578149)  can0  201   [4]  00 00 00 00
 (002.578981)  can0  204   [6]  00 00 8E FF 00 00
 (002.585817)  can0  200   [4]  18 00 FF FF
 (002.586644)  can0  100   [6]  40 00 BC 01 00 00
 (002.587449)  can0  102   [6]  60 06 0D 06 2C 06
 (002.588272)  can0  204   [6]  00 00 8E FF 00 00
 (002.595846)  can0  100   [6]  3F 00 BB 01 00 00
 (002.596648)  can0  102   [6]  60 06 0D 06 2C 06
 (002.597342)  can0  200   [4]  18 00 FF FF
 (002.598038)  can0  201   [4]  00 00 00 00
 (002.598867)  can0  204   [6]  00 00 8E FF 00 00
 (002.605723)  can0  100   [6]  3E 00 BB 01 00 00
 (002.606530)  can0  102   [6]  60 06 0D 06 2C 06
 (002.607226)  can0  200   [4]  18 00 FF FF
 (002.607687)  can0  202   [1]  01
 (002.608524)  can0  204   [6]  00 00 8E FF 00 00
 (002.608974)  can0  2FF   [1]  33
 (002.615612)  can0  100   [6]  3E 00 BB 01 00 00
 (002.616284)  can0  101   [4]  07 00 00 00
 (002.617090)  can0  102   [6]  60 06 0D 06 2C 06
 (002.617640)  can0  103   [2]  00 04
 (002.618482)  can0  104   [6]  00 00 00 00 00 00
 (002.618932)  can0  1FF   [1]  58
 (002.619628)  can0  200   [4]  18 00 FF FF
 (002.620326)  can0  201   [4]  00 00 00 00
 (002.621156)  can0  204   [6]  00 00 8E FF 00 00
 (002.625490)  can0  100   [6]  3E 00 BB 01 00 00
 (002.626285)  can0  102   [6]  60 06 0D 06 2C 06
 (002.626984)  can0  200   [4]  18 00 FF FF
 (002.627817)  can0  204   [6]  00 00 8E FF 00 00
 (002.635360)  can0  100   [6]  3E 00 BB 01 00 00
 (002.636160)  can0  102   [6]  60 06 0D 06 2C 06
 (002.636858)  can0  200   [4]  18 00 FF FF
 (002.637552)  can0  201   [4]  00 00 00 00
 (002.638384)  can0  204   [6]  00 00 8E FF 00 00
 (002.645240)  can0  100   [6]  3F 00 BC 01 00 00
 (002.646040)  can0  102   [6]  60 06 0D 06 2C 06
 (002.646735)  can0  200   [4]  18 00 FF FF
 (002.647565)  can0  204   [6]  00 00 8E FF 00 00
 (002.655116)  can0  100   [6]  3F 00 BC 01 00 00
 (002.655916)  can0  102   [6]  60 06 0D 06 2C 06
 (002.656612)  can0  200   [4]  18 00 FF FF
 (002.657314)  can0  201   [4]  00 00 00 00
 (002.657774)  can0  202   [1]  01
 (002.658605)  can0  204   [6]  00 00 8E FF 00 00
 (002.659060)  can0  2FF   [1]  34
 (002.665022)  can0  100   [6]  3E 00 BC 01 00 00
 (002.665693)  can0  101   [4]  06 00 00 00
 (002.666501)  can0  102   [6]  60 06 0D 06 2C 06
 (002.667043)  can0  103   [2]  00 04
 (002.667889)  can0  104   [6]  00 00 00 00 00 00
 (002.668341)  can0  1FF   [1]  59
 (002.669040)  can0  200   [4]  18 00 FF FF
 (002.669872)  can0  204   [6]  00 00 8E FF 00 00
 (002.674893)  can0  100   [6]  3E 00 BC 01 00 00
 (002.675689)  can0  102   [6]  60 06 0D 06 2C 06
 (002.676385)  can0  200   [4]  18 00 FF FF
 (002.677080)  can0  201   [4]  00 00 00 00
 (002.677923)  can0  204   [6]  00 00 8E FF 00 00
 (002.684841)  can0  100   [6]  3E 00 BC 01 00 00
 (002.685597)  can0  102   [6]  60 06 0D 06 2C 06
 (002.686267)  can0  200   [4]  18 00 FF FF
 (002.687302)  can0  204   [6]  00 00 8E FF 00 00
 (002.694645)  can0  100   [6]  3E 00 BC 01 00 00
 (002.695443)  can0  102   [6]  60 06 0D 06 2C 06
 (002.696142)  can0  200   [4]  18 00 FF FF
 (002.696839)  can0  201   [4]  00 00 00 00
 (002.697666)  can0  204   [6]  00 00 8E FF 00 00
 (002.704526)  can0  100   [6]  3E 00 BC 01 00 00
 (002.705323)  can0  102   [6]  60 06 0D 06 2C 06
 (002.706020)  can0  200   [4]  18 00 FF FF
 (002.706485)  can0  202   [1]  01
 (002.707321)  can0  204   [6]  00 00 8E FF 00 00
 (002.707780)  can0  2FF   [1]  35
 (002.714398)  can0  100   [6]  3F 00 BC 01 00 00
 (002.715058)  can0  101   [4]  00 00 08 00
 (002.715864)  can0  102   [6]  60 06 0D 06 2C 06
 (002.716410)  can0  103   [2]  00 04
 (002.717256)  can0  104   [6]  00 00 00 00 00 00
 (002.717706)  can0  1FF   [1]  5A
 (002.718413)  can0  200   [4]  18 00 FF FF
 (002.719099)  can0  201   [4]  00 00 00 00
 (002.719930)  can0  204   [6]  00 00 8E FF 00 00
 (002.724273)  can0  100   [6]  3F 00 BD 01 00 00
 (002.725075)  can0  102   [6]  60 06 0D 06 2C 06
 (002.725817)  can0  200   [4]  18 00 FF FF
 (002.726648)  can0  204   [6]  00 00 8E FF 00 00
 (002.734165)  can0  100   [6]  3F 00 BD 01 00 00
 (002.734968)  can0  102   [6]  60 06 0D 06 2C 06
 (002.735808)  can0  200   [4]  18 00 FF FF
 (002.736502)  can0  201   [4]  00 00 00 00
 (002.737333)  can0  204   [6]  00 00 8E FF 00 00
 (002.744039)  can0  100   [6]  3F 00 BD 01 00 00
 (002.744840)  can0  102   [6]  60 06 0D 06 2C 06
 (002.745812)  can0  200   [4]  18 00 FF FF
 (002.746642)  can0  204   [6]  00 00 8E FF 00 00
 (002.753898)  can0  100   [6]  40 00 BD 01 00 00
 (002.754701)  can0  102   [6]  60 06 0D 06 2C 06
 (002.755810)  can0  200   [4]  18 00 FF FF
 (002.756508)  can0  201   [4]  00 00 00 00
 (002.756967)  can0  202   [1]  01
 (002.757802)  can0  204   [6]  00 00 8E FF 00 00
 (002.758258)  can0  2FF   [1]  36
 (002.763784)  can0  100   [6]  40 00 BD 01 00 00
 (002.764451)  can0  101   [4]  03 00 0E 00
 (002.765254)  can0  102   [6]  60 06 0D 06 2C 06
 (002.765800)  can0  103   [2]  00 04
 (002.766646)  can0  104   [6]  00 00 00 00 00 00
 (002.767103)  can0  1FF   [1]  5B
 (002.767802)  can0  200   [4]  18 00 FF FF
 (002.768631)  can0  204   [6]  00 00 8E FF 00 00
 (002.773652)  can0  100   [6]  40 00 BC 01 00 00
 (002.774465)  can0  102   [6]  60 06 0D 06 2C 06
 (002.775815)  can0  200   [4]  18 00 FF FF
 (002.776509)  can0  201   [4]  00 00 00 00
 (002.777340)  can0  204   [6]  00 00 8E FF 00 00
 (002.783540)  can0  100   [6]  40 00 BC 01 00 00
 (002.784333)  can0  102   [6]  60 06 0D 06 2C 06
 (002.785814)  can0  200   [4]  18 00 FF FF
 (002.786643)  can0  204   [6]  00 00 8E FF 00 00
 (002.793418)  can0  100   [6]  40 00 BD 01 00 00
 (002.794204)  can0  102   [6]  60 06 0D 06 2C 06
 (002.795821)  can0  200   [4]  18 00 FF FF
 (002.796517)  can0  201   [4]  00 00 00 00
 (002.797348)  can0  204   [6]  00 00 8E FF 00 00
 (002.803289)  can0  100   [6]  41 00 BC 01 00 00
 (002.804076)  can0  102   [6]  60 06 0D 06 2C 06
 (002.805809)  can0  200   [4]  18 00 FF FF
 (002.806268)  can0  202   [1]  01
 (002.807100)  can0  204   [6]  00 00 8E FF 00 00
 (002.807563)  can0  2FF   [1]  37
 (002.813151)  can0  100   [6]  41 00 BD 01 00 00
 (002.813810)  can0  101   [4]  06 00 FE FF
 (002.814618)  can0  102   [6]  60 06 0D 06 2C 06
 (002.815162)  can0  103   [2]  00 04
 (002.816008)  can0  104   [6]  00 00 00 00 00 00
 (002.816458)  can0  1FF   [1]  5C
 (002.817156)  can0  200   [4]  18 00 FF FF
 (002.817852)  can0  201   [4]  00 00 00 00
 (002.818684)  can0  204   [6]  00 00 8E FF 00 00
 (002.823021)  can0  100   [6]  41 00 BD 01 00 00
 (002.823818)  can0  102   [6]  60 06 0D 06 2C 06
 (002.825814)  can0  200   [4]  18 00 FF FF
 (002.826642)  can0  204   [6]  00 00 8E FF 00 00
 (002.832933)  can0  100   [6]  41 00 BC 01 00 00
 (002.833698)  can0  102   [6]  60 06 0D 06 2C 06
 (002.835823)  can0  200   [4]  18 00 FF FF
 (002.836513)  can0  201   [4]  00 00 00 00
 (002.837344)  can0  204   [6]  00 00 8E FF 00 00
 (002.842784)  can0  100   [6]  40 00 BE 01 00 00
 (002.843578)  can0  102   [6]  60 06 0D 06 2C 06
 (002.845827)  can0  200   [4]  18 00 FF FF
 (002.846651)  can0  204   [6]  00 00 8E FF 00 00
 (002.852654)  can0  100   [6]  3F 00 BE 01 00 00
 (002.853452)  can0  102   [6]  60 06 0D 06 2C 06
 (002.855806)  can0  200   [4]  18 00 FF FF
 (002.856500)  can0  201   [4]  00 00 00 00
 (002.856969)  can0  202   [1]  01
 (002.857801)  can0  204   [6]  00 00 8E FF 00 00
 (002.858252)  can0  2FF   [1]  38
 (002.862543)  can0  100   [6]  3E 00 BE 01 00 00
 (002.863192)  can0  101   [4]  F8 FF 09 00
 (002.863996)  can0  102   [6]  60 06 0D 06 2C 06
 (002.864541)  can0  103   [2]  00 04
 (002.865387)  can0  104   [6]  00 00 00 00 00 00
 (002.865836)  can0  1FF   [1]  5D
 (002.866539)  can0  200   [4]  18 00 FF FF
 (002.867370)  can0  204   [6]  00 00 8E FF 00 00
 (002.872394)  can0  100   [6]  3E 00 BD 01 00 00
 (002.873195)  can0  102   [6]  60 06 0D 06 2C 06
 (002.875824)  can0  200   [4]  18 00 FF FF
 (002.876516)  can0  201   [4]  00 00 00 00
 (002.877348)  can0  204   [6]  00 00 8E FF 00 00
 (002.882303)  can0  100   [6]  3F 00 BD 01 00 00
 (002.885812)  can0  200   [4]  18 00 FF FF
 (002.886641)  can0  204   [6]  00 00 8E FF 00 00
 (002.892161)  can0  100   [6]  3F 00 BD 01 00 00
 (002.892957)  can0  102   [6]  60 06 0D 06 2C 06
 (002.895839)  can0  200   [4]  18 00 FF FF
 (002.896531)  can0  201   [4]  00 00 00 00
 (002.897362)  can0  204   [6]  00 00 8E FF 00 00
 (002.902041)  can0  100   [6]  40 00 BE 01 00 00
 (002.902833)  can0  102   [6]  60 06 0D 06 2C 06
 (002.905812)  can0  200   [4]  18 00 FF FF
 (002.906272)  can0  202   [1]  01
 (002.907118)  can0  204   [6]  00 00 8E FF 00 00
 (002.907560)  can0  2FF   [1]  39
 (002.911907)  can0  100   [6]  40 00 BF 01 00 00
 (002.912566)  can0  101   [4]  04 00 05 00
 (002.913373)  can0  102   [6]  60 06 0D 06 2C 06
 (002.913917)  can0  103   [2]  00 04
 (002.914766)  can0  104   [6]  00 00 00 00 00 00
 (002.915214)  can0  1FF   [1]  5E
 (002.915915)  can0  200   [4]  18 00 FF FF
 (002.916610)  can0  201   [4]  00 00 00 00
 (002.917438)  can0  204   [6]  00 00 8E FF 00 00
 (002.921783)  can0  100   [6]  40 00 BF 01 00 00
 (002.922583)  can0  102   [6]  60 06 0D 06 2C 06
 (002.925845)  can0  200   [4]  18 00 FF FF
 (002.926673)  can0  204   [6]  00 00 8E FF 00 00
 (002.931657)  can0  100   [6]  3F 00 BF 01 00 00
 (002.935824)  can0  200   [4]  18 00 FF FF
 (002.936517)  can0  201   [4]  00 00 00 00
 (002.937348)  can0  204   [6]  00 00 8E FF 00 00
 (002.941529)  can0  100   [6]  3F 00 BE 01 00 00
 (002.945819)  can0  200   [4]  18 00 FF FF
 (002.946646)  can0  204   [6]  00 00 8E FF 00 00
 (002.951402)  can0  100   [6]  3F 00 BD 01 00 00
 (002.952201)  can0  102   [6]  60 06 0D 06 2C 06
 (002.955820)  can0  200   [4]  18 00 FF FF
 (002.956515)  can0  201   [4]  00 00 00 00
 (002.956977)  can0  202   [1]  01
 (002.957808)  can0  204   [6]  00 00 8E FF 00 00
 (002.958279)  can0  2FF   [1]  3A
 (002.961293)  can0  100   [6]  40 00 BC 01 00 00
 (002.961939)  can0  101   [4]  05 00 F5 FF
 (002.962747)  can0  102   [6]  60 06 0D 06 2C 06
 (002.963297)  can0  103   [2]  00 04
 (002.964137)  can0  104   [6]  00 00 00 00 00 00
 (002.964609)  can0  1FF   [1]  5F
 (002.965820)  can0  200   [4]  18 00 FF FF
 (002.966649)  can0  204   [6]  00 00 8E FF 00 00
 (002.971140)  can0  100   [6]  41 00 BC 01 00 00
 (002.971946)  can0  102   [6]  60 06 0D 06 2C 06
 (002.975835)  can0  200   [4]  18 00 FF FF
 (002.976529)  can0  201   [4]  00 00 00 00
 (002.977360)  can0  204   [6]  00 00 8E FF 00 00
 (002.981025)  can0  100   [6]  40 00 BD 01 00 00
 (002.981817)  can0  102   [6]  60 06 0D 06 2C 06
 (002.985826)  can0  200   [4]  18 00 FF FF
 (002.986654)  can0  204   [6]  00 00 8E FF 00 00
 (002.990898)  can0  100   [6]  41 00 BD 01 00 00
 (002.991697)  can0  102   [6]  60 06 0D 06 2C 06
 (002.995835)  can0  200   [4]  18 00 FF FF
 (002.996528)  can0  201   [4]  00 00 00 00
 (002.997359)  can0  204   [6]  00 00 8E FF 00 00
 (003.000779)  can0  100   [6]  41 00 BE 01 00 00
 (003.001577)  can0  102   [6]  60 06 0D 06 2C 06
 (003.005821)  can0  200   [4]  18 00 FF FF
 (003.006279)  can0  202   [1]  01
 (003.007111)  can0  204   [6]  00 00 8E FF 00 00
 (003.007581)  can0  2FF   [1]  3B
 (003.010644)  can0  100   [6]  40 00 BE 01 00 00
 (003.011309)  can0  101   [4]  FC FF FB FF
 (003.012115)  can0  102   [6]  60 06 0D 06 2C 06
 (003.012659)  can0  103   [2]  00 04
 (003.013508)  can0  104   [6]  00 00 00 00 00 00
 (003.013964)  can0  1FF   [1]  60
 (003.015810)  can0  200   [4]  18 00 FF FF
 (003.016505)  can0  201   [4]  00 00 00 00
 (003.017340)  can0  204   [6]  00 00 8E FF 00 00
 (003.020502)  can0  100   [6]  40 00 BD 01 00 00
 (003.021306)  can0  102   [6]  60 06 0D 06 2C 06
 (003.025862)  can0  200   [4]  18 00 FF FF
 (003.026684)  can0  204   [6]  00 00 8E FF 00 00
 (003.030392)  can0  100   [6]  41 00 BC 01 00 00
 (003.031190)  can0  102   [6]  60 06 0D 06 2C 06
 (003.035833)  can0  200   [4]  18 00 FF FF
 (003.036517)  can0  201   [4]  00 00 00 00
 (003.037350)  can0  204   [6]  00 00 8E FF 00 00
 (003.040273)  can0  100   [6]  41 00 BC 01 00 00
 (003.041068)  can0  102   [6]  60 06 0D 06 2C 06
 (003.045864)  can0  200   [4]  18 00 FF FF
 (003.046672)  can0  204   [6]  00 00 8E FF 00 00
 (003.050136)  can0  100   [6]  40 00 BB 01 00 00
 (003.050937)  can0  102   [6]  60 06 0D 06 2C 06
 (003.055831)  can0  200   [4]  18 00 FF FF
 (003.056523)  can0  201   [4]  00 00 00 00
 (003.056988)  can0  202   [1]  01
 (003.057820)  can0  204   [6]  00 00 8E FF 00 00
 (003.058282)  can0  2FF   [1]  3C
 (003.060016)  can0  100   [6]  40 00 BC 01 00 00
 (003.060685)  can0  101   [4]  00 00 F2 FF
 (003.061490)  can0  102   [6]  60 06 0D 06 2C 06
 (003.062034)  can0  103   [2]  00 04
 (003.062879)  can0  104   [6]  00 00 00 00 00 00
 (003.063336)  can0  1FF   [1]  61
 (003.065813)  can0  200   [4]  18 00 FF FF
 (003.066644)  can0  204   [6]  00 00 8E FF 00 00
 (003.069883)  can0  100   [6]  40 00 BC 01 00 00
 (003.070687)  can0  102   [6]  60 06 0D 06 2C 06
 (003.075844)  can0  200   [4]  18 00 FF FF
 (003.076536)  can0  201   [4]  00 00 00 00
 (003.077368)  can0  204   [6]  00 00 8E FF 00 00
 (003.079764)  can0  100   [6]  40 00 BD 01 00 00
 (003.080566)  can0  102   [6]  60 06 0D 06 2C 06
 (003.085808)  can0  200   [4]  18 00 FF FF
 (003.086638)  can0  204   [6]  00 00 8E FF 00 00
 (003.089638)  can0  100   [6]  40 00 BC 01 00 00
 (003.095837)  can0  200   [4]  18 00 FF FF
 (003.096525)  can0  201   [4]  00 00 00 00
 (003.097356)  can0  204   [6]  00 00 8E FF 00 00
 (003.099501)  can0  100   [6]  40 00 BC 01 00 00
 (003.100304)  can0  102   [6]  60 06 0D 06 2C 06
 (003.105808)  can0  200   [4]  18 00 FF FF
 (003.106273)  can0  202   [1]  01
 (003.107105)  can0  204   [6]  00 00 8E FF 00 00
 (003.107566)  can0  2FF   [1]  3D
 (003.109382)  can0  100   [6]  40 00 BC 01 00 00
 (003.110047)  can0  101   [4]  00 00 FE FF
 (003.110859)  can0  102   [6]  60 06 0D 06 2C 06
 (003.111402)  can0  103   [2]  00 04
 (003.112246)  can0  104   [6]  00 00 00 00 00 00
 (003.112702)  can0  1FF   [1]  62
 (003.115811)  can0  200   [4]  18 00 FF FF
 (003.116503)  can0  201   [4]  00 00 00 00
 (003.117336)  can0  204   [6]  00 00 8E FF 00 00
 (003.119240)  can0  100   [6]  3F 00 BC 01 00 00
 (003.120044)  can0  102   [6]  60 06 0D 06 2C 06
 (003.125836)  can0  200   [4]  18 00 FF FF
 (003.126661)  can0  204   [6]  00 00 8E FF 00 00
 (003.129128)  can0  100   [6]  3F 00 BB 01 00 00
 (003.129928)  can0  102   [6]  60 06 0D 06 2C 06
 (003.135851)  can0  200   [4]  18 00 FF FF
 (003.136533)  can0  201   [4]  00 00 00 00
 (003.137374)  can0  204   [6]  00 00 8E FF 00 00
 (003.139048)  can0  100   [6]  3F 00 BB 01 00 00
 (003.139802)  can0  102   [6]  60 06 0D 06 2C 06
 (003.145840)  can0  200   [4]  18 00 FF FF
 (003.146666)  can0  204   [6]  00 00 8E FF 00 00
 (003.148898)  can0  100   [6]  40 00 BB 01 00 00
 (003.149696)  can0  102   [6]  60 06 0D 06 2C 06
 (003.155819)  can0  200   [4]  18 00 FF FF
 (003.156515)  can0  201   [4]  00 00 00 00
 (003.156972)  can0  202   [1]  01
 (003.157805)  can0  204   [6]  00 00 8E FF 00 00
 (003.158268)  can0  2FF   [1]  3E
 (003.159094)  can0  100   [6]  3F 00 BC 01 00 00
 (003.159752)  can0  101   [4]  FD FF 07 00
 (003.160563)  can0  102   [6]  60 06 0D 06 2C 06
 (003.161105)  can0  103   [2]  00 04
 (003.161952)  can0  104   [6]  00 00 00 00 00 00
 (003.162421)  can0  1FF   [1]  63
 (003.165828)  can0  200   [4]  18 00 FF FF
 (003.166661)  can0  204   [6]  00 00 8E FF 00 00
 (003.168628)  can0  100   [6]  3F 00 BC 01 00 00
 (003.169433)  can0  102   [6]  60 06 0D 06 2C 06
 (003.175827)  can0  200   [4]  18 00 FF FF
 (003.176527)  can0  201   [4]  00 00 00 00
 (003.177356)  can0  204   [6]  00 00 8E FF 00 00
 (003.178528)  can0  100   [6]  3F 00 BD 01 00 00
 (003.179330)  can0  102   [6]  60 06 0D 06 2C 06
 (003.185820)  can0  200   [4]  FF FF 00 00
 (003.186649)  can0  204   [6]  00 00 8E FF 00 00
 (003.188396)  can0  100   [6]  3F 00 BD 01 00 00
 (003.189200)  can0  102   [6]  60 06 0D 06 2C 06
 (003.195838)  can0  200   [4]  FF FF 00 00
 (003.196499)  can0  201   [4]  E8 FD 23 00
 (003.197313)  can0  204   [6]  E1 FF 5E 01 00 00
 (003.198272)  can0  100   [6]  3F 00 BD 01 00 00
 (003.199074)  can0  102   [6]  60 06 0D 06 2C 06
 (003.205815)  can0  200   [4]  FF FF 00 00
 (003.206330)  can0  202   [1]  01
 (003.207105)  can0  204   [6]  CB FF 5E 01 00 00
 (003.207564)  can0  2FF   [1]  3F
 (003.208394)  can0  100   [6]  3E 00 BD 01 00 00
 (003.209079)  can0  101   [4]  06 00 00 00
 (003.209886)  can0  102   [6]  60 06 0D 06 2C 06
 (003.210439)  can0  103   [2]  00 04
 (003.211277)  can0  104   [6]  00 00 00 00 00 00
 (003.211726)  can0  1FF   [1]  64
 (003.215844)  can0  200   [4]  FF FF 00 00
 (003.216498)  can0  201   [4]  A4 FE 17 00
 (003.217328)  can0  204   [6]  C6 FF 5E 01 00 00
 (003.218161)  can0  100   [6]  3E 00 BC 01 00 00
 (003.218964)  can0  102   [6]  60 06 0D 06 2C 06
 (003.225840)  can0  200   [4]  FF FF 00 00
 (003.226669)  can0  204   [6]  C3 FF 5E 01 00 00
 (003.227923)  can0  100   [6]  3E 00 BC 01 00 00
 (003.228713)  can0  102   [6]  60 06 0D 06 2C 06
 (003.235822)  can0  200   [4]  FF FF 00 00
 (003.236491)  can0  201   [4]  6D FF 0A 00
 (003.237314)  can0  204   [6]  C8 FF 5E 01 00 00
 (003.238147)  can0  100   [6]  3E 00 BB 01 00 00
 (003.238953)  can0  102   [6]  60 06 0D 06 2C 06
 (003.245829)  can0  200   [4]  FF FF 00 00
 (003.246642)  can0  204   [6]  D0 FF 5E 01 00 00
 (003.247648)  can0  100   [6]  3E 00 BC 01 00 00
 (003.248448)  can0  102   [6]  60 06 0D 06 2C 06
 (003.255825)  can0  200   [4]  FF FF 00 00
 (003.256502)  can0  201   [4]  A0 FF 06 00
 (003.256963)  can0  202   [1]  01
 (003.257798)  can0  100   [6]  3E 00 BB 01 00 00
 (003.258453)  can0  101   [4]  FA FF 01 00
 (003.259261)  can0  102   [6]  60 06 0D 06 2C 06
 (003.259805)  can0  103   [2]  00 04
 (003.260657)  can0  104   [6]  00 00 00 00 00 00
 (003.261103)  can0  1FF   [1]  65
 (003.261923)  can0  204   [6]  D6 FF 5E 01 00 00
 (003.262386)  can0  2FF   [1]  40
 (003.265824)  can0  200   [4]  FF FF 00 00
 (003.266641)  can0  204   [6]  DD FF 5E 01 00 00
 (003.267456)  can0  100   [6]  3D 00 BB 01 00 00
 (003.268260)  can0  102   [6]  60 06 0D 06 2C 06
 (003.275848)  can0  200   [4]  FF FF 00 00
 (003.276523)  can0  201   [4]  C2 FF 04 00
 (003.277357)  can0  100   [6]  3E 00 BB 01 00 00
 (003.278159)  can0  102   [6]  60 06 0D 06 2C 06
 (003.278976)  can0  204   [6]  E2 FF 5E 01 00 00
 (003.285817)  can0  200   [4]  FF FF 00 00
 (003.286647)  can0  204   [6]  E8 FF 5E 01 00 00
 (003.287477)  can0  100   [6]  3E 00 BB 01 00 00
 (003.288282)  can0  102   [6]  60 06 0D 06 2C 06
 (003.295846)  can0  200   [4]  FF FF 00 00
 (003.296500)  can0  201   [4]  D8 FF 03 00
 (003.297332)  can0  100   [6]  3E 00 BB 01 00 00
 (003.298135)  can0  102   [6]  60 06 0D 06 2C 06
 (003.298947)  can0  204   [6]  EC FF 27 01 00 00
 (003.305829)  can0  200   [4]  FF FF 00 00
 (003.306282)  can0  202   [1]  01
 (003.307113)  can0  100   [6]  3E 00 BA 01 00 00
 (003.307791)  can0  101   [4]  00 00 F7 FF
 (003.308598)  can0  102   [6]  60 06 0D 06 2C 06
 (003.309145)  can0  103   [2]  00 04
 (003.309994)  can0  104   [6]  00 00 00 00 00 00
 (003.310501)  can0  1FF   [1]  66
 (003.311277)  can0  204   [6]  F0 FF F1 00 00 00
 (003.311747)  can0  2FF   [1]  41
 (003.315820)  can0  200   [4]  FF FF 00 00
 (003.316481)  can0  201   [4]  E6 FF 02 00
 (003.317312)  can0  100   [6]  3E 00 BA 01 00 00
 (003.318118)  can0  102   [6]  60 06 0D 06 2C 06
 (003.318957)  can0  204   [6]  F3 FF BE 00 00 00
 (003.325852)  can0  200   [4]  FF FF 00 00
 (003.326686)  can0  204   [6]  F5 FF 9A 00 00 00
 (003.327518)  can0  100   [6]  3E 00 BA 01 00 00
 (003.328326)  can0  102   [6]  60 06 0D 06 2C 06
 (003.335821)  can0  200   [4]  FF FF 00 00
 (003.336640)  can0  100   [6]  3F 00 BA 01 00 00
 (003.337444)  can0  102   [6]  60 06 0D 06 2C 06
 (003.338104)  can0  201   [4]  F5 FF 01 00
 (003.338935)  can0  204   [6]  F8 FF 79 00 00 00
 (003.345845)  can0  200   [4]  FF FF 00 00
 (003.346667)  can0  100   [6]  3F 00 BA 01 00 00
 (003.347475)  can0  102   [6]  60 06 0D 06 2C 06
 (003.348284)  can0  204   [6]  F9 FF 5D 00 00 00
 (003.355817)  can0  200   [4]  FF FF 00 00
 (003.356641)  can0  100   [6]  3F 00 BA 01 00 00
 (003.357322)  can0  101   [4]  08 00 F8 FF
 (003.358133)  can0  102   [6]  60 06 0D 06 2C 06
 (003.358673)  can0  103   [2]  00 04
 (003.359520)  can0  104   [6]  00 00 00 00 00 00
 (003.359969)  can0  1FF   [1]  67
 (003.360645)  can0  201   [4]  F9 FF 00 00
 (003.361106)  can0  202   [1]  01
 (003.361939)  can0  204   [6]  FB FF 49 00 00 00
 (003.362397)  can0  2FF   [1]  42
 (003.365826)  can0  200   [4]  FF FF 00 00
 (003.366715)  can0  100   [6]  40 00 BA 01 00 00
 (003.367467)  can0  102   [6]  60 06 0D 06 2C 06
 (003.368279)  can0  204   [6]  FC FF 37 00 00 00
 (003.375832)  can0  200   [4]  FF FF 00 00
 (003.376653)  can0  100   [6]  40 00 BA 01 00 00
 (003.377459)  can0  102   [6]  60 06 0D 06 2C 06
 (003.378147)  can0  201   [4]  FB FF 00 00
 (003.378987)  can0  204   [6]  FE FF 2B 00 00 00
 (003.385936)  can0  100   [6]  3F 00 BB 01 00 00
 (003.386736)  can0  102   [6]  60 06 0D 06 2C 06
 (003.387433)  can0  200   [4]  FF FF 00 00
 (003.388271)  can0  204   [6]  FE FF 20 00 00 00
 (003.395827)  can0  100   [6]  3F 00 BB 01 00 00
 (003.396623)  can0  102   [6]  60 06 0D 06 2C 06
 (003.397312)  can0  200   [4]  FF FF 00 00
 (003.397992)  can0  201   [4]  FD FF 00 00
 (003.398839)  can0  204   [6]  FF FF 17 00 00 00
 (003.405695)  can0  100   [6]  3F 00 BC 01 00 00
 (003.406361)  can0  101   [4]  00 00 FA FF
 (003.407175)  can0  102   [6]  60 06 0D 06 2C 06
 (003.407714)  can0  103   [2]  00 04
 (003.408568)  can0  104   [6]  00 00 00 00 00 00
 (003.409019)  can0  1FF   [1]  68
 (003.409719)  can0  200   [4]  FF FF 00 00
 (003.410180)  can0  202   [1]  01
 (003.411038)  can0  204   [6]  00 00 11 00 00 00
 (003.411502)  can0  2FF   [1]  43
 (003.415576)  can0  100   [6]  40 00 BC 01 00 00
 (003.416377)  can0  102   [6]  60 06 0D 06 2C 06
 (003.417075)  can0  200   [4]  FF FF 00 00
 (003.417762)  can0  201   [4]  FE FF 00 00
 (003.418609)  can0  204   [6]  00 00 0C 00 00 00
 (003.425457)  can0  100   [6]  40 00 BB 01 00 00
 (003.426260)  can0  102   [6]  60 06 0D 06 2C 06
 (003.426956)  can0  200   [4]  FF FF 00 00
 (003.427812)  can0  204   [6]  00 00 08 00 00 00
 (003.435331)  can0  100   [6]  3F 00 BA 01 00 00
 (003.436132)  can0  102   [6]  60 06 0D 06 2C 06
 (003.436829)  can0  200   [4]  FF FF 00 00
 (003.437524)  can0  201   [4]  FF FF 00 00
 (003.438380)  can0  204   [6]  00 00 04 00 00 00
 (003.445216)  can0  100   [6]  3F 00 BB 01 00 00
 (003.446019)  can0  102   [6]  60 06 0D 06 2C 06
 (003.446707)  can0  200   [4]  FF FF 00 00
 (003.447553)  can0  204   [6]  00 00 02 00 00 00
 (003.455095)  can0  100   [6]  3F 00 BB 01 00 00
 (003.455758)  can0  101   [4]  07 00 03 00
 (003.456566)  can0  102   [6]  60 06 0D 06 2C 06
 (003.457116)  can0  103   [2]  00 04
 (003.457961)  can0  104   [6]  00 00 00 00 00 00
 (003.458445)  can0  1FF   [1]  69
 (003.459121)  can0  200   [4]  FF FF 00 00
 (003.459815)  can0  201   [4]  FF FF 00 00
 (003.460280)  can0  202   [1]  01
 (003.461135)  can0  204   [6]  00 00 00 00 00 00
 (003.461600)  can0  2FF   [1]  44
 (003.464983)  can0  100   [6]  3F 00 BB 01 00 00
 (003.465775)  can0  102   [6]  60 06 0D 06 2C 06
 (003.466471)  can0  200   [4]  FF FF 00 00
 (003.467328)  can0  204   [6]  00 00 00 00 00 00
 (003.474848)  can0  100   [6]  3F 00 BB 01 00 00
 (003.475657)  can0  102   [6]  60 06 0D 06 2C 06
 (003.476348)  can0  200   [4]  FF FF 00 00
 (003.477044)  can0  201   [4]  00 00 00 00
 (003.477908)  can0  204   [6]  00 00 FF FF 00 00
 (003.484744)  can0  100   [6]  40 00 BB 01 00 00
 (003.485543)  can0  102   [6]  60 06 0D 06 2C 06
 (003.486237)  can0  200   [4]  FF FF 00 00
 (003.487076)  can0  204   [6]  00 00 FE FF 00 00
 (003.494618)  can0  100   [6]  40 00 BB 01 00 00
 (003.495416)  can0  102   [6]  60 06 0D 06 2C 06
 (003.496109)  can0  200   [4]  FF FF 00 00
 (003.496804)  can0  201   [4]  00 00 00 00
 (003.497644)  can0  204   [6]  00 00 FD FF 00 00
 (003.504485)  can0  100   [6]  3F 00 BB 01 00 00
 (003.505160)  can0  101   [4]  01 00 04 00
 (003.505967)  can0  102   [6]  60 06 0D 06 2C 06
 (003.506516)  can0  103   [2]  00 04
 (003.507365)  can0  104   [6]  00 00 00 00 00 00
 (003.507811)  can0  1FF   [1]  6A
 (003.508509)  can0  200   [4]  FF FF 00 00
 (003.508971)  can0  202   [1]  01
 (003.509816)  can0  204   [6]  00 00 FC FF 00 00
 (003.510275)  can0  2FF   [1]  45
 (003.514375)  can0  100   [6]  3F 00 BC 01 00 00
 (003.515168)  can0  102   [6]  60 06 0D 06 2C 06
 (003.515866)  can0  200   [4]  FF FF 00 00
 (003.516560)  can0  201   [4]  00 00 00 00
 (003.517411)  can0  204   [6]  00 00 FB FF 00 00
 (003.524289)  can0  100   [6]  3F 00 BC 01 00 00
 (003.525047)  can0  102   [6]  60 06 0D 06 2C 06
 (003.525815)  can0  200   [4]  FF FF 00 00
 (003.526663)  can0  204   [6]  00 00 FB FF 00 00
 (003.534140)  can0  100   [6]  3F 00 BD 01 00 00
 (003.534940)  can0  102   [6]  60 06 0D 06 2C 06
 (003.535812)  can0  200   [4]  FF FF 00 00
 (003.536505)  can0  201   [4]  00 00 00 00
 (003.537353)  can0  204   [6]  00 00 FB FF 00 00
 (003.544024)  can0  100   [6]  3F 00 BD 01 00 00
 (003.544818)  can0  102   [6]  60 06 0D 06 2C 06
 (003.545820)  can0  200   [4]  FF FF 00 00
 (003.546669)  can0  204   [6]  00 00 FB FF 00 00
 (003.553910)  can0  100   [6]  3F 00 BD 01 00 00
 (003.554573)  can0  101   [4]  FF FF 03 00
 (003.555387)  can0  102   [6]  60 06 0D 06 2C 06
 (003.555936)  can0  103   [2]  00 04
 (003.556776)  can0  104   [6]  00 00 00 00 00 00
 (003.557225)  can0  1FF   [1]  6B
 (003.557923)  can0  200   [4]  FF FF 00 00
 (003.558619)  can0  201   [4]  00 00 00 00
 (003.559081)  can0  202   [1]  01
 (003.559921)  can0  204   [6]  00 00 FA FF 00 00
 (003.560376)  can0  2FF   [1]  46
 (003.563787)  can0  100   [6]  3F 00 BD 01 00 00
 (003.564589)  can0  102   [6]  60 06 0D 06 2C 06
 (003.565814)  can0  200   [4]  FF FF 00 00
 (003.566655)  can0  204   [6]  00 00 FA FF 00 00
 (003.573672)  can0  100   [6]  3F 00 BD 01 00 00
 (003.574470)  can0  102   [6]  60 06 0D 06 2C 06
 (003.575815)  can0  200   [4]  FF FF 00 00
 (003.576510)  can0  201   [4]  00 00 00 00
 (003.577350)  can0  204   [6]  00 00 FA FF 00 00
 (003.583544)  can0  100   [6]  3F 00 BD 01 00 00
 (003.584348)  can0  102   [6]  60 06 0D 06 2C 06
 (003.585817)  can0  200   [4]  FF FF 00 00
 (003.586655)  can0  204   [6]  00 00 FA FF 00 00
 (003.593433)  can0  100   [6]  40 00 BE 01 00 00
 (003.594229)  can0  102   [6]  60 06 0D 06 2C 06
 (003.595817)  can0  200   [4]  FF FF 00 00
 (003.596513)  can0  201   [4]  00 00 00 00
 (003.597348)  can0  204   [6]  00 00 FA FF 00 00
 (003.603307)  can0  100   [6]  3F 00 BD 01 00 00
 (003.603961)  can0  101   [4]  01 00 03 00
 (003.604770)  can0  102   [6]  60 06 0D 06 2C 06
 (003.605329)  can0  103   [2]  00 04
 (003.606165)  can0  104   [6]  00 00 00 00 00 00
 (003.606611)  can0  1FF   [1]  6C
 (003.607309)  can0  200   [4]  FF FF 00 00
 (003.607772)  can0  202   [1]  01
 (003.608614)  can0  204   [6]  00 00 FA FF 00 00
 (003.609085)  can0  2FF   [1]  47
 (003.613191)  can0  100   [6]  3F 00 BD 01 00 00
 (003.613984)  can0  102   [6]  60 06 0D 06 2C 06
 (003.615809)  can0  200   [4]  FF FF 00 00
 (003.616504)  can0  201   [4]  00 00 00 00
 (003.617349)  can0  204   [6]  00 00 FA FF 00 00
 (003.623057)  can0  100   [6]  40 00 BD 01 00 00
 (003.623857)  can0  102   [6]  60 06 0D 06 2C 06
 (003.625817)  can0  200   [4]  FF FF 00 00
 (003.626656)  can0  204   [6]  00 00 FA FF 00 00
 (003.632935)  can0  100   [6]  41 00 BD 01 00 00
 (003.633733)  can0  102   [6]  60 06 0D 06 2C 06
 (003.635812)  can0  200   [4]  FF FF 00 00
 (003.636506)  can0  201   [4]  00 00 00 00
 (003.637345)  can0  204   [6]  00 00 FA FF 00 00
 (003.642820)  can0  100   [6]  41 00 BC 01 00 00
 (003.643898)  can0  102   [6]  60 06 0D 06 2C 06
 (003.645837)  can0  200   [4]  FF FF 00 00
 (003.646668)  can0  204   [6]  00 00 FA FF 00 00
 (003.652736)  can0  100   [6]  40 00 BC 01 00 00
 (003.653348)  can0  101   [4]  F6 FF FC FF
 (003.654155)  can0  102   [6]  60 06 0D 06 2C 06
 (003.654745)  can0  103   [2]  00 04
 (003.655546)  can0  104   [6]  00 00 00 00 00 00
 (003.656002)  can0  1FF   [1]  6D
 (003.656830)  can0  200   [4]  FF FF 00 00
 (003.657421)  can0  201   [4]  00 00 00 00
 (003.657861)  can0  202   [1]  01
 (003.658702)  can0  204   [6]  00 00 FA FF 00 00
 (003.659165)  can0  2FF   [1]  48
 (003.662573)  can0  100   [6]  40 00 BC 01 00 00
 (003.663382)  can0  102   [6]  60 06 0D 06 2C 06
 (003.665826)  can0  200   [4]  FF FF 00 00
 (003.666667)  can0  204   [6]  00 00 FA FF 00 00
 (003.672456)  can0  100   [6]  40 00 BC 01 00 00
 (003.673260)  can0  102   [6]  60 06 0D 06 2C 06
 (003.675819)  can0  200   [4]  FF FF 00 00
 (003.676514)  can0  201   [4]  00 00 00 00
 (003.677356)  can0  204   [6]  00 00 FA FF 00 00
 (003.682340)  can0  100   [6]  40 00 BD 01 00 00
 (003.683138)  can0  102   [6]  60 06 0D 06 2C 06
 (003.685818)  can0  200   [4]  FF FF 00 00
 (003.686656)  can0  204   [6]  00 00 FA FF 00 00
 (003.692212)  can0  100   [6]  40 00 BD 01 00 00
 (003.693027)  can0  102   [6]  60 06 0D 06 2C 06
 (003.695824)  can0  200   [4]  FF FF 00 00
 (003.696517)  can0  201   [4]  00 00 00 00
 (003.697356)  can0  204   [6]  00 00 FA FF 00 00
 (003.702108)  can0  100   [6]  40 00 BD 01 00 00
 (003.702763)  can0  101   [4]  FF FF 06 00
 (003.703569)  can0  102   [6]  60 06 0D 06 2C 06
 (003.704114)  can0  103   [2]  00 04
 (003.704962)  can0  104   [6]  00 00 00 00 00 00
 (003.705419)  can0  1FF   [1]  6E
 (003.706118)  can0  200   [4]  FF FF 00 00
 (003.706584)  can0  202   [1]  01
 (003.707426)  can0  204   [6]  00 00 FA FF 00 00
 (003.707878)  can0  2FF   [1]  49
 (003.711978)  can0  100   [6]  40 00 BD 01 00 00
 (003.712777)  can0  102   [6]  60 06 0D 06 2C 06
 (003.715810)  can0  200   [4]  FF FF 00 00
 (003.716506)  can0  201   [4]  00 00 00 00
 (003.717348)  can0  204   [6]  00 00 FA FF 00 00
 (003.721854)  can0  100   [6]  40 00 BD 01 00 00
 (003.722662)  can0  102   [6]  60 06 0D 06 2C 06
 (003.725820)  can0  200   [4]  FF FF 00 00
 (003.726661)  can0  204   [6]  00 00 FA FF 00 00
 (003.731728)  can0  100   [6]  3F 00 BC 01 00 00
 (003.732530)  can0  102   [6]  60 06 0D 06 2C 06
 (003.735814)  can0  200   [4]  FF FF 00 00
 (003.736508)  can0  201   [4]  00 00 00 00
 (003.737347)  can0  204   [6]  00 00 FA FF 00 00
 (003.741611)  can0  100   [6]  3F 00 BB 01 00 00
 (003.742433)  can0  102   [6]  60 06 0D 06 2C 06
 (003.745834)  can0  200   [4]  FF FF 00 00
 (003.746669)  can0  204   [6]  00 00 FA FF 00 00
 (003.751490)  can0  100   [6]  3F 00 BC 01 00 00
 (003.752148)  can0  101   [4]  05 00 FE FF
 (003.753163)  can0  102   [6]  60 06 0D 06 2C 06
 (003.753500)  can0  103   [2]  00 04
 (003.754351)  can0  104   [6]  00 00 00 00 00 00
 (003.754804)  can0  1FF   [1]  6F
 (003.756012)  can0  200   [4]  FF FF 00 00
 (003.756504)  can0  201   [4]  00 00 00 00
 (003.756967)  can0  202   [1]  01
 (003.757808)  can0  204   [6]  00 00 FA FF 00 00
 (003.758271)  can0  2FF   [1]  4A
 (003.761367)  can0  100   [6]  3F 00 BC 01 00 00
 (003.762171)  can0  102   [6]  60 06 0D 06 2C 06
 (003.765832)  can0  200   [4]  FF FF 00 00
 (003.766674)  can0  204   [6]  00 00 FA FF 00 00
 (003.771463)  can0  100   [6]  3F 00 BB 01 00 00
 (003.772043)  can0  102   [6]  60 06 0D 06 2C 06
 (003.775824)  can0  200   [4]  FF FF 00 00
 (003.776517)  can0  201   [4]  00 00 00 00
 (003.777357)  can0  204   [6]  00 00 FA FF 00 00
 (003.781332)  can0  100   [6]  3F 00 BB 01 00 00
 (003.781926)  can0  102   [6]  60 06 0D 06 2C 06
 (003.785815)  can0  200   [4]  FF FF 00 00
 (003.786650)  can0  204   [6]  00 00 FA FF 00 00
 (003.790995)  can0  100   [6]  3F 00 BB 01 00 00
 (003.791798)  can0  102   [6]  60 06 0D 06 2C 06
 (003.795856)  can0  200   [4]  FF FF 00 00
 (003.796551)  can0  201   [4]  00 00 00 00
 (003.797393)  can0  204   [6]  00 00 FA FF 00 00
 (003.800872)  can0  100   [6]  3F 00 BB 01 00 00
 (003.801535)  can0  101   [4]  06 00 02 00
 (003.802342)  can0  102   [6]  60 06 0D 06 2C 06
 (003.802886)  can0  103   [2]  00 04
 (003.803732)  can0  104   [6]  00 00 00 00 00 00
 (003.804181)  can0  1FF   [1]  70
 (003.805844)  can0  200   [4]  FF FF 00 00
 (003.806282)  can0  202   [1]  01
 (003.807124)  can0  204   [6]  00 00 FA FF 00 00
 (003.807585)  can0  2FF   [1]  4B
 (003.810751)  can0  100   [6]  3F 00 BC 01 00 00
 (003.811607)  can0  102   [6]  60 06 0D 06 2C 06
 (003.815829)  can0  200   [4]  FF FF 00 00
 (003.816525)  can0  201   [4]  00 00 00 00
 (003.817364)  can0  204   [6]  00 00 FA FF 00 00
 (003.820630)  can0  100   [6]  3F 00 BC 01 00 00
 (003.821434)  can0  102   [6]  60 06 0D 06 2C 06
