 (000.000000)  can0  103   [2]  00 02
 (000.000847)  can0  104   [6]  00 00 00 00 00 00
 (000.001308)  can0  1FF   [1]  9A
 (000.007864)  can0  100   [6]  37 00 9E 01 00 00
 (000.008672)  can0  102   [6]  60 06 0D 06 2C 06
 (000.017992)  can0  100   [6]  39 00 9F 01 00 00
 (000.027670)  can0  100   [6]  3A 00 A0 01 00 00
 (000.037560)  can0  100   [6]  39 00 A2 01 00 00
 (000.038364)  can0  102   [6]  60 06 0D 06 2C 06
 (000.047467)  can0  100   [6]  39 00 A4 01 00 00
 (000.048992)  can0  102   [6]  60 06 0D 06 2C 06
 (000.049528)  can0  103   [2]  00 02
 (000.050376)  can0  104   [6]  00 00 00 00 00 00
 (000.050826)  can0  1FF   [1]  9B
 (000.057357)  can0  100   [6]  39 00 A5 01 00 00
 (000.067260)  can0  100   [6]  39 00 A4 01 00 00
 (000.068068)  can0  102   [6]  60 06 0D 06 2C 06
 (000.077134)  can0  100   [6]  39 00 A3 01 00 00
 (000.077941)  can0  102   [6]  60 06 0D 06 2C 06
 (000.087039)  can0  100   [6]  39 00 A0 01 00 00
 (000.087847)  can0  102   [6]  60 06 0D 06 2C 06
 (000.096958)  can0  100   [6]  3A 00 9E 01 00 00
 (000.097600)  can0  101   [4]  03 00 02 00
 (000.098406)  can0  102   [6]  60 06 0D 06 2C 06
 (000.098943)  can0  103   [2]  00 02
 (000.099792)  can0  104   [6]  00 00 00 00 00 00
 (000.100242)  can0  1FF   [1]  9C
 (000.106828)  can0  100   [6]  3B 00 9C 01 00 00
 (000.107631)  can0  102   [6]  60 06 0D 06 2C 06
 (000.116722)  can0  100   [6]  3B 00 9B 01 00 00
 (000.117525)  can0  102   [6]  60 06 0D 06 2C 06
 (000.126627)  can0  100   [6]  3A 00 9C 01 00 00
 (000.127435)  can0  102   [6]  60 06 0D 06 2C 06
 (000.136517)  can0  100   [6]  39 00 9F 01 00 00
 (000.146409)  can0  100   [6]  37 00 A2 01 00 00
 (000.147075)  can0  101   [4]  04 00 FD FF
 (000.147882)  can0  102   [6]  60 06 0D 06 2C 06
 (000.148446)  can0  103   [2]  00 02
 (000.149266)  can0  104   [6]  00 00 00 00 00 00
 (000.149724)  can0  1FF   [1]  9D
 (000.156300)  can0  100   [6]  35 00 A5 01 00 00
 (000.157104)  can0  102   [6]  60 06 0D 06 2C 06
 (000.166214)  can0  100   [6]  34 00 A6 01 00 00
 (000.176103)  can0  100   [6]  35 00 A6 01 00 00
 (000.176908)  can0  102   [6]  60 06 0D 06 2C 06
 (000.186002)  can0  100   [6]  37 00 A4 01 00 00
 (000.186805)  can0  102   [6]  60 06 0D 06 2C 06
 (000.195902)  can0  100   [6]  38 00 A2 01 00 00
 (000.196577)  can0  101   [4]  00 00 FB FF
 (000.197384)  can0  102   [6]  60 06 0D 06 2C 06
 (000.197922)  can0  103   [2]  00 02
 (000.198773)  can0  104   [6]  00 00 00 00 00 00
 (000.199221)  can0  1FF   [1]  9E
 (000.205789)  can0  100   [6]  39 00 A0 01 00 00
 (000.206595)  can0  102   [6]  60 06 0D 06 2C 06
 (000.215695)  can0  100   [6]  3A 00 9F 01 00 00
 (000.216498)  can0  102   [6]  60 06 0D 06 2C 06
 (000.225597)  can0  100   [6]  3A 00 9F 01 00 00
 (000.226404)  can0  102   [6]  60 06 0D 06 2C 06
 (000.235488)  can0  100   [6]  39 00 9E 01 00 00
 (000.236296)  can0  102   [6]  60 06 0D 06 2C 06
 (000.245409)  can0  100   [6]  38 00 9F 01 00 00
 (000.246078)  can0  101   [4]  F9 FF F6 FF
 (000.246884)  can0  102   [6]  60 06 0D 06 2C 06
 (000.247423)  can0  103   [2]  00 02
 (000.248271)  can0  104   [6]  00 00 00 00 00 00
 (000.248738)  can0  1FF   [1]  9F
 (000.255289)  can0  100   [6]  37 00 A2 01 00 00
 (000.256093)  can0  102   [6]  60 06 0D 06 2C 06
 (000.265193)  can0  100   [6]  36 00 A3 01 00 00
 (000.265995)  can0  102   [6]  60 06 0D 06 2C 06
 (000.275111)  can0  100   [6]  36 00 A5 01 00 00
 (000.275916)  can0  102   [6]  60 06 0D 06 2C 06
 (000.285008)  can0  100   [6]  36 00 A5 01 00 00
 (000.285817)  can0  102   [6]  60 06 0D 06 2C 06
 (000.294892)  can0  100   [6]  38 00 A4 01 00 00
 (000.295568)  can0  101   [4]  04 00 00 00
 (000.296374)  can0  102   [6]  60 06 0D 06 2C 06
 (000.296913)  can0  103   [2]  00 02
 (000.297773)  can0  104   [6]  00 00 00 00 00 00
 (000.298230)  can0  1FF   [1]  A0
 (000.304802)  can0  100   [6]  39 00 A4 01 00 00
 (000.305610)  can0  102   [6]  60 06 0D 06 2C 06
 (000.314678)  can0  100   [6]  39 00 A3 01 00 00
 (000.315485)  can0  102   [6]  60 06 0D 06 2C 06
 (000.324592)  can0  100   [6]  3A 00 A2 01 00 00
 (000.325402)  can0  102   [6]  60 06 0D 06 2C 06
 (000.334473)  can0  100   [6]  3B 00 A2 01 00 00
 (000.344381)  can0  100   [6]  3A 00 A2 01 00 00
 (000.345040)  can0  101   [4]  F6 FF 01 00
 (000.345847)  can0  102   [6]  60 06 0D 06 2C 06
 (000.346384)  can0  103   [2]  00 02
 (000.347231)  can0  104   [6]  00 00 00 00 00 00
 (000.347680)  can0  1FF   [1]  A1
 (000.354259)  can0  100   [6]  3A 00 A4 01 00 00
 (000.355067)  can0  102   [6]  60 06 0D 06 2C 06
 (000.364171)  can0  100   [6]  39 00 A4 01 00 00
 (000.364971)  can0  102   [6]  60 06 0D 06 2C 06
 (000.374055)  can0  100   [6]  38 00 A6 01 00 00
 (000.374857)  can0  102   [6]  60 06 0D 06 2C 06
 (000.383949)  can0  100   [6]  38 00 A6 01 00 00
 (000.384752)  can0  102   [6]  60 06 0D 06 2C 06
 (000.393850)  can0  100   [6]  38 00 A5 01 00 00
 (000.394500)  can0  101   [4]  02 00 EE FF
 (000.395311)  can0  102   [6]  60 06 0D 06 2C 06
 (000.395851)  can0  103   [2]  00 02
 (000.396698)  can0  104   [6]  00 00 00 00 00 00
 (000.397150)  can0  1FF   [1]  A2
 (000.403728)  can0  100   [6]  3A 00 A5 01 00 00
 (000.413624)  can0  100   [6]  3B 00 A5 01 00 00
 (000.414430)  can0  102   [6]  60 06 0D 06 2C 06
 (000.423530)  can0  100   [6]  3B 00 A4 01 00 00
 (000.424329)  can0  102   [6]  60 06 0D 06 2C 06
 (000.433452)  can0  100   [6]  3D 00 A4 01 00 00
 (000.434228)  can0  102   [6]  60 06 0D 06 2C 06
 (000.443334)  can0  100   [6]  3C 00 A4 01 00 00
 (000.444008)  can0  101   [4]  09 00 FE FF
 (000.444818)  can0  102   [6]  60 06 0D 06 2C 06
 (000.445353)  can0  103   [2]  00 02
 (000.446198)  can0  104   [6]  00 00 00 00 00 00
 (000.446653)  can0  1FF   [1]  A3
 (000.453221)  can0  100   [6]  3B 00 A4 01 00 00
 (000.454024)  can0  102   [6]  60 06 0D 06 2C 06
 (000.463137)  can0  100   [6]  3A 00 A6 01 00 00
 (000.463942)  can0  102   [6]  60 06 0D 06 2C 06
 (000.473015)  can0  100   [6]  39 00 A6 01 00 00
 (000.473817)  can0  102   [6]  60 06 0D 06 2C 06
 (000.482916)  can0  100   [6]  38 00 A6 01 00 00
 (000.483720)  can0  102   [6]  60 06 0D 06 2C 06
 (000.492814)  can0  100   [6]  38 00 A7 01 00 00
 (000.493512)  can0  101   [4]  07 00 08 00
 (000.494291)  can0  102   [6]  60 06 0D 06 2C 06
 (000.494825)  can0  103   [2]  00 02
 (000.495673)  can0  104   [6]  00 00 00 00 00 00
 (000.496142)  can0  1FF   [1]  A4
 (000.502698)  can0  100   [6]  38 00 A6 01 00 00
 (000.503503)  can0  102   [6]  60 06 0D 06 2C 06
 (000.512608)  can0  100   [6]  39 00 A4 01 00 00
 (000.513409)  can0  102   [6]  60 06 0D 06 2C 06
 (000.522486)  can0  100   [6]  3A 00 A3 01 00 00
 (000.523294)  can0  102   [6]  60 06 0D 06 2C 06
 (000.532386)  can0  100   [6]  3B 00 A2 01 00 00
 (000.533191)  can0  102   [6]  60 06 0D 06 2C 06
 (000.542283)  can0  100   [6]  3B 00 A1 01 00 00
 (000.542978)  can0  101   [4]  02 00 00 00
 (000.543787)  can0  102   [6]  60 06 0D 06 2C 06
 (000.544326)  can0  103   [2]  00 02
 (000.545173)  can0  104   [6]  00 00 00 00 00 00
 (000.545621)  can0  1FF   [1]  A5
 (000.552183)  can0  100   [6]  3A 00 A3 01 00 00
 (000.552988)  can0  102   [6]  60 06 0D 06 2C 06
 (000.562090)  can0  100   [6]  38 00 A5 01 00 00
 (000.562893)  can0  102   [6]  60 06 0D 06 2C 06
 (000.571969)  can0  100   [6]  37 00 A7 01 00 00
 (000.572773)  can0  102   [6]  60 06 0D 06 2C 06
 (000.581891)  can0  100   [6]  36 00 A8 01 00 00
 (000.582691)  can0  102   [6]  60 06 0D 06 2C 06
 (000.591760)  can0  100   [6]  37 00 A7 01 00 00
 (000.592428)  can0  101   [4]  01 00 10 00
 (000.593236)  can0  102   [6]  60 06 0D 06 2C 06
 (000.593797)  can0  103   [2]  00 02
 (000.594630)  can0  104   [6]  00 00 00 00 00 00
 (000.595081)  can0  1FF   [1]  A6
 (000.601669)  can0  100   [6]  38 00 A6 01 00 00
 (000.602483)  can0  102   [6]  60 06 0D 06 2C 06
 (000.611570)  can0  100   [6]  3A 00 A4 01 00 00
 (000.612377)  can0  102   [6]  60 06 0D 06 2C 06
 (000.621458)  can0  100   [6]  3B 00 A2 01 00 00
 (000.622260)  can0  102   [6]  60 06 0D 06 2C 06
 (000.631357)  can0  100   [6]  3B 00 A2 01 00 00
 (000.632158)  can0  102   [6]  60 06 0D 06 2C 06
 (000.641249)  can0  100   [6]  3B 00 A3 01 00 00
 (000.641928)  can0  101   [4]  03 00 04 00
 (000.642747)  can0  102   [6]  60 06 0D 06 2C 06
 (000.643277)  can0  103   [2]  00 02
 (000.644126)  can0  104   [6]  00 00 00 00 00 00
 (000.644584)  can0  1FF   [1]  A7
 (000.651149)  can0  100   [6]  3A 00 A4 01 00 00
 (000.651952)  can0  102   [6]  60 06 0D 06 2C 06
 (000.661053)  can0  100   [6]  39 00 A3 01 00 00
 (000.661847)  can0  102   [6]  60 06 0D 06 2C 06
 (000.670972)  can0  100   [6]  39 00 A4 01 00 00
 (000.671771)  can0  102   [6]  60 06 0D 06 2C 06
 (000.680868)  can0  100   [6]  39 00 A4 01 00 00
 (000.681671)  can0  102   [6]  60 06 0D 06 2C 06
 (000.690770)  can0  100   [6]  39 00 A4 01 00 00
 (000.691437)  can0  101   [4]  05 00 FF FF
 (000.692248)  can0  102   [6]  60 06 0D 06 2C 06
 (000.692787)  can0  103   [2]  00 02
 (000.693637)  can0  104   [6]  00 00 00 00 00 00
 (000.694086)  can0  1FF   [1]  A8
 (000.700667)  can0  100   [6]  3A 00 A4 01 00 00
 (000.701471)  can0  102   [6]  60 06 0D 06 2C 06
 (000.710576)  can0  100   [6]  39 00 A4 01 00 00
 (000.711377)  can0  102   [6]  60 06 0D 06 2C 06
 (000.720476)  can0  100   [6]  39 00 A4 01 00 00
 (000.721281)  can0  102   [6]  60 06 0D 06 2C 06
 (000.730366)  can0  100   [6]  39 00 A4 01 00 00
 (000.731167)  can0  102   [6]  60 06 0D 06 2C 06
 (000.740247)  can0  100   [6]  39 00 A3 01 00 00
 (000.740925)  can0  101   [4]  00 00 04 00
 (000.741730)  can0  102   [6]  60 06 0D 06 2C 06
 (000.742268)  can0  103   [2]  00 02
 (000.743120)  can0  104   [6]  00 00 00 00 00 00
 (000.743567)  can0  1FF   [1]  A9
 (000.750140)  can0  100   [6]  3A 00 A3 01 00 00
 (000.750963)  can0  102   [6]  60 06 0D 06 2C 06
 (000.760075)  can0  100   [6]  39 00 A2 01 00 00
 (000.769933)  can0  100   [6]  3A 00 A3 01 00 00
 (000.770751)  can0  102   [6]  60 06 0D 06 2C 06
 (000.779832)  can0  100   [6]  39 00 A3 01 00 00
 (000.789743)  can0  100   [6]  39 00 A4 01 00 00
 (000.790404)  can0  101   [4]  02 00 05 00
 (000.791211)  can0  102   [6]  60 06 0D 06 2C 06
 (000.791749)  can0  103   [2]  00 02
 (000.792603)  can0  104   [6]  00 00 00 00 00 00
 (000.793053)  can0  1FF   [1]  AA
 (000.799637)  can0  100   [6]  38 00 A4 01 00 00
 (000.800441)  can0  102   [6]  60 06 0D 06 2C 06
 (000.809552)  can0  100   [6]  39 00 A4 01 00 00
 (000.810366)  can0  102   [6]  60 06 0D 06 2C 06
 (000.819437)  can0  100   [6]  3A 00 A4 01 00 00
 (000.820239)  can0  102   [6]  60 06 0D 06 2C 06
 (000.829334)  can0  100   [6]  3A 00 A4 01 00 00
 (000.830131)  can0  102   [6]  60 06 0D 06 2C 06
 (000.839218)  can0  100   [6]  3A 00 A3 01 00 00
 (000.839876)  can0  101   [4]  07 00 FC FF
 (000.840803)  can0  102   [6]  60 06 0D 06 2C 06
 (000.841221)  can0  103   [2]  00 02
 (000.842073)  can0  104   [6]  00 00 00 00 00 00
 (000.842538)  can0  1FF   [1]  AB
 (000.849118)  can0  100   [6]  3A 00 A3 01 00 00
 (000.849925)  can0  102   [6]  60 06 0D 06 2C 06
 (000.859035)  can0  100   [6]  3A 00 A2 01 00 00
 (000.859842)  can0  102   [6]  60 06 0D 06 2C 06
 (000.868928)  can0  100   [6]  3B 00 A2 01 00 00
 (000.869730)  can0  102   [6]  60 06 0D 06 2C 06
 (000.878840)  can0  100   [6]  3B 00 A1 01 00 00
 (000.879636)  can0  102   [6]  60 06 0D 06 2C 06
 (000.888719)  can0  100   [6]  3B 00 A2 01 00 00
 (000.889391)  can0  101   [4]  09 00 FF FF
 (000.890200)  can0  102   [6]  60 06 0D 06 2C 06
 (000.890737)  can0  103   [2]  00 02
 (000.891587)  can0  104   [6]  00 00 00 00 00 00
 (000.892055)  can0  1FF   [1]  AC
 (000.898626)  can0  100   [6]  3A 00 A4 01 00 00
 (000.899429)  can0  102   [6]  60 06 0D 06 2C 06
 (000.908530)  can0  100   [6]  39 00 A5 01 00 00
 (000.909338)  can0  102   [6]  60 06 0D 06 2C 06
 (000.918425)  can0  100   [6]  38 00 A7 01 00 00
 (000.919231)  can0  102   [6]  60 06 0D 06 2C 06
 (000.928334)  can0  100   [6]  38 00 A7 01 00 00
 (000.929131)  can0  102   [6]  60 06 0D 06 2C 06
 (000.938209)  can0  100   [6]  39 00 A7 01 00 00
 (000.938880)  can0  101   [4]  02 00 03 00
 (000.939685)  can0  102   [6]  60 06 0D 06 2C 06
 (000.940222)  can0  103   [2]  00 02
 (000.941071)  can0  104   [6]  00 00 00 00 00 00
 (000.941533)  can0  1FF   [1]  AD
 (000.948109)  can0  100   [6]  3A 00 A4 01 00 00
 (000.948911)  can0  102   [6]  60 06 0D 06 2C 06
 (000.957999)  can0  100   [6]  3A 00 A3 01 00 00
 (000.958803)  can0  102   [6]  60 06 0D 06 2C 06
 (000.967900)  can0  100   [6]  3B 00 A1 01 00 00
 (000.968702)  can0  102   [6]  60 06 0D 06 2C 06
 (000.977805)  can0  100   [6]  3B 00 A1 01 00 00
 (000.978611)  can0  102   [6]  60 06 0D 06 2C 06
 (000.987714)  can0  100   [6]  3A 00 A2 01 00 00
 (000.988388)  can0  101   [4]  05 00 F9 FF
 (000.989196)  can0  102   [6]  60 06 0D 06 2C 06
 (000.989733)  can0  103   [2]  00 02
 (000.990582)  can0  104   [6]  00 00 00 00 00 00
 (000.991031)  can0  1FF   [1]  AE
 (001.007497)  can0  100   [6]  38 00 A6 01 00 00
 (001.008301)  can0  102   [6]  60 06 0D 06 2C 06
 (001.017388)  can0  100   [6]  38 00 A7 01 00 00
 (001.018190)  can0  102   [6]  60 06 0D 06 2C 06
 (001.027292)  can0  100   [6]  38 00 A7 01 00 00
 (001.028096)  can0  102   [6]  60 06 0D 06 2C 06
 (001.037186)  can0  100   [6]  38 00 A6 01 00 00
 (001.037854)  can0  101   [4]  0D 00 06 00
 (001.038661)  can0  102   [6]  60 06 0D 06 2C 06
 (001.039200)  can0  103   [2]  00 02
 (001.040051)  can0  104   [6]  00 00 00 00 00 00
 (001.040497)  can0  1FF   [1]  AF
 (001.056965)  can0  100   [6]  3B 00 A3 01 00 00
 (001.066857)  can0  100   [6]  3B 00 A2 01 00 00
 (001.067664)  can0  102   [6]  60 06 0D 06 2C 06
 (001.076750)  can0  100   [6]  3B 00 A3 01 00 00
 (001.077558)  can0  102   [6]  60 06 0D 06 2C 06
 (001.086656)  can0  100   [6]  3A 00 A4 01 00 00
 (001.087324)  can0  101   [4]  F8 FF F9 FF
 (001.088732)  can0  103   [2]  00 02
 (001.089581)  can0  104   [6]  00 00 00 00 00 00
 (001.090038)  can0  1FF   [1]  B0
 (001.096553)  can0  100   [6]  39 00 A4 01 00 00
 (001.097360)  can0  102   [6]  60 06 0D 06 2C 06
 (001.106447)  can0  100   [6]  39 00 A4 01 00 00
 (001.107254)  can0  102   [6]  60 06 0D 06 2C 06
 (001.116338)  can0  100   [6]  38 00 A5 01 00 00
 (001.117147)  can0  102   [6]  60 06 0D 06 2C 06
 (001.126225)  can0  100   [6]  39 00 A3 01 00 00
 (001.127042)  can0  102   [6]  60 06 0D 06 2C 06
 (001.136140)  can0  100   [6]  38 00 A4 01 00 00
 (001.136815)  can0  101   [4]  F9 FF FF FF
 (001.137629)  can0  102   [6]  60 06 0D 06 2C 06
 (001.138169)  can0  103   [2]  00 02
 (001.139013)  can0  104   [6]  00 00 00 00 00 00
 (001.139464)  can0  1FF   [1]  B1
 (001.146053)  can0  100   [6]  38 00 A3 01 00 00
 (001.146859)  can0  102   [6]  60 06 0D 06 2C 06
 (001.155931)  can0  100   [6]  39 00 A3 01 00 00
 (001.156735)  can0  102   [6]  60 06 0D 06 2C 06
 (001.165840)  can0  100   [6]  3A 00 A4 01 00 00
 (001.166640)  can0  102   [6]  60 06 0D 06 2C 06
 (001.175747)  can0  100   [6]  39 00 A4 01 00 00
 (001.176556)  can0  102   [6]  60 06 0D 06 2C 06
 (001.185632)  can0  100   [6]  39 00 A5 01 00 00
 (001.186301)  can0  101   [4]  FA FF 00 00
 (001.187109)  can0  102   [6]  60 06 0D 06 2C 06
 (001.187646)  can0  103   [2]  00 02
 (001.188501)  can0  104   [6]  00 00 00 00 00 00
 (001.188950)  can0  1FF   [1]  B2
 (001.195531)  can0  100   [6]  38 00 A5 01 00 00
 (001.196341)  can0  102   [6]  60 06 0D 06 2C 06
 (001.205429)  can0  100   [6]  38 00 A4 01 00 00
 (001.206234)  can0  102   [6]  60 06 0D 06 2C 06
 (001.215325)  can0  100   [6]  38 00 A4 01 00 00
 (001.216133)  can0  102   [6]  60 06 0D 06 2C 06
 (001.225221)  can0  100   [6]  38 00 A4 01 00 00
 (001.226035)  can0  102   [6]  60 06 0D 06 2C 06
 (001.235116)  can0  100   [6]  38 00 A4 01 00 00
 (001.235797)  can0  101   [4]  00 00 08 00
 (001.236604)  can0  102   [6]  60 06 0D 06 2C 06
 (001.237141)  can0  103   [2]  00 02
 (001.237989)  can0  104   [6]  00 00 00 00 00 00
 (001.238441)  can0  1FF   [1]  B3
 (001.245004)  can0  100   [6]  3A 00 A4 01 00 00
 (001.245812)  can0  102   [6]  60 06 0D 06 2C 06
 (001.254910)  can0  100   [6]  39 00 A4 01 00 00
 (001.255717)  can0  102   [6]  60 06 0D 06 2C 06
 (001.264804)  can0  100   [6]  39 00 A5 01 00 00
 (001.265610)  can0  102   [6]  60 06 0D 06 2C 06
 (001.274702)  can0  100   [6]  38 00 A6 01 00 00
 (001.275502)  can0  102   [6]  60 06 0D 06 2C 06
 (001.284597)  can0  100   [6]  38 00 A5 01 00 00
 (001.285265)  can0  101   [4]  F9 FF 0A 00
 (001.286078)  can0  102   [6]  60 06 0D 06 2C 06
 (001.286612)  can0  103   [2]  00 02
 (001.287460)  can0  104   [6]  00 00 00 00 00 00
 (001.287915)  can0  1FF   [1]  B4
 (001.294499)  can0  100   [6]  38 00 A4 01 00 00
 (001.304390)  can0  100   [6]  38 00 A4 01 00 00
 (001.314284)  can0  100   [6]  38 00 A4 01 00 00
 (001.315089)  can0  102   [6]  60 06 0D 06 2C 06
 (001.324169)  can0  100   [6]  38 00 A4 01 00 00
 (001.324974)  can0  102   [6]  60 06 0D 06 2C 06
 (001.334068)  can0  100   [6]  37 00 A4 01 00 00
 (001.334744)  can0  101   [4]  FE FF FB FF
 (001.335553)  can0  102   [6]  60 06 0D 06 2C 06
 (001.336096)  can0  103   [2]  00 02
 (001.336941)  can0  104   [6]  00 00 00 00 00 00
 (001.337398)  can0  1FF   [1]  B5
 (001.343967)  can0  100   [6]  37 00 A4 01 00 00
 (001.344770)  can0  102   [6]  60 06 0D 06 2C 06
 (001.353859)  can0  100   [6]  38 00 A5 01 00 00
 (001.354665)  can0  102   [6]  60 06 0D 06 2C 06
 (001.363777)  can0  100   [6]  39 00 A4 01 00 00
 (001.364573)  can0  102   [6]  60 06 0D 06 2C 06
 (001.373660)  can0  100   [6]  3A 00 A4 01 00 00
 (001.383553)  can0  100   [6]  3A 00 A5 01 00 00
 (001.385098)  can0  102   [6]  60 06 0D 06 2C 06
 (001.385635)  can0  103   [2]  00 02
 (001.386480)  can0  104   [6]  00 00 00 00 00 00
 (001.386974)  can0  1FF   [1]  B6
 (001.393437)  can0  100   [6]  3A 00 A5 01 00 00
 (001.403330)  can0  100   [6]  3A 00 A5 01 00 00
 (001.404134)  can0  102   [6]  60 06 0D 06 2C 06
 (001.413245)  can0  100   [6]  3A 00 A6 01 00 00
 (001.414047)  can0  102   [6]  60 06 0D 06 2C 06
 (001.423119)  can0  100   [6]  39 00 A6 01 00 00
 (001.433015)  can0  100   [6]  39 00 A6 01 00 00
 (001.433697)  can0  101   [4]  04 00 00 00
 (001.434504)  can0  102   [6]  60 06 0D 06 2C 06
 (001.435049)  can0  103   [2]  00 02
 (001.435891)  can0  104   [6]  00 00 00 00 00 00
 (001.436349)  can0  1FF   [1]  B7
 (001.442922)  can0  100   [6]  3A 00 A5 01 00 00
 (001.452825)  can0  100   [6]  3C 00 A3 01 00 00
 (001.453690)  can0  102   [6]  60 06 0D 06 2C 06
 (001.462718)  can0  100   [6]  3D 00 A3 01 00 00
 (001.463522)  can0  102   [6]  60 06 0D 06 2C 06
 (001.472609)  can0  100   [6]  3E 00 A3 01 00 00
 (001.473416)  can0  102   [6]  60 06 0D 06 2C 06
 (001.482495)  can0  100   [6]  3D 00 A4 01 00 00
 (001.483171)  can0  101   [4]  FD FF FD FF
 (001.483985)  can0  102   [6]  60 06 0D 06 2C 06
 (001.484522)  can0  103   [2]  00 02
 (001.485373)  can0  104   [6]  00 00 00 00 00 00
 (001.485823)  can0  1FF   [1]  B8
 (001.492405)  can0  100   [6]  3C 00 A6 01 00 00
 (001.493214)  can0  102   [6]  60 06 0D 06 2C 06
 (001.502316)  can0  100   [6]  3A 00 A8 01 00 00
 (001.503116)  can0  102   [6]  60 06 0D 06 2C 06
 (001.512205)  can0  100   [6]  39 00 A9 01 00 00
 (001.513008)  can0  102   [6]  60 06 0D 06 2C 06
 (001.522105)  can0  100   [6]  39 00 A9 01 00 00
 (001.522909)  can0  102   [6]  60 06 0D 06 2C 06
 (001.531998)  can0  100   [6]  39 00 A7 01 00 00
 (001.532677)  can0  101   [4]  00 00 04 00
 (001.533482)  can0  102   [6]  60 06 0D 06 2C 06
 (001.534020)  can0  103   [2]  00 02
 (001.534867)  can0  104   [6]  00 00 00 00 00 00
 (001.535317)  can0  1FF   [1]  B9
 (001.541892)  can0  100   [6]  39 00 A5 01 00 00
 (001.542705)  can0  102   [6]  60 06 0D 06 2C 06
 (001.551785)  can0  100   [6]  39 00 A3 01 00 00
 (001.552584)  can0  102   [6]  60 06 0D 06 2C 06
 (001.561680)  can0  100   [6]  3A 00 A3 01 00 00
 (001.571590)  can0  100   [6]  39 00 A4 01 00 00
 (001.581476)  can0  100   [6]  38 00 A6 01 00 00
 (001.582145)  can0  101   [4]  FF FF 06 00
 (001.583551)  can0  103   [2]  00 02
 (001.584406)  can0  104   [6]  00 00 00 00 00 00
 (001.584857)  can0  1FF   [1]  BA
 (001.591373)  can0  100   [6]  38 00 A6 01 00 00
 (001.592173)  can0  102   [6]  60 06 0D 06 2C 06
 (001.601263)  can0  100   [6]  37 00 A7 01 00 00
 (001.611184)  can0  100   [6]  38 00 A8 01 00 00
 (001.611982)  can0  102   [6]  60 06 0D 06 2C 06
 (001.621047)  can0  100   [6]  38 00 A9 01 00 00
 (001.630937)  can0  100   [6]  37 00 A9 01 00 00
 (001.631594)  can0  101   [4]  16 00 F9 FF
 (001.633002)  can0  103   [2]  00 02
 (001.633850)  can0  104   [6]  00 00 00 00 00 00
 (001.634308)  can0  1FF   [1]  BB
 (001.640835)  can0  100   [6]  36 00 AA 01 00 00
 (001.641643)  can0  102   [6]  60 06 0D 06 2C 06
 (001.650731)  can0  100   [6]  35 00 A9 01 00 00
 (001.651533)  can0  102   [6]  60 06 0D 06 2C 06
 (001.660633)  can0  100   [6]  36 00 A7 01 00 00
 (001.661429)  can0  102   [6]  60 06 0D 06 2C 06
 (001.670532)  can0  100   [6]  37 00 A3 01 00 00
 (001.671334)  can0  102   [6]  60 06 0D 06 2C 06
 (001.680428)  can0  100   [6]  39 00 9F 01 00 00
 (001.681103)  can0  101   [4]  FF FF F4 FF
 (001.681912)  can0  102   [6]  60 06 0D 06 2C 06
 (001.682450)  can0  103   [2]  00 02
 (001.683300)  can0  104   [6]  00 00 00 00 00 00
 (001.683749)  can0  1FF   [1]  BC
 (001.690331)  can0  100   [6]  3C 00 9D 01 00 00
 (001.691139)  can0  102   [6]  60 06 0D 06 2C 06
 (001.700229)  can0  100   [6]  3D 00 9E 01 00 00
 (001.701026)  can0  102   [6]  60 06 0D 06 2C 06
 (001.710122)  can0  100   [6]  3D 00 9F 01 00 00
 (001.710923)  can0  102   [6]  60 06 0D 06 2C 06
 (001.720005)  can0  100   [6]  3B 00 A1 01 00 00
 (001.729903)  can0  100   [6]  37 00 A2 01 00 00
 (001.730569)  can0  101   [4]  EF FF 04 00
 (001.731378)  can0  102   [6]  60 06 0D 06 2C 06
 (001.731913)  can0  103   [2]  00 02
 (001.732760)  can0  104   [6]  00 00 00 00 00 00
 (001.733210)  can0  1FF   [1]  BD
 (001.739801)  can0  100   [6]  35 00 A4 01 00 00
 (001.740602)  can0  102   [6]  60 06 0D 06 2C 06
 (001.749703)  can0  100   [6]  33 00 A4 01 00 00
 (001.750514)  can0  102   [6]  60 06 0D 06 2C 06
 (001.759610)  can0  100   [6]  32 00 A5 01 00 00
 (001.760419)  can0  102   [6]  60 06 0D 06 2C 06
 (001.769512)  can0  100   [6]  33 00 A4 01 00 00
 (001.770316)  can0  102   [6]  60 06 0D 06 2C 06
 (001.779419)  can0  100   [6]  34 00 A3 01 00 00
 (001.780087)  can0  101   [4]  FD FF 05 00
 (001.780934)  can0  102   [6]  60 06 0D 06 2C 06
 (001.781430)  can0  103   [2]  00 02
 (001.782279)  can0  104   [6]  00 00 00 00 00 00
 (001.782746)  can0  1FF   [1]  BE
 (001.789293)  can0  100   [6]  37 00 A1 01 00 00
 (001.790096)  can0  102   [6]  60 06 0D 06 2C 06
 (001.799198)  can0  100   [6]  38 00 A1 01 00 00
 (001.800002)  can0  102   [6]  60 06 0D 06 2C 06
 (001.809099)  can0  100   [6]  3A 00 A0 01 00 00
 (001.809899)  can0  102   [6]  60 06 0D 06 2C 06
 (001.819017)  can0  100   [6]  3B 00 A0 01 00 00
 (001.819820)  can0  102   [6]  60 06 0D 06 2C 06
 (001.828914)  can0  100   [6]  3B 00 A0 01 00 00
 (001.829569)  can0  101   [4]  F5 FF FA FF
 (001.830383)  can0  102   [6]  60 06 0D 06 2C 06
 (001.830913)  can0  103   [2]  00 02
 (001.831759)  can0  104   [6]  00 00 00 00 00 00
 (001.832227)  can0  1FF   [1]  BF
 (001.838800)  can0  100   [6]  3B 00 9F 01 00 00
 (001.839606)  can0  102   [6]  60 06 0D 06 2C 06
 (001.848694)  can0  100   [6]  3B 00 9F 01 00 00
 (001.849497)  can0  102   [6]  60 06 0D 06 2C 06
 (001.858586)  can0  100   [6]  3A 00 9F 01 00 00
 (001.859391)  can0  102   [6]  60 06 0D 06 2C 06
 (001.868487)  can0  100   [6]  3A 00 9F 01 00 00
 (001.869294)  can0  102   [6]  60 06 0D 06 2C 06
 (001.878386)  can0  100   [6]  39 00 A0 01 00 00
 (001.879054)  can0  101   [4]  FC FF F1 FF
 (001.879864)  can0  102   [6]  60 06 0D 06 2C 06
 (001.880401)  can0  103   [2]  00 02
 (001.881260)  can0  104   [6]  00 00 00 00 00 00
 (001.881709)  can0  1FF   [1]  C0
 (001.888281)  can0  100   [6]  37 00 A3 01 00 00
 (001.889089)  can0  102   [6]  60 06 0D 06 2C 06
 (001.898173)  can0  100   [6]  37 00 A5 01 00 00
 (001.898981)  can0  102   [6]  60 06 0D 06 2C 06
 (001.908073)  can0  100   [6]  36 00 A7 01 00 00
 (001.908881)  can0  102   [6]  60 06 0D 06 2C 06
 (001.917986)  can0  100   [6]  35 00 A8 01 00 00
 (001.918793)  can0  102   [6]  60 06 0D 06 2C 06
 (001.927892)  can0  100   [6]  35 00 A6 01 00 00
 (001.928562)  can0  101   [4]  FA FF F6 FF
 (001.929371)  can0  102   [6]  60 06 0D 06 2C 06
 (001.929909)  can0  103   [2]  00 02
 (001.930761)  can0  104   [6]  00 00 00 00 00 00
 (001.931214)  can0  1FF   [1]  C1
 (001.937793)  can0  100   [6]  36 00 A1 01 00 00
 (001.938602)  can0  102   [6]  60 06 0D 06 2C 06
 (001.947682)  can0  100   [6]  37 00 9E 01 00 00
 (001.948486)  can0  102   [6]  60 06 0D 06 2C 06
 (001.957587)  can0  100   [6]  37 00 9E 01 00 00
 (001.958389)  can0  102   [6]  60 06 0D 06 2C 06
 (001.967501)  can0  100   [6]  38 00 9F 01 00 00
 (001.968305)  can0  102   [6]  60 06 0D 06 2C 06
 (001.977395)  can0  100   [6]  3A 00 A0 01 00 00
 (001.978065)  can0  101   [4]  F7 FF 0D 00
 (001.978873)  can0  102   [6]  60 06 0D 06 2C 06
 (001.979413)  can0  103   [2]  00 02
 (001.980262)  can0  104   [6]  00 00 00 00 00 00
 (001.980733)  can0  1FF   [1]  C2
 (001.987314)  can0  100   [6]  3B 00 A0 01 00 00
 (001.988120)  can0  102   [6]  60 06 0D 06 2C 06
 (001.997202)  can0  100   [6]  3B 00 9F 01 00 00
 (001.998002)  can0  102   [6]  60 06 0D 06 2C 06
 (002.007118)  can0  100   [6]  3B 00 A0 01 00 00
 (002.007925)  can0  102   [6]  60 06 0D 06 2C 06
 (002.016991)  can0  100   [6]  3A 00 A1 01 00 00
 (002.017812)  can0  102   [6]  60 06 0D 06 2C 06
 (002.026898)  can0  100   [6]  38 00 A4 01 00 00
 (002.027569)  can0  101   [4]  F9 FF 00 00
 (002.028378)  can0  102   [6]  60 06 0D 06 2C 06
 (002.028918)  can0  103   [2]  00 02
 (002.029777)  can0  104   [6]  00 00 00 00 00 00
 (002.030255)  can0  1FF   [1]  C3
 (002.036797)  can0  100   [6]  37 00 A5 01 00 00
 (002.037602)  can0  102   [6]  60 06 0D 06 2C 06
 (002.046706)  can0  100   [6]  37 00 A5 01 00 00
 (002.047503)  can0  102   [6]  60 06 0D 06 2C 06
 (002.056609)  can0  100   [6]  38 00 A4 01 00 00
 (002.057412)  can0  102   [6]  60 06 0D 06 2C 06
 (002.066518)  can0  100   [6]  3A 00 A2 01 00 00
 (002.067324)  can0  102   [6]  60 06 0D 06 2C 06
 (002.076424)  can0  100   [6]  3C 00 A1 01 00 00
 (002.077088)  can0  101   [4]  05 00 FD FF
 (002.077894)  can0  102   [6]  60 06 0D 06 2C 06
 (002.078431)  can0  103   [2]  00 02
 (002.079279)  can0  104   [6]  00 00 00 00 00 00
 (002.079732)  can0  1FF   [1]  C4
 (002.086307)  can0  100   [6]  3D 00 A2 01 00 00
 (002.087112)  can0  102   [6]  60 06 0D 06 2C 06
 (002.096216)  can0  100   [6]  3D 00 A3 01 00 00
 (002.097028)  can0  102   [6]  60 06 0D 06 2C 06
 (002.106126)  can0  100   [6]  3E 00 A2 01 00 00
 (002.106935)  can0  102   [6]  60 06 0D 06 2C 06
 (002.116016)  can0  100   [6]  3D 00 A2 01 00 00
 (002.116819)  can0  102   [6]  60 06 0D 06 2C 06
 (002.125912)  can0  100   [6]  3D 00 A2 01 00 00
 (002.126588)  can0  101   [4]  08 00 0A 00
 (002.127396)  can0  102   [6]  60 06 0D 06 2C 06
 (002.127934)  can0  103   [2]  00 02
 (002.128782)  can0  104   [6]  00 00 00 00 00 00
 (002.129239)  can0  1FF   [1]  C5
 (002.135815)  can0  100   [6]  3B 00 A2 01 00 00
 (002.136625)  can0  102   [6]  60 06 0D 06 2C 06
 (002.145743)  can0  100   [6]  3A 00 A2 01 00 00
 (002.146548)  can0  102   [6]  60 06 0D 06 2C 06
 (002.155626)  can0  100   [6]  39 00 A2 01 00 00
 (002.156433)  can0  102   [6]  60 06 0D 06 2C 06
 (002.165533)  can0  100   [6]  39 00 A3 01 00 00
 (002.166336)  can0  102   [6]  60 06 0D 06 2C 06
 (002.175433)  can0  100   [6]  3A 00 A3 01 00 00
 (002.176113)  can0  101   [4]  00 00 00 00
 (002.176929)  can0  102   [6]  60 06 0D 06 2C 06
 (002.177463)  can0  103   [2]  00 02
 (002.178311)  can0  104   [6]  00 00 00 00 00 00
 (002.178788)  can0  1FF   [1]  C6
 (002.185342)  can0  100   [6]  3B 00 A2 01 00 00
 (002.186138)  can0  102   [6]  60 06 0D 06 2C 06
 (002.195250)  can0  100   [6]  3C 00 A1 01 00 00
 (002.196052)  can0  102   [6]  60 06 0D 06 2C 06
 (002.205169)  can0  100   [6]  3E 00 A0 01 00 00
 (002.205972)  can0  102   [6]  60 06 0D 06 2C 06
 (002.215053)  can0  100   [6]  3F 00 A0 01 00 00
 (002.215854)  can0  102   [6]  60 06 0D 06 2C 06
 (002.224956)  can0  100   [6]  3D 00 A0 01 00 00
 (002.225609)  can0  101   [4]  F1 FF 05 00
 (002.226418)  can0  102   [6]  60 06 0D 06 2C 06
 (002.226961)  can0  103   [2]  00 02
 (002.227808)  can0  104   [6]  00 00 00 00 00 00
 (002.228267)  can0  1FF   [1]  C7
 (002.234846)  can0  100   [6]  3B 00 A2 01 00 00
 (002.235655)  can0  102   [6]  60 06 0D 06 2C 06
 (002.244759)  can0  100   [6]  38 00 A5 01 00 00
 (002.245569)  can0  102   [6]  60 06 0D 06 2C 06
 (002.254658)  can0  100   [6]  35 00 A7 01 00 00
 (002.255470)  can0  102   [6]  60 06 0D 06 2C 06
 (002.264582)  can0  100   [6]  36 00 A8 01 00 00
 (002.265386)  can0  102   [6]  60 06 0D 06 2C 06
 (002.274506)  can0  100   [6]  37 00 A7 01 00 00
 (002.275132)  can0  101   [4]  07 00 FB FF
 (002.275942)  can0  102   [6]  60 06 0D 06 2C 06
 (002.276479)  can0  103   [2]  00 02
 (002.277324)  can0  104   [6]  00 00 00 00 00 00
 (002.277786)  can0  1FF   [1]  C8
 (002.284362)  can0  100   [6]  39 00 A5 01 00 00
 (002.285171)  can0  102   [6]  60 06 0D 06 2C 06
 (002.294275)  can0  100   [6]  3C 00 A3 01 00 00
 (002.295082)  can0  102   [6]  60 06 0D 06 2C 06
 (002.304185)  can0  100   [6]  3E 00 A1 01 00 00
 (002.304986)  can0  102   [6]  60 06 0D 06 2C 06
 (002.314087)  can0  100   [6]  3E 00 A1 01 00 00
 (002.314891)  can0  102   [6]  60 06 0D 06 2C 06
 (002.323986)  can0  100   [6]  3E 00 A0 01 00 00
 (002.324665)  can0  101   [4]  FB FF 06 00
 (002.325473)  can0  102   [6]  60 06 0D 06 2C 06
 (002.326009)  can0  103   [2]  00 02
 (002.326862)  can0  104   [6]  00 00 00 00 00 00
 (002.327320)  can0  1FF   [1]  C9
 (002.333864)  can0  100   [6]  3D 00 A2 01 00 00
 (002.334668)  can0  102   [6]  60 06 0D 06 2C 06
 (002.343769)  can0  100   [6]  3B 00 A4 01 00 00
 (002.344578)  can0  102   [6]  60 06 0D 06 2C 06
 (002.353682)  can0  100   [6]  39 00 A5 01 00 00
 (002.354485)  can0  102   [6]  60 06 0D 06 2C 06
 (002.363583)  can0  100   [6]  38 00 A7 01 00 00
 (002.364388)  can0  102   [6]  60 06 0D 06 2C 06
 (002.373482)  can0  100   [6]  37 00 A7 01 00 00
 (002.374125)  can0  101   [4]  0F 00 F2 FF
 (002.374932)  can0  102   [6]  60 06 0D 06 2C 06
 (002.375469)  can0  103   [2]  00 02
 (002.376327)  can0  104   [6]  00 00 00 00 00 00
 (002.376774)  can0  1FF   [1]  CA
 (002.383376)  can0  100   [6]  37 00 A6 01 00 00
 (002.384179)  can0  102   [6]  60 06 0D 06 2C 06
 (002.393294)  can0  100   [6]  38 00 A4 01 00 00
 (002.394096)  can0  102   [6]  60 06 0D 06 2C 06
 (002.403201)  can0  100   [6]  3A 00 A2 01 00 00
 (002.404000)  can0  102   [6]  60 06 0D 06 2C 06
 (002.413117)  can0  100   [6]  3B 00 A0 01 00 00
 (002.413913)  can0  102   [6]  60 06 0D 06 2C 06
 (002.423008)  can0  100   [6]  3C 00 9F 01 00 00
 (002.423669)  can0  101   [4]  03 00 F4 FF
 (002.424474)  can0  102   [6]  60 06 0D 06 2C 06
 (002.425011)  can0  103   [2]  00 02
 (002.425861)  can0  104   [6]  00 00 00 00 00 00
 (002.426319)  can0  1FF   [1]  CB
 (002.432891)  can0  100   [6]  3D 00 A0 01 00 00
 (002.433692)  can0  102   [6]  60 06 0D 06 2C 06
 (002.442783)  can0  100   [6]  3D 00 A1 01 00 00
 (002.443595)  can0  102   [6]  60 06 0D 06 2C 06
 (002.452692)  can0  100   [6]  3D 00 A2 01 00 00
 (002.453494)  can0  102   [6]  60 06 0D 06 2C 06
 (002.462606)  can0  100   [6]  3D 00 A3 01 00 00
 (002.463413)  can0  102   [6]  60 06 0D 06 2C 06
 (002.472517)  can0  100   [6]  3C 00 A3 01 00 00
 (002.473173)  can0  101   [4]  F8 FF 11 00
 (002.473978)  can0  102   [6]  60 06 0D 06 2C 06
 (002.474515)  can0  103   [2]  00 02
 (002.475363)  can0  104   [6]  00 00 00 00 00 00
 (002.475819)  can0  1FF   [1]  CC
 (002.482411)  can0  100   [6]  3B 00 A4 01 00 00
 (002.483216)  can0  102   [6]  60 06 0D 06 2C 06
 (002.492319)  can0  100   [6]  3A 00 A4 01 00 00
 (002.493131)  can0  102   [6]  60 06 0D 06 2C 06
 (002.502209)  can0  100   [6]  3B 00 A4 01 00 00
 (002.503015)  can0  102   [6]  60 06 0D 06 2C 06
 (002.512115)  can0  100   [6]  3B 00 A3 01 00 00
 (002.512914)  can0  102   [6]  60 06 0D 06 2C 06
 (002.522003)  can0  100   [6]  39 00 A2 01 00 00
 (002.522666)  can0  101   [4]  FF FF 11 00
 (002.523473)  can0  102   [6]  60 06 0D 06 2C 06
 (002.524010)  can0  103   [2]  00 02
 (002.524858)  can0  104   [6]  00 00 00 00 00 00
 (002.525309)  can0  1FF   [1]  CD
 (002.531907)  can0  100   [6]  39 00 A3 01 00 00
 (002.532714)  can0  102   [6]  60 06 0D 06 2C 06
 (002.541807)  can0  100   [6]  39 00 A3 01 00 00
 (002.542617)  can0  102   [6]  60 06 0D 06 2C 06
 (002.551735)  can0  100   [6]  38 00 A4 01 00 00
 (002.552529)  can0  102   [6]  60 06 0D 06 2C 06
 (002.561623)  can0  100   [6]  38 00 A6 01 00 00
 (002.562430)  can0  102   [6]  60 06 0D 06 2C 06
 (002.571527)  can0  100   [6]  39 00 A5 01 00 00
 (002.572185)  can0  101   [4]  03 00 19 00
 (002.572992)  can0  102   [6]  60 06 0D 06 2C 06
 (002.573530)  can0  103   [2]  00 02
 (002.574379)  can0  104   [6]  00 00 00 00 00 00
 (002.574835)  can0  1FF   [1]  CE
 (002.581432)  can0  100   [6]  39 00 A4 01 00 00
 (002.582236)  can0  102   [6]  60 06 0D 06 2C 06
 (002.591318)  can0  100   [6]  3A 00 A3 01 00 00
 (002.592120)  can0  102   [6]  60 06 0D 06 2C 06
 (002.601224)  can0  100   [6]  39 00 A3 01 00 00
 (002.602023)  can0  102   [6]  60 06 0D 06 2C 06
 (002.611124)  can0  100   [6]  39 00 A3 01 00 00
 (002.611928)  can0  102   [6]  60 06 0D 06 2C 06
 (002.621037)  can0  100   [6]  37 00 A3 01 00 00
 (002.621700)  can0  101   [4]  FC FF 0D 00
 (002.622507)  can0  102   [6]  60 06 0D 06 2C 06
 (002.623043)  can0  103   [2]  00 02
 (002.623894)  can0  104   [6]  00 00 00 00 00 00
 (002.624353)  can0  1FF   [1]  CF
 (002.630930)  can0  100   [6]  36 00 A4 01 00 00
 (002.631732)  can0  102   [6]  60 06 0D 06 2C 06
 (002.640850)  can0  100   [6]  36 00 A5 01 00 00
 (002.641654)  can0  102   [6]  60 06 0D 06 2C 06
 (002.650739)  can0  100   [6]  35 00 A5 01 00 00
 (002.651536)  can0  102   [6]  60 06 0D 06 2C 06
 (002.660644)  can0  100   [6]  35 00 A6 01 00 00
 (002.661451)  can0  102   [6]  60 06 0D 06 2C 06
 (002.670537)  can0  100   [6]  36 00 A6 01 00 00
 (002.671210)  can0  101   [4]  05 00 04 00
 (002.672023)  can0  102   [6]  60 06 0D 06 2C 06
 (002.672557)  can0  103   [2]  00 02
 (002.673411)  can0  104   [6]  00 00 00 00 00 00
 (002.673863)  can0  1FF   [1]  D0
 (002.680434)  can0  100   [6]  36 00 A6 01 00 00
 (002.681236)  can0  102   [6]  60 06 0D 06 2C 06
 (002.690343)  can0  100   [6]  38 00 A5 01 00 00
 (002.691147)  can0  102   [6]  60 06 0D 06 2C 06
 (002.700259)  can0  100   [6]  39 00 A4 01 00 00
 (002.701058)  can0  102   [6]  60 06 0D 06 2C 06
 (002.710134)  can0  100   [6]  39 00 A3 01 00 00
 (002.710937)  can0  102   [6]  60 06 0D 06 2C 06
 (002.720031)  can0  100   [6]  39 00 A3 01 00 00
 (002.720700)  can0  101   [4]  FB FF 03 00
 (002.721508)  can0  102   [6]  60 06 0D 06 2C 06
 (002.722045)  can0  103   [2]  00 02
 (002.722898)  can0  104   [6]  00 00 00 00 00 00
 (002.723396)  can0  1FF   [1]  D1
 (002.729934)  can0  100   [6]  39 00 A3 01 00 00
 (002.730737)  can0  102   [6]  60 06 0D 06 2C 06
 (002.739839)  can0  100   [6]  38 00 A5 01 00 00
 (002.740637)  can0  102   [6]  60 06 0D 06 2C 06
 (002.749726)  can0  100   [6]  37 00 A5 01 00 00
 (002.750527)  can0  102   [6]  60 06 0D 06 2C 06
 (002.759628)  can0  100   [6]  36 00 A6 01 00 00
 (002.760428)  can0  102   [6]  60 06 0D 06 2C 06
 (002.769572)  can0  100   [6]  35 00 A7 01 00 00
 (002.770197)  can0  101   [4]  FE FF 0C 00
 (002.771008)  can0  102   [6]  60 06 0D 06 2C 06
 (002.771545)  can0  103   [2]  00 02
 (002.772394)  can0  104   [6]  00 00 00 00 00 00
 (002.772846)  can0  1FF   [1]  D2
 (002.779438)  can0  100   [6]  36 00 A6 01 00 00
 (002.780242)  can0  102   [6]  60 06 0D 06 2C 06
 (002.789337)  can0  100   [6]  37 00 A5 01 00 00
 (002.790141)  can0  102   [6]  60 06 0D 06 2C 06
 (002.799251)  can0  100   [6]  38 00 A4 01 00 00
 (002.800050)  can0  102   [6]  60 06 0D 06 2C 06
 (002.809159)  can0  100   [6]  39 00 A4 01 00 00
 (002.809962)  can0  102   [6]  60 06 0D 06 2C 06
 (002.819042)  can0  100   [6]  3A 00 A3 01 00 00
 (002.819711)  can0  101   [4]  03 00 FF FF
 (002.820520)  can0  102   [6]  60 06 0D 06 2C 06
 (002.821056)  can0  103   [2]  00 02
 (002.821906)  can0  104   [6]  00 00 00 00 00 00
 (002.822371)  can0  1FF   [1]  D3
 (002.828947)  can0  100   [6]  3A 00 A4 01 00 00
 (002.829763)  can0  102   [6]  60 06 0D 06 2C 06
 (002.838839)  can0  100   [6]  3A 00 A3 01 00 00
 (002.839643)  can0  102   [6]  60 06 0D 06 2C 06
 (002.848750)  can0  100   [6]  3A 00 A4 01 00 00
 (002.849554)  can0  102   [6]  60 06 0D 06 2C 06
 (002.858643)  can0  100   [6]  39 00 A5 01 00 00
 (002.859447)  can0  102   [6]  60 06 0D 06 2C 06
 (002.868539)  can0  100   [6]  38 00 A5 01 00 00
 (002.869207)  can0  101   [4]  02 00 FD FF
 (002.870017)  can0  102   [6]  60 06 0D 06 2C 06
 (002.870552)  can0  103   [2]  00 02
 (002.871404)  can0  104   [6]  00 00 00 00 00 00
 (002.871869)  can0  1FF   [1]  D4
 (002.878440)  can0  100   [6]  38 00 A6 01 00 00
 (002.879242)  can0  102   [6]  60 06 0D 06 2C 06
 (002.888335)  can0  100   [6]  38 00 A5 01 00 00
 (002.898236)  can0  100   [6]  39 00 A5 01 00 00
 (002.899038)  can0  102   [6]  60 06 0D 06 2C 06
 (002.908123)  can0  100   [6]  39 00 A5 01 00 00
 (002.908925)  can0  102   [6]  60 06 0D 06 2C 06
 (002.918023)  can0  100   [6]  39 00 A4 01 00 00
 (002.918690)  can0  101   [4]  07 00 FD FF
 (002.919500)  can0  102   [6]  60 06 0D 06 2C 06
 (002.920037)  can0  103   [2]  00 02
 (002.920886)  can0  104   [6]  00 00 00 00 00 00
 (002.921343)  can0  1FF   [1]  D5
 (002.927913)  can0  100   [6]  39 00 A5 01 00 00
 (002.928720)  can0  102   [6]  60 06 0D 06 2C 06
 (002.937815)  can0  100   [6]  38 00 A5 01 00 00
 (002.938624)  can0  102   [6]  60 06 0D 06 2C 06
 (002.947717)  can0  100   [6]  38 00 A6 01 00 00
 (002.948518)  can0  102   [6]  60 06 0D 06 2C 06
 (002.957610)  can0  100   [6]  38 00 A6 01 00 00
 (002.958415)  can0  102   [6]  60 06 0D 06 2C 06
 (002.967516)  can0  100   [6]  38 00 A5 01 00 00
 (002.968181)  can0  101   [4]  FD FF 00 00
 (002.968990)  can0  102   [6]  60 06 0D 06 2C 06
 (002.969527)  can0  103   [2]  00 02
 (002.970377)  can0  104   [6]  00 00 00 00 00 00
 (002.970833)  can0  1FF   [1]  D6
 (002.977408)  can0  100   [6]  39 00 A5 01 00 00
 (002.978216)  can0  102   [6]  60 06 0D 06 2C 06
 (002.987328)  can0  100   [6]  39 00 A5 01 00 00
 (002.988114)  can0  102   [6]  60 06 0D 06 2C 06
 (002.997210)  can0  100   [6]  39 00 A5 01 00 00
 (002.998014)  can0  102   [6]  60 06 0D 06 2C 06
 (003.007094)  can0  100   [6]  3B 00 A5 01 00 00
 (003.007901)  can0  102   [6]  60 06 0D 06 2C 06
 (003.016991)  can0  100   [6]  3A 00 A5 01 00 00
 (003.017648)  can0  101   [4]  F7 FF 0A 00
 (003.018456)  can0  102   [6]  60 06 0D 06 2C 06
 (003.018995)  can0  103   [2]  00 02
 (003.019843)  can0  104   [6]  00 00 00 00 00 00
 (003.020301)  can0  1FF   [1]  D7
 (003.026897)  can0  100   [6]  39 00 A6 01 00 00
 (003.027701)  can0  102   [6]  60 06 0D 06 2C 06
 (003.036789)  can0  100   [6]  39 00 A6 01 00 00
 (003.037596)  can0  102   [6]  60 06 0D 06 2C 06
 (003.046681)  can0  100   [6]  39 00 A6 01 00 00
 (003.047489)  can0  102   [6]  60 06 0D 06 2C 06
 (003.056585)  can0  100   [6]  39 00 A6 01 00 00
 (003.057383)  can0  102   [6]  60 06 0D 06 2C 06
 (003.066496)  can0  100   [6]  3A 00 A6 01 00 00
 (003.067171)  can0  101   [4]  FF FF 00 00
 (003.067979)  can0  102   [6]  60 06 0D 06 2C 06
 (003.068517)  can0  103   [2]  00 02
 (003.069366)  can0  104   [6]  00 00 00 00 00 00
 (003.069816)  can0  1FF   [1]  D8
 (003.076379)  can0  100   [6]  3A 00 A5 01 00 00
 (003.077182)  can0  102   [6]  60 06 0D 06 2C 06
 (003.086276)  can0  100   [6]  3A 00 A5 01 00 00
 (003.087080)  can0  102   [6]  60 06 0D 06 2C 06
 (003.096192)  can0  100   [6]  39 00 A4 01 00 00
 (003.096998)  can0  102   [6]  60 06 0D 06 2C 06
 (003.106094)  can0  100   [6]  39 00 A4 01 00 00
 (003.106898)  can0  102   [6]  60 06 0D 06 2C 06
 (003.115986)  can0  100   [6]  39 00 A4 01 00 00
 (003.116665)  can0  101   [4]  F9 FF F3 FF
 (003.117474)  can0  102   [6]  60 06 0D 06 2C 06
 (003.118013)  can0  103   [2]  00 02
 (003.118860)  can0  104   [6]  00 00 00 00 00 00
 (003.119540)  can0  1FF   [1]  D9
 (003.125869)  can0  100   [6]  38 00 A5 01 00 00
 (003.126680)  can0  102   [6]  60 06 0D 06 2C 06
 (003.135770)  can0  100   [6]  38 00 A5 01 00 00
 (003.136578)  can0  102   [6]  60 06 0D 06 2C 06
 (003.145658)  can0  100   [6]  39 00 A6 01 00 00
 (003.146466)  can0  102   [6]  60 06 0D 06 2C 06
 (003.155565)  can0  100   [6]  39 00 A5 01 00 00
 (003.156372)  can0  102   [6]  60 06 0D 06 2C 06
 (003.165460)  can0  100   [6]  3A 00 A5 01 00 00
 (003.166144)  can0  101   [4]  FD FF 02 00
 (003.166953)  can0  102   [6]  60 06 0D 06 2C 06
 (003.167494)  can0  103   [2]  00 02
 (003.168366)  can0  104   [6]  00 00 00 00 00 00
 (003.168799)  can0  1FF   [1]  DA
 (003.175364)  can0  100   [6]  39 00 A5 01 00 00
 (003.176168)  can0  102   [6]  60 06 0D 06 2C 06
 (003.185263)  can0  100   [6]  39 00 A5 01 00 00
 (003.186066)  can0  102   [6]  60 06 0D 06 2C 06
 (003.195148)  can0  100   [6]  39 00 A6 01 00 00
 (003.195954)  can0  102   [6]  60 06 0D 06 2C 06
 (003.205053)  can0  100   [6]  38 00 A5 01 00 00
 (003.205860)  can0  102   [6]  60 06 0D 06 2C 06
 (003.214952)  can0  100   [6]  39 00 A5 01 00 00
 (003.215617)  can0  101   [4]  05 00 03 00
 (003.216424)  can0  102   [6]  60 06 0D 06 2C 06
 (003.216962)  can0  103   [2]  00 02
 (003.217809)  can0  104   [6]  00 00 00 00 00 00
 (003.218268)  can0  1FF   [1]  DB
 (003.224849)  can0  100   [6]  38 00 A6 01 00 00
 (003.225657)  can0  102   [6]  60 06 0D 06 2C 06
 (003.234751)  can0  100   [6]  38 00 A5 01 00 00
 (003.235560)  can0  102   [6]  60 06 0D 06 2C 06
 (003.244650)  can0  100   [6]  38 00 A5 01 00 00
 (003.245458)  can0  102   [6]  60 06 0D 06 2C 06
 (003.254546)  can0  100   [6]  38 00 A5 01 00 00
 (003.255353)  can0  102   [6]  60 06 0D 06 2C 06
 (003.264445)  can0  100   [6]  38 00 A5 01 00 00
 (003.265125)  can0  101   [4]  00 00 09 00
 (003.265931)  can0  102   [6]  60 06 0D 06 2C 06
 (003.266467)  can0  103   [2]  00 02
 (003.267315)  can0  104   [6]  00 00 00 00 00 00
 (003.267781)  can0  1FF   [1]  DC
 (003.274331)  can0  100   [6]  37 00 A6 01 00 00
 (003.275135)  can0  102   [6]  60 06 0D 06 2C 06
 (003.284240)  can0  100   [6]  37 00 A6 01 00 00
 (003.285034)  can0  102   [6]  60 06 0D 06 2C 06
 (003.294128)  can0  100   [6]  37 00 A5 01 00 00
 (003.294932)  can0  102   [6]  60 06 0D 06 2C 06
 (003.304025)  can0  100   [6]  37 00 A5 01 00 00
 (003.304831)  can0  102   [6]  60 06 0D 06 2C 06
 (003.313965)  can0  100   [6]  38 00 A6 01 00 00
 (003.314603)  can0  101   [4]  06 00 02 00
 (003.315408)  can0  102   [6]  60 06 0D 06 2C 06
 (003.315983)  can0  103   [2]  00 02
 (003.316801)  can0  104   [6]  00 00 00 00 00 00
 (003.317247)  can0  1FF   [1]  DD
 (003.323831)  can0  100   [6]  38 00 A6 01 00 00
 (003.324634)  can0  102   [6]  60 06 0D 06 2C 06
 (003.333732)  can0  100   [6]  38 00 A6 01 00 00
 (003.334537)  can0  102   [6]  60 06 0D 06 2C 06
 (003.343628)  can0  100   [6]  38 00 A6 01 00 00
 (003.344435)  can0  102   [6]  60 06 0D 06 2C 06
 (003.353520)  can0  100   [6]  38 00 A5 01 00 00
 (003.354330)  can0  102   [6]  60 06 0D 06 2C 06
 (003.363421)  can0  100   [6]  38 00 A5 01 00 00
 (003.364089)  can0  101   [4]  FA FF 05 00
 (003.364899)  can0  102   [6]  60 06 0D 06 2C 06
 (003.365437)  can0  103   [2]  00 02
 (003.366282)  can0  104   [6]  00 00 00 00 00 00
 (003.366735)  can0  1FF   [1]  DE
 (003.373316)  can0  100   [6]  38 00 A5 01 00 00
 (003.374122)  can0  102   [6]  60 06 0D 06 2C 06
 (003.383220)  can0  100   [6]  37 00 A5 01 00 00
 (003.384025)  can0  102   [6]  60 06 0D 06 2C 06
 (003.393118)  can0  100   [6]  38 00 A5 01 00 00
 (003.393926)  can0  102   [6]  60 06 0D 06 2C 06
 (003.403025)  can0  100   [6]  38 00 A6 01 00 00
 (003.403828)  can0  102   [6]  60 06 0D 06 2C 06
 (003.412923)  can0  100   [6]  38 00 A6 01 00 00
 (003.413596)  can0  101   [4]  FF FF 03 00
 (003.414405)  can0  102   [6]  60 06 0D 06 2C 06
 (003.414935)  can0  103   [2]  00 02
 (003.415782)  can0  104   [6]  00 00 00 00 00 00
 (003.416248)  can0  1FF   [1]  DF
 (003.422803)  can0  100   [6]  39 00 A6 01 00 00
 (003.423607)  can0  102   [6]  60 06 0D 06 2C 06
 (003.432708)  can0  100   [6]  38 00 A6 01 00 00
 (003.433510)  can0  102   [6]  60 06 0D 06 2C 06
 (003.442599)  can0  100   [6]  39 00 A5 01 00 00
 (003.443406)  can0  102   [6]  60 06 0D 06 2C 06
 (003.452496)  can0  100   [6]  38 00 A5 01 00 00
 (003.462397)  can0  100   [6]  38 00 A4 01 00 00
 (003.463069)  can0  101   [4]  02 00 07 00
 (003.463871)  can0  102   [6]  60 06 0D 06 2C 06
 (003.464405)  can0  103   [2]  00 02
 (003.465253)  can0  104   [6]  00 00 00 00 00 00
 (003.465711)  can0  1FF   [1]  E0
 (003.472288)  can0  100   [6]  38 00 A4 01 00 00
 (003.482183)  can0  100   [6]  37 00 A4 01 00 00
 (003.482988)  can0  102   [6]  60 06 0D 06 2C 06
 (003.492077)  can0  100   [6]  37 00 A4 01 00 00
 (003.492881)  can0  102   [6]  60 06 0D 06 2C 06
 (003.501973)  can0  100   [6]  37 00 A3 01 00 00
 (003.502772)  can0  102   [6]  60 06 0D 06 2C 06
 (003.511874)  can0  100   [6]  38 00 A4 01 00 00
 (003.512548)  can0  101   [4]  FD FF 00 00
 (003.513352)  can0  102   [6]  60 06 0D 06 2C 06
 (003.513881)  can0  103   [2]  00 02
 (003.514730)  can0  104   [6]  00 00 00 00 00 00
 (003.515180)  can0  1FF   [1]  E1
 (003.522031)  can0  100   [6]  39 00 A4 01 00 00
 (003.522799)  can0  102   [6]  60 06 0D 06 2C 06
 (003.531668)  can0  100   [6]  3A 00 A4 01 00 00
 (003.532469)  can0  102   [6]  60 06 0D 06 2C 06
 (003.541571)  can0  100   [6]  39 00 A4 01 00 00
 (003.542368)  can0  102   [6]  60 06 0D 06 2C 06
 (003.551461)  can0  100   [6]  39 00 A4 01 00 00
 (003.561368)  can0  100   [6]  39 00 A4 01 00 00
 (003.562408)  can0  101   [4]  01 00 02 00
 (003.562842)  can0  102   [6]  60 06 0D 06 2C 06
 (003.563374)  can0  103   [2]  00 02
 (003.564225)  can0  104   [6]  00 00 00 00 00 00
 (003.564678)  can0  1FF   [1]  E2
 (003.571241)  can0  100   [6]  38 00 A5 01 00 00
 (003.572051)  can0  102   [6]  60 06 0D 06 2C 06
 (003.581141)  can0  100   [6]  38 00 A4 01 00 00
 (003.591041)  can0  100   [6]  39 00 A4 01 00 00
 (003.591849)  can0  102   [6]  60 06 0D 06 2C 06
 (003.600930)  can0  100   [6]  38 00 A4 01 00 00
 (003.601737)  can0  102   [6]  60 06 0D 06 2C 06
 (003.610838)  can0  100   [6]  38 00 A3 01 00 00
 (003.611535)  can0  101   [4]  FF FF F2 FF
 (003.612927)  can0  103   [2]  00 02
 (003.613795)  can0  104   [6]  00 00 00 00 00 00
 (003.614218)  can0  1FF   [1]  E3
 (003.620723)  can0  100   [6]  37 00 A4 01 00 00
 (003.630621)  can0  100   [6]  38 00 A4 01 00 00
 (003.631422)  can0  102   [6]  60 06 0D 06 2C 06
 (003.640488)  can0  100   [6]  37 00 A5 01 00 00
 (003.641295)  can0  102   [6]  60 06 0D 06 2C 06
 (003.650387)  can0  100   [6]  37 00 A5 01 00 00
 (003.660285)  can0  100   [6]  37 00 A5 01 00 00
 (003.660945)  can0  101   [4]  01 00 06 00
 (003.661757)  can0  102   [6]  60 06 0D 06 2C 06
 (003.662294)  can0  103   [2]  00 02
 (003.663144)  can0  104   [6]  00 00 00 00 00 00
 (003.663611)  can0  1FF   [1]  E4
 (003.670196)  can0  100   [6]  38 00 A5 01 00 00
 (003.670999)  can0  102   [6]  60 06 0D 06 2C 06
 (003.680089)  can0  100   [6]  38 00 A5 01 00 00
 (003.689989)  can0  100   [6]  39 00 A4 01 00 00
 (003.690799)  can0  102   [6]  60 06 0D 06 2C 06
 (003.699882)  can0  100   [6]  3A 00 A4 01 00 00
 (003.700692)  can0  102   [6]  60 06 0D 06 2C 06
 (003.709783)  can0  100   [6]  3A 00 A4 01 00 00
 (003.710446)  can0  101   [4]  FB FF EE FF
 (003.711253)  can0  102   [6]  60 06 0D 06 2C 06
 (003.711789)  can0  103   [2]  00 02
 (003.712638)  can0  104   [6]  00 00 00 00 00 00
 (003.713087)  can0  1FF   [1]  E5
 (003.719665)  can0  100   [6]  39 00 A3 01 00 00
 (003.720468)  can0  102   [6]  60 06 0D 06 2C 06
 (003.729574)  can0  100   [6]  38 00 A4 01 00 00
 (003.730381)  can0  102   [6]  60 06 0D 06 2C 06
 (003.739467)  can0  100   [6]  37 00 A4 01 00 00
 (003.740275)  can0  102   [6]  60 06 0D 06 2C 06
 (003.749612)  can0  100   [6]  37 00 A5 01 00 00
 (003.750174)  can0  102   [6]  60 06 0D 06 2C 06
 (003.759255)  can0  100   [6]  37 00 A5 01 00 00
 (003.759924)  can0  101   [4]  FB FF 02 00
 (003.760730)  can0  102   [6]  60 06 0D 06 2C 06
 (003.761263)  can0  103   [2]  00 02
 (003.762116)  can0  104   [6]  00 00 00 00 00 00
 (003.762575)  can0  1FF   [1]  E6
 (003.769155)  can0  100   [6]  38 00 A5 01 00 00
 (003.769971)  can0  102   [6]  60 06 0D 06 2C 06
 (003.779062)  can0  100   [6]  39 00 A5 01 00 00
 (003.779865)  can0  102   [6]  60 06 0D 06 2C 06
 (003.788952)  can0  100   [6]  39 00 A5 01 00 00
 (003.789755)  can0  102   [6]  60 06 0D 06 2C 06
 (003.798834)  can0  100   [6]  3A 00 A5 01 00 00
 (003.799638)  can0  102   [6]  60 06 0D 06 2C 06
 (003.808738)  can0  100   [6]  3B 00 A4 01 00 00
 (003.809409)  can0  101   [4]  03 00 04 00
 (003.810217)  can0  102   [6]  60 06 0D 06 2C 06
 (003.810856)  can0  103   [2]  00 02
 (003.811603)  can0  104   [6]  00 00 00 00 00 00
 (003.812067)  can0  1FF   [1]  E7
 (003.818634)  can0  100   [6]  3B 00 A5 01 00 00
 (003.819433)  can0  102   [6]  60 06 0D 06 2C 06
 (003.828529)  can0  100   [6]  39 00 A6 01 00 00
 (003.829333)  can0  102   [6]  60 06 0D 06 2C 06
 (003.838431)  can0  100   [6]  38 00 A6 01 00 00
 (003.839235)  can0  102   [6]  60 06 0D 06 2C 06
 (003.848331)  can0  100   [6]  38 00 A6 01 00 00
 (003.849136)  can0  102   [6]  60 06 0D 06 2C 06
 (003.858226)  can0  100   [6]  38 00 A6 01 00 00
 (003.858904)  can0  101   [4]  FD FF FE FF
 (003.859713)  can0  102   [6]  60 06 0D 06 2C 06
 (003.860255)  can0  103   [2]  00 02
 (003.861102)  can0  104   [6]  00 00 00 00 00 00
 (003.861553)  can0  1FF   [1]  E8
 (003.868112)  can0  100   [6]  38 00 A7 01 00 00
 (003.878019)  can0  100   [6]  3A 00 A6 01 00 00
 (003.878826)  can0  102   [6]  60 06 0D 06 2C 06
 (003.887916)  can0  100   [6]  3A 00 A6 01 00 00
 (003.888722)  can0  102   [6]  60 06 0D 06 2C 06
 (003.897792)  can0  100   [6]  3B 00 A6 01 00 00
 (003.898599)  can0  102   [6]  60 06 0D 06 2C 06
 (003.907697)  can0  100   [6]  3C 00 A6 01 00 00
 (003.908368)  can0  101   [4]  04 00 FE FF
 (003.909176)  can0  102   [6]  60 06 0D 06 2C 06
 (003.909713)  can0  103   [2]  00 02
 (003.910562)  can0  104   [6]  00 00 00 00 00 00
 (003.911012)  can0  1FF   [1]  E9
 (003.917595)  can0  100   [6]  3C 00 A6 01 00 00
 (003.918401)  can0  102   [6]  60 06 0D 06 2C 06
 (003.927514)  can0  100   [6]  3D 00 A7 01 00 00
 (003.937381)  can0  100   [6]  3D 00 A7 01 00 00
 (003.947284)  can0  100   [6]  3C 00 A7 01 00 00
 (003.948086)  can0  102   [6]  60 06 0D 06 2C 06
 (003.957174)  can0  100   [6]  3C 00 A7 01 00 00
 (003.957838)  can0  101   [4]  0B 00 02 00
 (003.958645)  can0  102   [6]  60 06 0D 06 2C 06
 (003.959181)  can0  103   [2]  00 02
 (003.960030)  can0  104   [6]  00 00 00 00 00 00
 (003.960487)  can0  1FF   [1]  EA
 (003.967064)  can0  100   [6]  3C 00 A6 01 00 00
 (003.967871)  can0  102   [6]  60 06 0D 06 2C 06
 (003.976956)  can0  100   [6]  3B 00 A6 01 00 00
 (003.977768)  can0  102   [6]  60 06 0D 06 2C 06
 (003.986857)  can0  100   [6]  3B 00 A6 01 00 00
 (003.987661)  can0  102   [6]  60 06 0D 06 2C 06
 (003.996750)  can0  100   [6]  3B 00 A6 01 00 00
 (003.997555)  can0  102   [6]  60 06 0D 06 2C 06
 (004.006643)  can0  100   [6]  3B 00 A6 01 00 00
 (004.007315)  can0  101   [4]  FE FF 00 00
 (004.008123)  can0  102   [6]  60 06 0D 06 2C 06
 (004.008660)  can0  103   [2]  00 02
 (004.009508)  can0  104   [6]  00 00 00 00 00 00
 (004.009993)  can0  1FF   [1]  EB
 (004.016541)  can0  100   [6]  3C 00 A7 01 00 00
 (004.017346)  can0  102   [6]  60 06 0D 06 2C 06
 (004.026427)  can0  100   [6]  3B 00 A7 01 00 00
 (004.027234)  can0  102   [6]  60 06 0D 06 2C 06
 (004.036405)  can0  100   [6]  3B 00 A8 01 00 00
 (004.037314)  can0  102   [6]  60 06 0D 06 2C 06
 (004.046236)  can0  100   [6]  3B 00 A7 01 00 00
 (004.047039)  can0  102   [6]  60 06 0D 06 2C 06
 (004.056130)  can0  100   [6]  3B 00 A7 01 00 00
 (004.056800)  can0  101   [4]  FC FF 04 00
 (004.057608)  can0  102   [6]  60 06 0D 06 2C 06
 (004.058146)  can0  103   [2]  00 02
 (004.058994)  can0  104   [6]  00 00 00 00 00 00
 (004.059467)  can0  1FF   [1]  EC
 (004.066031)  can0  100   [6]  3B 00 A8 01 00 00
 (004.075925)  can0  100   [6]  3A 00 A7 01 00 00
 (004.076727)  can0  102   [6]  60 06 0D 06 2C 06
 (004.085817)  can0  100   [6]  3A 00 A7 01 00 00
 (004.086622)  can0  102   [6]  60 06 0D 06 2C 06
 (004.095706)  can0  100   [6]  3B 00 A6 01 00 00
 (004.096510)  can0  102   [6]  60 06 0D 06 2C 06
 (004.105597)  can0  100   [6]  3B 00 A6 01 00 00
 (004.106274)  can0  101   [4]  04 00 00 00
 (004.107081)  can0  102   [6]  60 06 0D 06 2C 06
 (004.107618)  can0  103   [2]  00 02
 (004.108466)  can0  104   [6]  00 00 00 00 00 00
 (004.108917)  can0  1FF   [1]  ED
 (004.115497)  can0  100   [6]  3A 00 A5 01 00 00
 (004.116299)  can0  102   [6]  60 06 0D 06 2C 06
 (004.125404)  can0  100   [6]  3A 00 A6 01 00 00
 (004.135289)  can0  100   [6]  39 00 A6 01 00 00
 (004.136093)  can0  102   [6]  60 06 0D 06 2C 06
 (004.145197)  can0  100   [6]  3A 00 A7 01 00 00
 (004.146002)  can0  102   [6]  60 06 0D 06 2C 06
 (004.155108)  can0  100   [6]  3A 00 A6 01 00 00
 (004.157243)  can0  103   [2]  00 02
 (004.158091)  can0  104   [6]  00 00 00 00 00 00
 (004.158540)  can0  1FF   [1]  EE
 (004.164981)  can0  100   [6]  3A 00 A5 01 00 00
 (004.174876)  can0  100   [6]  3A 00 A5 01 00 00
 (004.184768)  can0  100   [6]  3A 00 A5 01 00 00
 (004.194678)  can0  100   [6]  3A 00 A6 01 00 00
 (004.195481)  can0  102   [6]  60 06 0D 06 2C 06
 (004.204554)  can0  100   [6]  3A 00 A5 01 00 00
 (004.205220)  can0  101   [4]  05 00 FA FF
 (004.206028)  can0  102   [6]  60 06 0D 06 2C 06
 (004.206564)  can0  103   [2]  00 02
 (004.207413)  can0  104   [6]  00 00 00 00 00 00
 (004.207871)  can0  1FF   [1]  EF
 (004.214455)  can0  100   [6]  39 00 A5 01 00 00
 (004.224342)  can0  100   [6]  3A 00 A5 01 00 00
 (004.234235)  can0  100   [6]  3B 00 A5 01 00 00
 (004.235040)  can0  102   [6]  60 06 0D 06 2C 06
 (004.244136)  can0  100   [6]  3A 00 A4 01 00 00
 (004.244939)  can0  102   [6]  60 06 0D 06 2C 06
 (004.254035)  can0  100   [6]  3A 00 A4 01 00 00
 (004.254709)  can0  101   [4]  02 00 0B 00
 (004.256116)  can0  103   [2]  00 02
 (004.256965)  can0  104   [6]  00 00 00 00 00 00
 (004.257439)  can0  1FF   [1]  F0
 (004.263920)  can0  100   [6]  3A 00 A4 01 00 00
 (004.264730)  can0  102   [6]  60 06 0D 06 2C 06
 (004.273811)  can0  100   [6]  39 00 A3 01 00 00
 (004.274610)  can0  102   [6]  60 06 0D 06 2C 06
 (004.283705)  can0  100   [6]  39 00 A3 01 00 00
 (004.293596)  can0  100   [6]  39 00 A2 01 00 00
 (004.303485)  can0  100   [6]  39 00 A2 01 00 00
 (004.304157)  can0  101   [4]  FF FF F8 FF
 (004.305565)  can0  103   [2]  00 02
 (004.306412)  can0  104   [6]  00 00 00 00 00 00
 (004.306873)  can0  1FF   [1]  F1
 (004.313374)  can0  100   [6]  39 00 A2 01 00 00
 (004.323288)  can0  100   [6]  38 00 A3 01 00 00
 (004.324098)  can0  102   [6]  60 06 0D 06 2C 06
 (004.333176)  can0  100   [6]  38 00 A2 01 00 00
 (004.333986)  can0  102   [6]  60 06 0D 06 2C 06
 (004.343080)  can0  100   [6]  38 00 A3 01 00 00
 (004.343889)  can0  102   [6]  60 06 0D 06 2C 06
 (004.352957)  can0  100   [6]  38 00 A2 01 00 00
 (004.353639)  can0  101   [4]  00 00 00 00
 (004.355045)  can0  103   [2]  00 02
 (004.355895)  can0  104   [6]  00 00 00 00 00 00
 (004.356361)  can0  1FF   [1]  F2
 (004.362843)  can0  100   [6]  39 00 A2 01 00 00
 (004.372739)  can0  100   [6]  39 00 A2 01 00 00
 (004.373548)  can0  102   [6]  60 06 0D 06 2C 06
 (004.382634)  can0  100   [6]  39 00 A3 01 00 00
 (004.383443)  can0  102   [6]  60 06 0D 06 2C 06
 (004.392534)  can0  100   [6]  39 00 A3 01 00 00
 (004.402431)  can0  100   [6]  3A 00 A3 01 00 00
 (004.403102)  can0  101   [4]  02 00 FD FF
 (004.403909)  can0  102   [6]  60 06 0D 06 2C 06
 (004.404447)  can0  103   [2]  00 02
 (004.405297)  can0  104   [6]  00 00 00 00 00 00
 (004.405782)  can0  1FF   [1]  F3
 (004.412349)  can0  100   [6]  39 00 A4 01 00 00
 (004.422233)  can0  100   [6]  3A 00 A4 01 00 00
 (004.423037)  can0  102   [6]  60 06 0D 06 2C 06
 (004.432120)  can0  100   [6]  3A 00 A4 01 00 00
 (004.432927)  can0  102   [6]  60 06 0D 06 2C 06
 (004.442016)  can0  100   [6]  3A 00 A4 01 00 00
 (004.442824)  can0  102   [6]  60 06 0D 06 2C 06
 (004.451916)  can0  100   [6]  3A 00 A4 01 00 00
 (004.452586)  can0  101   [4]  09 00 00 00
 (004.453992)  can0  103   [2]  00 02
 (004.454843)  can0  104   [6]  00 00 00 00 00 00
 (004.455300)  can0  1FF   [1]  F4
 (004.461817)  can0  100   [6]  39 00 A4 01 00 00
 (004.462627)  can0  102   [6]  60 06 0D 06 2C 06
 (004.471721)  can0  100   [6]  38 00 A3 01 00 00
 (004.472528)  can0  102   [6]  60 06 0D 06 2C 06
 (004.481626)  can0  100   [6]  38 00 A3 01 00 00
 (004.482428)  can0  102   [6]  60 06 0D 06 2C 06
 (004.491516)  can0  100   [6]  37 00 A3 01 00 00
 (004.492319)  can0  102   [6]  60 06 0D 06 2C 06
 (004.501405)  can0  100   [6]  38 00 A4 01 00 00
 (004.502081)  can0  101   [4]  FB FF F9 FF
 (004.502888)  can0  102   [6]  60 06 0D 06 2C 06
 (004.503424)  can0  103   [2]  00 02
 (004.504281)  can0  104   [6]  00 00 00 00 00 00
 (004.504736)  can0  1FF   [1]  F5
 (004.511309)  can0  100   [6]  38 00 A4 01 00 00
 (004.512105)  can0  102   [6]  60 06 0D 06 2C 06
 (004.521204)  can0  100   [6]  38 00 A4 01 00 00
 (004.531098)  can0  100   [6]  38 00 A4 01 00 00
 (004.540990)  can0  100   [6]  38 00 A4 01 00 00
 (004.541793)  can0  102   [6]  60 06 0D 06 2C 06
 (004.550898)  can0  100   [6]  39 00 A4 01 00 00
 (004.551580)  can0  101   [4]  FD FF 02 00
 (004.552386)  can0  102   [6]  60 06 0D 06 2C 06
 (004.552922)  can0  103   [2]  00 02
 (004.553792)  can0  104   [6]  00 00 00 00 00 00
 (004.554242)  can0  1FF   [1]  F6
 (004.560783)  can0  100   [6]  39 00 A4 01 00 00
 (004.561592)  can0  102   [6]  60 06 0D 06 2C 06
 (004.570673)  can0  100   [6]  3A 00 A4 01 00 00
 (004.571479)  can0  102   [6]  60 06 0D 06 2C 06
 (004.580574)  can0  100   [6]  39 00 A5 01 00 00
 (004.581376)  can0  102   [6]  60 06 0D 06 2C 06
 (004.590470)  can0  100   [6]  39 00 A4 01 00 00
 (004.591274)  can0  102   [6]  60 06 0D 06 2C 06
 (004.600362)  can0  100   [6]  39 00 A5 01 00 00
 (004.601037)  can0  101   [4]  00 00 07 00
 (004.601845)  can0  102   [6]  60 06 0D 06 2C 06
 (004.602382)  can0  103   [2]  00 02
 (004.603231)  can0  104   [6]  00 00 00 00 00 00
 (004.603689)  can0  1FF   [1]  F7
 (004.610270)  can0  100   [6]  39 00 A4 01 00 00
 (004.611076)  can0  102   [6]  60 06 0D 06 2C 06
 (004.620152)  can0  100   [6]  3A 00 A4 01 00 00
 (004.620951)  can0  102   [6]  60 06 0D 06 2C 06
 (004.630169)  can0  100   [6]  3A 00 A5 01 00 00
 (004.630853)  can0  102   [6]  60 06 0D 06 2C 06
 (004.639952)  can0  100   [6]  3A 00 A4 01 00 00
 (004.640754)  can0  102   [6]  60 06 0D 06 2C 06
 (004.649841)  can0  100   [6]  3A 00 A5 01 00 00
 (004.650508)  can0  101   [4]  F9 FF FE FF
 (004.651317)  can0  102   [6]  60 06 0D 06 2C 06
 (004.651854)  can0  103   [2]  00 02
 (004.652703)  can0  104   [6]  00 00 00 00 00 00
 (004.653178)  can0  1FF   [1]  F8
 (004.659742)  can0  100   [6]  3A 00 A5 01 00 00
 (004.660545)  can0  102   [6]  60 06 0D 06 2C 06
 (004.669649)  can0  100   [6]  3A 00 A4 01 00 00
 (004.670450)  can0  102   [6]  60 06 0D 06 2C 06
 (004.679549)  can0  100   [6]  3A 00 A4 01 00 00
 (004.680352)  can0  102   [6]  60 06 0D 06 2C 06
 (004.699317)  can0  100   [6]  39 00 A3 01 00 00
 (004.699984)  can0  101   [4]  FB FF 02 00
 (004.700793)  can0  102   [6]  60 06 0D 06 2C 06
 (004.701330)  can0  103   [2]  00 02
 (004.702179)  can0  104   [6]  00 00 00 00 00 00
 (004.702643)  can0  1FF   [1]  F9
 (004.709215)  can0  100   [6]  39 00 A3 01 00 00
 (004.710020)  can0  102   [6]  60 06 0D 06 2C 06
 (004.719111)  can0  100   [6]  39 00 A3 01 00 00
 (004.719914)  can0  102   [6]  60 06 0D 06 2C 06
 (004.729017)  can0  100   [6]  39 00 A4 01 00 00
 (004.738917)  can0  100   [6]  39 00 A4 01 00 00
 (004.739723)  can0  102   [6]  60 06 0D 06 2C 06
 (004.748804)  can0  100   [6]  39 00 A3 01 00 00
 (004.749478)  can0  101   [4]  00 00 FB FF
 (004.750310)  can0  102   [6]  60 06 0D 06 2C 06
 (004.750822)  can0  103   [2]  00 02
 (004.751714)  can0  104   [6]  00 00 00 00 00 00
 (004.752128)  can0  1FF   [1]  FA
 (004.758694)  can0  100   [6]  3A 00 A3 01 00 00
 (004.759511)  can0  102   [6]  60 06 0D 06 2C 06
 (004.768588)  can0  100   [6]  3A 00 A3 01 00 00
 (004.769394)  can0  102   [6]  60 06 0D 06 2C 06
 (004.778490)  can0  100   [6]  3A 00 A3 01 00 00
 (004.779301)  can0  102   [6]  60 06 0D 06 2C 06
 (004.788392)  can0  100   [6]  39 00 A3 01 00 00
 (004.789197)  can0  102   [6]  60 06 0D 06 2C 06
 (004.798288)  can0  100   [6]  39 00 A2 01 00 00
 (004.798960)  can0  101   [4]  02 00 FD FF
 (004.799767)  can0  102   [6]  60 06 0D 06 2C 06
 (004.800303)  can0  103   [2]  00 02
 (004.801149)  can0  104   [6]  00 00 00 00 00 00
 (004.801614)  can0  1FF   [1]  FB
 (004.808185)  can0  100   [6]  39 00 A2 01 00 00
 (004.808994)  can0  102   [6]  60 06 0D 06 2C 06
 (004.818089)  can0  100   [6]  39 00 A1 01 00 00
 (004.818890)  can0  102   [6]  60 06 0D 06 2C 06
 (004.827985)  can0  100   [6]  39 00 A1 01 00 00
 (004.828792)  can0  102   [6]  60 06 0D 06 2C 06
 (004.837884)  can0  100   [6]  39 00 A1 01 00 00
 (004.838694)  can0  102   [6]  60 06 0D 06 2C 06
 (004.847778)  can0  100   [6]  39 00 A2 01 00 00
 (004.848439)  can0  101   [4]  0A 00 F7 FF
 (004.849242)  can0  102   [6]  60 06 0D 06 2C 06
 (004.849787)  can0  103   [2]  00 02
 (004.850635)  can0  104   [6]  00 00 00 00 00 00
 (004.851085)  can0  1FF   [1]  FC
 (004.857673)  can0  100   [6]  39 00 A2 01 00 00
 (004.858475)  can0  102   [6]  60 06 0D 06 2C 06
 (004.867573)  can0  100   [6]  39 00 A3 01 00 00
 (004.868375)  can0  102   [6]  60 06 0D 06 2C 06
 (004.877474)  can0  100   [6]  39 00 A3 01 00 00
 (004.878275)  can0  102   [6]  60 06 0D 06 2C 06
 (004.887389)  can0  100   [6]  38 00 A3 01 00 00
 (004.888195)  can0  102   [6]  60 06 0D 06 2C 06
 (004.897291)  can0  100   [6]  38 00 A3 01 00 00
 (004.897958)  can0  101   [4]  FF FF F8 FF
 (004.898764)  can0  102   [6]  60 06 0D 06 2C 06
 (004.899302)  can0  103   [2]  00 02
 (004.900150)  can0  104   [6]  00 00 00 00 00 00
 (004.900608)  can0  1FF   [1]  FD
 (004.907156)  can0  100   [6]  39 00 A3 01 00 00
 (004.907964)  can0  102   [6]  60 06 0D 06 2C 06
 (004.917063)  can0  100   [6]  39 00 A3 01 00 00
 (004.917865)  can0  102   [6]  60 06 0D 06 2C 06
 (004.926973)  can0  100   [6]  39 00 A4 01 00 00
 (004.927776)  can0  102   [6]  60 06 0D 06 2C 06
 (004.936852)  can0  100   [6]  39 00 A3 01 00 00
 (004.937655)  can0  102   [6]  60 06 0D 06 2C 06
 (004.946771)  can0  100   [6]  39 00 A4 01 00 00
 (004.947441)  can0  101   [4]  02 00 F4 FF
 (004.948249)  can0  102   [6]  60 06 0D 06 2C 06
 (004.948781)  can0  103   [2]  00 02
 (004.949629)  can0  104   [6]  00 00 00 00 00 00
 (004.950090)  can0  1FF   [1]  FE
 (004.956675)  can0  100   [6]  38 00 A3 01 00 00
 (004.957473)  can0  102   [6]  60 06 0D 06 2C 06
 (004.966571)  can0  100   [6]  38 00 A3 01 00 00
 (004.967371)  can0  102   [6]  60 06 0D 06 2C 06
 (004.976446)  can0  100   [6]  39 00 A3 01 00 00
 (004.977250)  can0  102   [6]  60 06 0D 06 2C 06
 (004.986343)  can0  100   [6]  39 00 A3 01 00 00
 (004.987148)  can0  102   [6]  60 06 0D 06 2C 06
 (004.996259)  can0  100   [6]  38 00 A3 01 00 00
 (004.996912)  can0  101   [4]  F6 FF 07 00
 (004.997755)  can0  102   [6]  60 06 0D 06 2C 06
 (004.998258)  can0  103   [2]  00 02
 (004.999107)  can0  104   [6]  00 00 00 00 00 00
 (004.999576)  can0  1FF   [1]  FF
 (005.006160)  can0  100   [6]  38 00 A3 01 00 00
 (005.016056)  can0  100   [6]  38 00 A3 01 00 00
 (005.016862)  can0  102   [6]  60 06 0D 06 2C 06
 (005.025952)  can0  100   [6]  38 00 A3 01 00 00
 (005.026757)  can0  102   [6]  60 06 0D 06 2C 06
 (005.035838)  can0  100   [6]  39 00 A3 01 00 00
 (005.036642)  can0  102   [6]  60 06 0D 06 2C 06
 (005.045729)  can0  100   [6]  39 00 A3 01 00 00
 (005.046384)  can0  101   [4]  09 00 F5 FF
 (005.047194)  can0  102   [6]  60 06 0D 06 2C 06
 (005.047730)  can0  103   [2]  00 02
 (005.048579)  can0  104   [6]  00 00 00 00 00 00
 (005.049037)  can0  1FF   [1]  00
 (005.055647)  can0  100   [6]  39 00 A4 01 00 00
 (005.056453)  can0  102   [6]  60 06 0D 06 2C 06
 (005.065547)  can0  100   [6]  39 00 A5 01 00 00
 (005.066349)  can0  102   [6]  60 06 0D 06 2C 06
 (005.075428)  can0  100   [6]  3A 00 A5 01 00 00
 (005.085332)  can0  100   [6]  39 00 A5 01 00 00
 (005.086136)  can0  102   [6]  60 06 0D 06 2C 06
 (005.095226)  can0  100   [6]  39 00 A5 01 00 00
 (005.095910)  can0  101   [4]  FF FF FD FF
 (005.096723)  can0  102   [6]  60 06 0D 06 2C 06
 (005.097260)  can0  103   [2]  00 02
 (005.098108)  can0  104   [6]  00 00 00 00 00 00
 (005.098577)  can0  1FF   [1]  01
 (005.105118)  can0  100   [6]  38 00 A5 01 00 00
 (005.115017)  can0  100   [6]  39 00 A5 01 00 00
 (005.115825)  can0  102   [6]  60 06 0D 06 2C 06
 (005.124914)  can0  100   [6]  39 00 A5 01 00 00
 (005.125719)  can0  102   [6]  60 06 0D 06 2C 06
 (005.134807)  can0  100   [6]  3A 00 A4 01 00 00
 (005.135609)  can0  102   [6]  60 06 0D 06 2C 06
 (005.144702)  can0  100   [6]  3A 00 A5 01 00 00
 (005.145375)  can0  101   [4]  08 00 04 00
 (005.146785)  can0  103   [2]  00 02
 (005.147634)  can0  104   [6]  00 00 00 00 00 00
 (005.148099)  can0  1FF   [1]  02
 (005.154590)  can0  100   [6]  3A 00 A5 01 00 00
 (005.155393)  can0  102   [6]  60 06 0D 06 2C 06
 (005.164492)  can0  100   [6]  3A 00 A4 01 00 00
 (005.174380)  can0  100   [6]  3A 00 A5 01 00 00
 (005.184291)  can0  100   [6]  39 00 A5 01 00 00
 (005.194172)  can0  100   [6]  39 00 A5 01 00 00
 (005.196295)  can0  103   [2]  00 02
 (005.197145)  can0  104   [6]  00 00 00 00 00 00
 (005.197623)  can0  1FF   [1]  03
 (005.204052)  can0  100   [6]  38 00 A5 01 00 00
 (005.213945)  can0  100   [6]  38 00 A5 01 00 00
 (005.223836)  can0  100   [6]  38 00 A5 01 00 00
 (005.233733)  can0  100   [6]  39 00 A5 01 00 00
 (005.234537)  can0  102   [6]  60 06 0D 06 2C 06
 (005.243626)  can0  100   [6]  39 00 A5 01 00 00
 (005.244289)  can0  101   [4]  FD FF 01 00
 (005.245698)  can0  103   [2]  00 02
 (005.246547)  can0  104   [6]  00 00 00 00 00 00
 (005.247012)  can0  1FF   [1]  04
 (005.253518)  can0  100   [6]  38 00 A5 01 00 00
 (005.263413)  can0  100   [6]  39 00 A5 01 00 00
 (005.264220)  can0  102   [6]  60 06 0D 06 2C 06
 (005.273301)  can0  100   [6]  39 00 A6 01 00 00
 (005.274106)  can0  102   [6]  60 06 0D 06 2C 06
 (005.283203)  can0  100   [6]  39 00 A6 01 00 00
 (005.284003)  can0  102   [6]  60 06 0D 06 2C 06
 (005.293114)  can0  100   [6]  3A 00 A6 01 00 00
 (005.293792)  can0  101   [4]  02 00 04 00
 (005.295205)  can0  103   [2]  00 02
 (005.296449)  can0  1FF   [1]  05
 (005.302998)  can0  100   [6]  3A 00 A6 01 00 00
 (005.312882)  can0  100   [6]  39 00 A6 01 00 00
 (005.313681)  can0  102   [6]  60 06 0D 06 2C 06
 (005.322772)  can0  100   [6]  39 00 A6 01 00 00
 (005.323580)  can0  102   [6]  60 06 0D 06 2C 06
 (005.332665)  can0  100   [6]  39 00 A6 01 00 00
 (005.342558)  can0  100   [6]  39 00 A6 01 00 00
 (005.344550)  can0  103   [2]  00 02
 (005.345398)  can0  104   [6]  00 00 00 00 00 00
 (005.345862)  can0  1FF   [1]  06
 (005.352468)  can0  100   [6]  3A 00 A6 01 00 00
 (005.362353)  can0  100   [6]  3A 00 A7 01 00 00
 (005.372256)  can0  100   [6]  3A 00 A6 01 00 00
 (005.382141)  can0  100   [6]  3A 00 A7 01 00 00
 (005.392038)  can0  100   [6]  3A 00 A8 01 00 00
 (005.392707)  can0  101   [4]  06 00 06 00
 (005.393524)  can0  102   [6]  60 06 0D 06 2C 06
 (005.394058)  can0  103   [2]  00 02
 (005.394904)  can0  104   [6]  00 00 00 00 00 00
 (005.395364)  can0  1FF   [1]  07
 (005.401935)  can0  100   [6]  3B 00 A8 01 00 00
 (005.402741)  can0  102   [6]  60 06 0D 06 2C 06
 (005.411833)  can0  100   [6]  3A 00 A7 01 00 00
 (005.421726)  can0  100   [6]  3A 00 A7 01 00 00
 (005.422526)  can0  102   [6]  60 06 0D 06 2C 06
 (005.431621)  can0  100   [6]  3A 00 A7 01 00 00
 (005.432427)  can0  102   [6]  60 06 0D 06 2C 06
 (005.441515)  can0  100   [6]  39 00 A7 01 00 00
 (005.442191)  can0  101   [4]  FF FF 07 00
 (005.443002)  can0  102   [6]  60 06 0D 06 2C 06
 (005.443540)  can0  103   [2]  00 02
 (005.444387)  can0  104   [6]  00 00 00 00 00 00
 (005.444880)  can0  1FF   [1]  08
 (005.451404)  can0  100   [6]  39 00 A7 01 00 00
 (005.452211)  can0  102   [6]  60 06 0D 06 2C 06
 (005.461313)  can0  100   [6]  38 00 A6 01 00 00
 (005.462117)  can0  102   [6]  60 06 0D 06 2C 06
 (005.471197)  can0  100   [6]  39 00 A6 01 00 00
 (005.472005)  can0  102   [6]  60 06 0D 06 2C 06
 (005.481111)  can0  100   [6]  3A 00 A6 01 00 00
 (005.481919)  can0  102   [6]  60 06 0D 06 2C 06
 (005.491014)  can0  100   [6]  3A 00 A6 01 00 00
 (005.491677)  can0  101   [4]  02 00 0A 00
 (005.492485)  can0  102   [6]  60 06 0D 06 2C 06
 (005.493021)  can0  103   [2]  00 02
 (005.493871)  can0  104   [6]  00 00 00 00 00 00
 (005.494326)  can0  1FF   [1]  09
 (005.500907)  can0  100   [6]  3A 00 A6 01 00 00
 (005.510793)  can0  100   [6]  3A 00 A5 01 00 00
 (005.511598)  can0  102   [6]  60 06 0D 06 2C 06
 (005.520704)  can0  100   [6]  39 00 A5 01 00 00
 (005.521504)  can0  102   [6]  60 06 0D 06 2C 06
 (005.530593)  can0  100   [6]  39 00 A5 01 00 00
 (005.531393)  can0  102   [6]  60 06 0D 06 2C 06
 (005.540497)  can0  100   [6]  38 00 A6 01 00 00
 (005.541154)  can0  101   [4]  F9 FF 08 00
 (005.541964)  can0  102   [6]  60 06 0D 06 2C 06
 (005.542502)  can0  103   [2]  00 02
 (005.543358)  can0  104   [6]  00 00 00 00 00 00
 (005.543805)  can0  1FF   [1]  0A
 (005.550380)  can0  100   [6]  37 00 A5 01 00 00
 (005.551184)  can0  102   [6]  60 06 0D 06 2C 06
 (005.560283)  can0  100   [6]  38 00 A5 01 00 00
 (005.570180)  can0  100   [6]  38 00 A5 01 00 00
 (005.570984)  can0  102   [6]  60 06 0D 06 2C 06
 (005.580084)  can0  100   [6]  38 00 A4 01 00 00
 (005.580885)  can0  102   [6]  60 06 0D 06 2C 06
 (005.589979)  can0  100   [6]  38 00 A4 01 00 00
 (005.590639)  can0  101   [4]  03 00 F4 FF
 (005.591449)  can0  102   [6]  60 06 0D 06 2C 06
 (005.591986)  can0  103   [2]  00 02
 (005.592840)  can0  104   [6]  00 00 00 00 00 00
 (005.593289)  can0  1FF   [1]  0B
 (005.599881)  can0  100   [6]  38 00 A4 01 00 00
 (005.600683)  can0  102   [6]  60 06 0D 06 2C 06
 (005.609810)  can0  100   [6]  39 00 A4 01 00 00
 (005.610597)  can0  102   [6]  60 06 0D 06 2C 06
 (005.619677)  can0  100   [6]  39 00 A3 01 00 00
 (005.620478)  can0  102   [6]  60 06 0D 06 2C 06
 (005.629601)  can0  100   [6]  38 00 A3 01 00 00
 (005.630402)  can0  102   [6]  60 06 0D 06 2C 06
 (005.639476)  can0  100   [6]  38 00 A4 01 00 00
 (005.640137)  can0  101   [4]  F5 FF F9 FF
 (005.640944)  can0  102   [6]  60 06 0D 06 2C 06
 (005.641487)  can0  103   [2]  00 02
 (005.642328)  can0  104   [6]  00 00 00 00 00 00
 (005.642787)  can0  1FF   [1]  0C
 (005.649381)  can0  100   [6]  39 00 A4 01 00 00
 (005.650183)  can0  102   [6]  60 06 0D 06 2C 06
 (005.659281)  can0  100   [6]  39 00 A4 01 00 00
 (005.660087)  can0  102   [6]  60 06 0D 06 2C 06
 (005.669175)  can0  100   [6]  39 00 A4 01 00 00
 (005.669979)  can0  102   [6]  60 06 0D 06 2C 06
 (005.679078)  can0  100   [6]  39 00 A4 01 00 00
 (005.679881)  can0  102   [6]  60 06 0D 06 2C 06
 (005.688968)  can0  100   [6]  38 00 A3 01 00 00
 (005.689636)  can0  101   [4]  FE FF F5 FF
 (005.690444)  can0  102   [6]  60 06 0D 06 2C 06
 (005.690981)  can0  103   [2]  00 02
 (005.691830)  can0  104   [6]  00 00 00 00 00 00
 (005.692281)  can0  1FF   [1]  0D
 (005.698860)  can0  100   [6]  38 00 A3 01 00 00
 (005.699661)  can0  102   [6]  60 06 0D 06 2C 06
 (005.708754)  can0  100   [6]  38 00 A3 01 00 00
 (005.709562)  can0  102   [6]  60 06 0D 06 2C 06
 (005.718654)  can0  100   [6]  38 00 A3 01 00 00
 (005.728547)  can0  100   [6]  38 00 A4 01 00 00
 (005.729348)  can0  102   [6]  60 06 0D 06 2C 06
 (005.738444)  can0  100   [6]  38 00 A3 01 00 00
 (005.739121)  can0  101   [4]  FE FF FF FF
 (005.740526)  can0  103   [2]  00 02
 (005.741375)  can0  104   [6]  00 00 00 00 00 00
 (005.741833)  can0  1FF   [1]  0E
 (005.748329)  can0  100   [6]  38 00 A3 01 00 00
 (005.758216)  can0  100   [6]  38 00 A2 01 00 00
 (005.759024)  can0  102   [6]  60 06 0D 06 2C 06
 (005.768120)  can0  100   [6]  38 00 A2 01 00 00
 (005.778018)  can0  100   [6]  38 00 A3 01 00 00
 (005.787894)  can0  100   [6]  39 00 A2 01 00 00
 (005.788571)  can0  101   [4]  09 00 FB FF
 (005.789979)  can0  103   [2]  00 02
 (005.790826)  can0  104   [6]  00 00 00 00 00 00
 (005.791292)  can0  1FF   [1]  0F
 (005.797802)  can0  100   [6]  3A 00 A2 01 00 00
 (005.798609)  can0  102   [6]  60 06 0D 06 2C 06
 (005.807689)  can0  100   [6]  39 00 A1 01 00 00
 (005.808496)  can0  102   [6]  60 06 0D 06 2C 06
 (005.817584)  can0  100   [6]  38 00 A1 01 00 00
 (005.818389)  can0  102   [6]  60 06 0D 06 2C 06
 (005.827472)  can0  100   [6]  39 00 A1 01 00 00
 (005.828280)  can0  102   [6]  60 06 0D 06 2C 06
 (005.837368)  can0  100   [6]  39 00 A1 01 00 00
 (005.838034)  can0  101   [4]  01 00 F7 FF
 (005.838840)  can0  102   [6]  60 06 0D 06 2C 06
 (005.839377)  can0  103   [2]  00 02
 (005.840225)  can0  104   [6]  00 00 00 00 00 00
 (005.840691)  can0  1FF   [1]  10
 (005.847269)  can0  100   [6]  39 00 A2 01 00 00
 (005.848077)  can0  102   [6]  60 06 0D 06 2C 06
 (005.857191)  can0  100   [6]  38 00 A3 01 00 00
 (005.857994)  can0  102   [6]  60 06 0D 06 2C 06
 (005.867095)  can0  100   [6]  38 00 A3 01 00 00
 (005.867893)  can0  102   [6]  60 06 0D 06 2C 06
 (005.876972)  can0  100   [6]  39 00 A2 01 00 00
 (005.877783)  can0  102   [6]  60 06 0D 06 2C 06
 (005.886877)  can0  100   [6]  38 00 A2 01 00 00
 (005.887552)  can0  101   [4]  01 00 FF FF
 (005.888360)  can0  102   [6]  60 06 0D 06 2C 06
 (005.888893)  can0  103   [2]  00 02
 (005.889743)  can0  104   [6]  00 00 00 00 00 00
 (005.890194)  can0  1FF   [1]  11
 (005.896776)  can0  100   [6]  38 00 A2 01 00 00
 (005.897588)  can0  102   [6]  60 06 0D 06 2C 06
 (005.906670)  can0  100   [6]  38 00 A2 01 00 00
 (005.907473)  can0  102   [6]  60 06 0D 06 2C 06
 (005.916557)  can0  100   [6]  39 00 A2 01 00 00
 (005.917362)  can0  102   [6]  60 06 0D 06 2C 06
 (005.926453)  can0  100   [6]  39 00 A1 01 00 00
 (005.927261)  can0  102   [6]  60 06 0D 06 2C 06
 (005.936366)  can0  100   [6]  38 00 A1 01 00 00
 (005.937032)  can0  101   [4]  04 00 FE FF
 (005.937841)  can0  102   [6]  60 06 0D 06 2C 06
 (005.938378)  can0  103   [2]  00 02
 (005.939227)  can0  104   [6]  00 00 00 00 00 00
 (005.939677)  can0  1FF   [1]  12
 (005.946266)  can0  100   [6]  38 00 A2 01 00 00
 (005.947071)  can0  102   [6]  60 06 0D 06 2C 06
 (005.956167)  can0  100   [6]  38 00 A3 01 00 00
 (005.956974)  can0  102   [6]  60 06 0D 06 2C 06
 (005.966056)  can0  100   [6]  39 00 A3 01 00 00
 (005.966863)  can0  102   [6]  60 06 0D 06 2C 06
 (005.975958)  can0  100   [6]  39 00 A3 01 00 00
 (005.976763)  can0  102   [6]  60 06 0D 06 2C 06
 (005.985870)  can0  100   [6]  39 00 A4 01 00 00
 (005.986541)  can0  101   [4]  FD FF F7 FF
 (005.987952)  can0  103   [2]  00 02
 (005.988799)  can0  104   [6]  00 00 00 00 00 00
 (005.989256)  can0  1FF   [1]  13
 (005.995761)  can0  100   [6]  39 00 A4 01 00 00
 (005.996569)  can0  102   [6]  60 06 0D 06 2C 06
 (006.005649)  can0  100   [6]  38 00 A4 01 00 00
 (006.006455)  can0  102   [6]  60 06 0D 06 2C 06
 (006.015556)  can0  100   [6]  39 00 A4 01 00 00
 (006.016362)  can0  102   [6]  60 06 0D 06 2C 06
 (006.025451)  can0  100   [6]  39 00 A4 01 00 00
 (006.026257)  can0  102   [6]  60 06 0D 06 2C 06
 (006.035329)  can0  100   [6]  3A 00 A5 01 00 00
 (006.036005)  can0  101   [4]  FF FF 02 00
 (006.036813)  can0  102   [6]  60 06 0D 06 2C 06
 (006.037350)  can0  103   [2]  00 02
 (006.038199)  can0  104   [6]  00 00 00 00 00 00
 (006.038654)  can0  1FF   [1]  14
 (006.045227)  can0  100   [6]  3A 00 A5 01 00 00
 (006.046033)  can0  102   [6]  60 06 0D 06 2C 06
 (006.055120)  can0  100   [6]  3A 00 A5 01 00 00
 (006.055928)  can0  102   [6]  60 06 0D 06 2C 06
 (006.065010)  can0  100   [6]  3B 00 A4 01 00 00
 (006.065818)  can0  102   [6]  60 06 0D 06 2C 06
 (006.074902)  can0  100   [6]  3B 00 A4 01 00 00
 (006.084808)  can0  100   [6]  3A 00 A5 01 00 00
 (006.085478)  can0  101   [4]  00 00 07 00
 (006.086885)  can0  103   [2]  00 02
 (006.087742)  can0  104   [6]  00 00 00 00 00 00
 (006.088188)  can0  1FF   [1]  15
 (006.094714)  can0  100   [6]  3A 00 A6 01 00 00
 (006.095520)  can0  102   [6]  60 06 0D 06 2C 06
 (006.104597)  can0  100   [6]  3B 00 A6 01 00 00
 (006.105402)  can0  102   [6]  60 06 0D 06 2C 06
 (006.114503)  can0  100   [6]  3A 00 A6 01 00 00
 (006.115310)  can0  102   [6]  60 06 0D 06 2C 06
 (006.124397)  can0  100   [6]  3A 00 A6 01 00 00
 (006.134292)  can0  100   [6]  3A 00 A6 01 00 00
 (006.134975)  can0  101   [4]  06 00 00 00
 (006.136382)  can0  103   [2]  00 02
 (006.137233)  can0  104   [6]  00 00 00 00 00 00
 (006.137682)  can0  1FF   [1]  16
 (006.144177)  can0  100   [6]  3A 00 A6 01 00 00
 (006.154067)  can0  100   [6]  3A 00 A6 01 00 00
 (006.163961)  can0  100   [6]  3A 00 A6 01 00 00
 (006.173835)  can0  100   [6]  39 00 A6 01 00 00
 (006.183733)  can0  100   [6]  39 00 A6 01 00 00
 (006.184409)  can0  101   [4]  09 00 02 00
 (006.185216)  can0  102   [6]  60 06 0D 06 2C 06
 (006.185852)  can0  103   [2]  00 02
 (006.186600)  can0  104   [6]  00 00 00 00 00 00
 (006.187057)  can0  1FF   [1]  17
 (006.193637)  can0  100   [6]  3A 00 A7 01 00 00
 (006.194441)  can0  102   [6]  60 06 0D 06 2C 06
 (006.203525)  can0  100   [6]  39 00 A6 01 00 00
 (006.204333)  can0  102   [6]  60 06 0D 06 2C 06
 (006.213456)  can0  100   [6]  3A 00 A6 01 00 00
 (006.214249)  can0  102   [6]  60 06 0D 06 2C 06
 (006.223315)  can0  100   [6]  39 00 A6 01 00 00
 (006.224119)  can0  102   [6]  60 06 0D 06 2C 06
 (006.233221)  can0  100   [6]  3A 00 A6 01 00 00
 (006.233899)  can0  101   [4]  06 00 FB FF
 (006.235305)  can0  103   [2]  00 02
 (006.236152)  can0  104   [6]  00 00 00 00 00 00
 (006.236618)  can0  1FF   [1]  18
 (006.243118)  can0  100   [6]  3A 00 A6 01 00 00
 (006.252993)  can0  100   [6]  39 00 A6 01 00 00
 (006.262895)  can0  100   [6]  38 00 A6 01 00 00
 (006.272789)  can0  100   [6]  38 00 A7 01 00 00
 (006.273596)  can0  102   [6]  60 06 0D 06 2C 06
 (006.282675)  can0  100   [6]  39 00 A7 01 00 00
 (006.283353)  can0  101   [4]  00 00 09 00
 (006.284760)  can0  103   [2]  00 02
 (006.285609)  can0  104   [6]  00 00 00 00 00 00
 (006.286067)  can0  1FF   [1]  19
 (006.292576)  can0  100   [6]  38 00 A7 01 00 00
 (006.302460)  can0  100   [6]  37 00 A8 01 00 00
 (006.312347)  can0  100   [6]  37 00 A8 01 00 00
 (006.322242)  can0  100   [6]  38 00 A7 01 00 00
 (006.332134)  can0  100   [6]  38 00 A7 01 00 00
 (006.332794)  can0  101   [4]  03 00 05 00
 (006.334199)  can0  103   [2]  00 02
 (006.335045)  can0  104   [6]  00 00 00 00 00 00
 (006.335496)  can0  1FF   [1]  1A
 (006.342021)  can0  100   [6]  38 00 A6 01 00 00
 (006.351925)  can0  100   [6]  3A 00 A6 01 00 00
 (006.352732)  can0  102   [6]  60 06 0D 06 2C 06
 (006.361810)  can0  100   [6]  39 00 A6 01 00 00
 (006.362663)  can0  102   [6]  60 06 0D 06 2C 06
 (006.371711)  can0  100   [6]  38 00 A6 01 00 00
 (006.372516)  can0  102   [6]  60 06 0D 06 2C 06
 (006.381598)  can0  100   [6]  37 00 A6 01 00 00
 (006.382263)  can0  101   [4]  FA FF 05 00
 (006.383672)  can0  103   [2]  00 02
 (006.384521)  can0  104   [6]  00 00 00 00 00 00
 (006.384972)  can0  1FF   [1]  1B
 (006.391487)  can0  100   [6]  37 00 A6 01 00 00
 (006.401390)  can0  100   [6]  38 00 A6 01 00 00
 (006.402191)  can0  102   [6]  60 06 0D 06 2C 06
 (006.411287)  can0  100   [6]  38 00 A6 01 00 00
 (006.412089)  can0  102   [6]  60 06 0D 06 2C 06
 (006.421176)  can0  100   [6]  38 00 A5 01 00 00
 (006.421977)  can0  102   [6]  60 06 0D 06 2C 06
 (006.431074)  can0  100   [6]  38 00 A5 01 00 00
 (006.431750)  can0  101   [4]  FE FF 04 00
 (006.433155)  can0  103   [2]  00 02
 (006.434004)  can0  104   [6]  00 00 00 00 00 00
 (006.434454)  can0  1FF   [1]  1C
 (006.440963)  can0  100   [6]  38 00 A5 01 00 00
 (006.450859)  can0  100   [6]  38 00 A5 01 00 00
 (006.451662)  can0  102   [6]  60 06 0D 06 2C 06
 (006.460750)  can0  100   [6]  38 00 A5 01 00 00
 (006.461555)  can0  102   [6]  60 06 0D 06 2C 06
 (006.481330)  can0  101   [4]  FD FF FD FF
 (006.482863)  can0  103   [2]  00 02
 (006.484207)  can0  1FF   [1]  1D
 (006.490424)  can0  100   [6]  39 00 A5 01 00 00
 (006.491293)  can0  102   [6]  60 06 0D 06 2C 06
 (006.500316)  can0  100   [6]  39 00 A5 01 00 00
 (006.510200)  can0  100   [6]  3A 00 A5 01 00 00
 (006.520093)  can0  100   [6]  3A 00 A5 01 00 00
 (006.529998)  can0  100   [6]  3A 00 A4 01 00 00
 (006.530742)  can0  101   [4]  04 00 F9 FF
 (006.531605)  can0  102   [6]  60 06 0D 06 2C 06
 (006.532205)  can0  103   [2]  00 02
 (006.533116)  can0  104   [6]  00 00 00 00 00 00
 (006.533638)  can0  1FF   [1]  1E
 (006.539883)  can0  100   [6]  39 00 A5 01 00 00
 (006.540750)  can0  102   [6]  60 06 0D 06 2C 06
 (006.549766)  can0  100   [6]  3A 00 A5 01 00 00
 (006.560601)  can0  102   [6]  60 06 0D 06 2C 06
 (006.569561)  can0  100   [6]  38 00 A4 01 00 00
 (006.579466)  can0  100   [6]  39 00 A5 01 00 00
 (006.580223)  can0  101   [4]  0A 00 0A 00
 (006.581724)  can0  103   [2]  00 02
 (006.582639)  can0  104   [6]  00 00 00 00 00 00
 (006.583165)  can0  1FF   [1]  1F
 (006.589346)  can0  100   [6]  39 00 A5 01 00 00
 (006.599228)  can0  100   [6]  39 00 A6 01 00 00
 (006.609120)  can0  100   [6]  39 00 A7 01 00 00
 (006.619019)  can0  100   [6]  39 00 A7 01 00 00
 (006.619884)  can0  102   [6]  60 06 0D 06 2C 06
 (006.628923)  can0  100   [6]  39 00 A7 01 00 00
 (006.629654)  can0  101   [4]  FB FF 00 00
 (006.630532)  can0  102   [6]  60 06 0D 06 2C 06
 (006.631144)  can0  103   [2]  00 02
 (006.632044)  can0  104   [6]  00 00 00 00 00 00
 (006.632568)  can0  1FF   [1]  20
 (006.638813)  can0  100   [6]  39 00 A7 01 00 00
 (006.639683)  can0  102   [6]  60 06 0D 06 2C 06
 (006.648711)  can0  100   [6]  39 00 A7 01 00 00
 (006.658607)  can0  100   [6]  39 00 A7 01 00 00
 (006.659480)  can0  102   [6]  60 06 0D 06 2C 06
 (006.668505)  can0  100   [6]  39 00 A8 01 00 00
 (006.669370)  can0  102   [6]  60 06 0D 06 2C 06
 (006.678444)  can0  100   [6]  39 00 A8 01 00 00
 (006.679133)  can0  101   [4]  FE FF 06 00
 (006.680001)  can0  102   [6]  60 06 0D 06 2C 06
 (006.680604)  can0  103   [2]  00 02
 (006.681515)  can0  104   [6]  00 00 00 00 00 00
 (006.682039)  can0  1FF   [1]  21
 (006.688291)  can0  100   [6]  3A 00 A9 01 00 00
 (006.689161)  can0  102   [6]  60 06 0D 06 2C 06
 (006.698195)  can0  100   [6]  39 00 A8 01 00 00
 (006.699061)  can0  102   [6]  60 06 0D 06 2C 06
 (006.708077)  can0  100   [6]  39 00 A7 01 00 00
 (006.708947)  can0  102   [6]  60 06 0D 06 2C 06
 (006.717977)  can0  100   [6]  39 00 A7 01 00 00
 (006.718841)  can0  102   [6]  60 06 0D 06 2C 06
 (006.727884)  can0  100   [6]  39 00 A7 01 00 00
 (006.728625)  can0  101   [4]  08 00 00 00
 (006.729496)  can0  102   [6]  60 06 0D 06 2C 06
 (006.730092)  can0  103   [2]  00 02
 (006.731005)  can0  104   [6]  00 00 00 00 00 00
 (006.731525)  can0  1FF   [1]  22
 (006.737764)  can0  100   [6]  39 00 A7 01 00 00
 (006.738632)  can0  102   [6]  60 06 0D 06 2C 06
 (006.747676)  can0  100   [6]  38 00 A7 01 00 00
 (006.748540)  can0  102   [6]  60 06 0D 06 2C 06
 (006.757561)  can0  100   [6]  39 00 A6 01 00 00
 (006.758428)  can0  102   [6]  60 06 0D 06 2C 06
 (006.767460)  can0  100   [6]  39 00 A7 01 00 00
 (006.768324)  can0  102   [6]  60 06 0D 06 2C 06
 (006.777371)  can0  100   [6]  38 00 A7 01 00 00
 (006.778113)  can0  101   [4]  FC FF 02 00
 (006.778984)  can0  102   [6]  60 06 0D 06 2C 06
 (006.779584)  can0  103   [2]  00 02
 (006.780493)  can0  104   [6]  00 00 00 00 00 00
 (006.781008)  can0  1FF   [1]  23
 (006.787264)  can0  100   [6]  38 00 A6 01 00 00
 (006.788136)  can0  102   [6]  60 06 0D 06 2C 06
 (006.797169)  can0  100   [6]  38 00 A6 01 00 00
 (006.798036)  can0  102   [6]  60 06 0D 06 2C 06
 (006.807057)  can0  100   [6]  38 00 A6 01 00 00
 (006.807924)  can0  102   [6]  60 06 0D 06 2C 06
 (006.816962)  can0  100   [6]  38 00 A6 01 00 00
 (006.817828)  can0  102   [6]  60 06 0D 06 2C 06
 (006.826860)  can0  100   [6]  38 00 A5 01 00 00
 (006.827595)  can0  101   [4]  05 00 01 00
 (006.828471)  can0  102   [6]  60 06 0D 06 2C 06
 (006.829068)  can0  103   [2]  00 02
 (006.829981)  can0  104   [6]  00 00 00 00 00 00
 (006.830494)  can0  1FF   [1]  24
 (006.836760)  can0  100   [6]  38 00 A5 01 00 00
 (006.837627)  can0  102   [6]  60 06 0D 06 2C 06
 (006.846667)  can0  100   [6]  39 00 A5 01 00 00
 (006.847529)  can0  102   [6]  60 06 0D 06 2C 06
 (006.856588)  can0  100   [6]  39 00 A4 01 00 00
 (006.857438)  can0  102   [6]  60 06 0D 06 2C 06
 (006.866455)  can0  100   [6]  39 00 A5 01 00 00
 (006.867327)  can0  102   [6]  60 06 0D 06 2C 06
 (006.876345)  can0  100   [6]  39 00 A5 01 00 00
 (006.877079)  can0  101   [4]  00 00 FC FF
 (006.878612)  can0  103   [2]  00 02
 (006.879523)  can0  104   [6]  00 00 00 00 00 00
 (006.880045)  can0  1FF   [1]  25
 (006.886231)  can0  100   [6]  39 00 A5 01 00 00
 (006.887104)  can0  102   [6]  60 06 0D 06 2C 06
 (006.896131)  can0  100   [6]  38 00 A6 01 00 00
 (006.896999)  can0  102   [6]  60 06 0D 06 2C 06
 (006.906015)  can0  100   [6]  39 00 A6 01 00 00
 (006.915917)  can0  100   [6]  38 00 A5 01 00 00
 (006.925809)  can0  100   [6]  38 00 A6 01 00 00
 (006.926544)  can0  101   [4]  00 00 F4 FF
 (006.928077)  can0  103   [2]  00 02
 (006.929471)  can0  1FF   [1]  26
 (006.935704)  can0  100   [6]  38 00 A5 01 00 00
 (006.945599)  can0  100   [6]  38 00 A5 01 00 00
 (006.946465)  can0  102   [6]  60 06 0D 06 2C 06
 (006.955495)  can0  100   [6]  38 00 A5 01 00 00
 (006.965396)  can0  100   [6]  39 00 A5 01 00 00
 (006.975285)  can0  100   [6]  39 00 A5 01 00 00
 (006.976019)  can0  101   [4]  00 00 00 00
 (006.977557)  can0  103   [2]  00 02
 (006.978470)  can0  104   [6]  00 00 00 00 00 00
 (006.978981)  can0  1FF   [1]  27
 (006.985178)  can0  100   [6]  39 00 A5 01 00 00
 (006.995073)  can0  100   [6]  39 00 A5 01 00 00
 (006.995938)  can0  102   [6]  60 06 0D 06 2C 06
 (007.004958)  can0  100   [6]  39 00 A6 01 00 00
 (007.005826)  can0  102   [6]  60 06 0D 06 2C 06
 (007.014844)  can0  100   [6]  39 00 A6 01 00 00
 (007.024737)  can0  100   [6]  39 00 A7 01 00 00
 (007.025480)  can0  101   [4]  F8 FF 00 00
 (007.027025)  can0  103   [2]  00 02
 (007.027934)  can0  104   [6]  00 00 00 00 00 00
 (007.028450)  can0  1FF   [1]  28
 (007.034653)  can0  100   [6]  3A 00 A7 01 00 00
 (007.035515)  can0  102   [6]  60 06 0D 06 2C 06
 (007.044544)  can0  100   [6]  3A 00 A7 01 00 00
 (007.054436)  can0  100   [6]  3A 00 A7 01 00 00
 (007.055303)  can0  102   [6]  60 06 0D 06 2C 06
 (007.064337)  can0  100   [6]  3A 00 A7 01 00 00
 (007.074216)  can0  100   [6]  39 00 A7 01 00 00
 (007.074949)  can0  101   [4]  FA FF 09 00
 (007.076490)  can0  103   [2]  00 02
 (007.077402)  can0  104   [6]  00 00 00 00 00 00
 (007.077914)  can0  1FF   [1]  29
 (007.084118)  can0  100   [6]  39 00 A7 01 00 00
 (007.084985)  can0  102   [6]  60 06 0D 06 2C 06
 (007.094016)  can0  100   [6]  38 00 A6 01 00 00
 (007.094887)  can0  102   [6]  60 06 0D 06 2C 06
 (007.103906)  can0  100   [6]  39 00 A7 01 00 00
 (007.104778)  can0  102   [6]  60 06 0D 06 2C 06
 (007.113809)  can0  100   [6]  39 00 A6 01 00 00
 (007.114683)  can0  102   [6]  60 06 0D 06 2C 06
 (007.123717)  can0  100   [6]  38 00 A6 01 00 00
 (007.124459)  can0  101   [4]  FB FF 06 00
 (007.125329)  can0  102   [6]  60 06 0D 06 2C 06
 (007.125928)  can0  103   [2]  00 02
 (007.126848)  can0  104   [6]  00 00 00 00 00 00
 (007.127368)  can0  1FF   [1]  2A
 (007.133610)  can0  100   [6]  37 00 A7 01 00 00
 (007.134480)  can0  102   [6]  60 06 0D 06 2C 06
 (007.143505)  can0  100   [6]  37 00 A6 01 00 00
 (007.144371)  can0  102   [6]  60 06 0D 06 2C 06
 (007.153399)  can0  100   [6]  37 00 A6 01 00 00
 (007.154264)  can0  102   [6]  60 06 0D 06 2C 06
 (007.163302)  can0  100   [6]  37 00 A6 01 00 00
 (007.164168)  can0  102   [6]  60 06 0D 06 2C 06
 (007.173211)  can0  100   [6]  36 00 A5 01 00 00
 (007.173951)  can0  101   [4]  FC FF 04 00
 (007.174821)  can0  102   [6]  60 06 0D 06 2C 06
 (007.175422)  can0  103   [2]  00 02
 (007.176339)  can0  104   [6]  00 00 00 00 00 00
 (007.176860)  can0  1FF   [1]  2B
 (007.183097)  can0  100   [6]  36 00 A6 01 00 00
 (007.183962)  can0  102   [6]  60 06 0D 06 2C 06
 (007.193007)  can0  100   [6]  36 00 A5 01 00 00
 (007.193874)  can0  102   [6]  60 06 0D 06 2C 06
 (007.202905)  can0  100   [6]  36 00 A5 01 00 00
 (007.212791)  can0  100   [6]  36 00 A5 01 00 00
 (007.213660)  can0  102   [6]  60 06 0D 06 2C 06
 (007.222668)  can0  100   [6]  36 00 A4 01 00 00
 (007.223404)  can0  101   [4]  FB FF FF FF
 (007.224484)  can0  102   [6]  60 06 0D 06 2C 06
 (007.224949)  can0  103   [2]  00 02
 (007.225792)  can0  104   [6]  00 00 00 00 00 00
 (007.226304)  can0  1FF   [1]  2C
 (007.232582)  can0  100   [6]  36 00 A5 01 00 00
 (007.233452)  can0  102   [6]  60 06 0D 06 2C 06
 (007.242469)  can0  100   [6]  37 00 A5 01 00 00
 (007.243337)  can0  102   [6]  60 06 0D 06 2C 06
 (007.252365)  can0  100   [6]  36 00 A4 01 00 00
 (007.253232)  can0  102   [6]  60 06 0D 06 2C 06
 (007.262288)  can0  100   [6]  36 00 A5 01 00 00
 (007.263148)  can0  102   [6]  60 06 0D 06 2C 06
 (007.272166)  can0  100   [6]  37 00 A4 01 00 00
 (007.272908)  can0  101   [4]  FA FF 07 00
 (007.273779)  can0  102   [6]  60 06 0D 06 2C 06
 (007.274380)  can0  103   [2]  00 02
 (007.275293)  can0  104   [6]  00 00 00 00 00 00
 (007.275821)  can0  1FF   [1]  2D
 (007.282063)  can0  100   [6]  36 00 A4 01 00 00
 (007.282930)  can0  102   [6]  60 06 0D 06 2C 06
 (007.291959)  can0  100   [6]  36 00 A3 01 00 00
 (007.292915)  can0  102   [6]  60 06 0D 06 2C 06
 (007.301860)  can0  100   [6]  37 00 A3 01 00 00
 (007.302728)  can0  102   [6]  60 06 0D 06 2C 06
 (007.311763)  can0  100   [6]  37 00 A3 01 00 00
 (007.312629)  can0  102   [6]  60 06 0D 06 2C 06
 (007.321657)  can0  100   [6]  37 00 A3 01 00 00
 (007.322390)  can0  101   [4]  FA FF F1 FF
 (007.323261)  can0  102   [6]  60 06 0D 06 2C 06
 (007.323862)  can0  103   [2]  00 02
 (007.324774)  can0  104   [6]  00 00 00 00 00 00
 (007.325296)  can0  1FF   [1]  2E
 (007.331555)  can0  100   [6]  37 00 A3 01 00 00
 (007.332425)  can0  102   [6]  60 06 0D 06 2C 06
 (007.341451)  can0  100   [6]  37 00 A3 01 00 00
 (007.351341)  can0  100   [6]  36 00 A3 01 00 00
 (007.361241)  can0  100   [6]  36 00 A3 01 00 00
 (007.371132)  can0  100   [6]  36 00 A2 01 00 00
 (007.371864)  can0  101   [4]  00 00 FE FF
 (007.372745)  can0  102   [6]  60 06 0D 06 2C 06
 (007.373335)  can0  103   [2]  00 02
 (007.374244)  can0  104   [6]  00 00 00 00 00 00
 (007.374760)  can0  1FF   [1]  2F
 (007.381016)  can0  100   [6]  36 00 A2 01 00 00
 (007.381883)  can0  102   [6]  60 06 0D 06 2C 06
 (007.390924)  can0  100   [6]  37 00 A3 01 00 00
 (007.400821)  can0  100   [6]  38 00 A4 01 00 00
 (007.401686)  can0  102   [6]  60 06 0D 06 2C 06
 (007.410727)  can0  100   [6]  38 00 A5 01 00 00
 (007.411590)  can0  102   [6]  60 06 0D 06 2C 06
 (007.420612)  can0  100   [6]  39 00 A5 01 00 00
 (007.421337)  can0  101   [4]  0D 00 FD FF
 (007.422208)  can0  102   [6]  60 06 0D 06 2C 06
 (007.422818)  can0  103   [2]  00 02
 (007.423733)  can0  104   [6]  00 00 00 00 00 00
 (007.424247)  can0  1FF   [1]  30
 (007.440404)  can0  100   [6]  39 00 A4 01 00 00
 (007.441277)  can0  102   [6]  60 06 0D 06 2C 06
 (007.450298)  can0  100   [6]  39 00 A5 01 00 00
 (007.451166)  can0  102   [6]  60 06 0D 06 2C 06
 (007.460195)  can0  100   [6]  39 00 A5 01 00 00
 (007.461064)  can0  102   [6]  60 06 0D 06 2C 06
 (007.470095)  can0  100   [6]  39 00 A5 01 00 00
 (007.470818)  can0  101   [4]  FF FF 0D 00
 (007.471693)  can0  102   [6]  60 06 0D 06 2C 06
 (007.472292)  can0  103   [2]  00 02
 (007.473201)  can0  104   [6]  00 00 00 00 00 00
 (007.473714)  can0  1FF   [1]  31
 (007.479993)  can0  100   [6]  38 00 A4 01 00 00
 (007.480863)  can0  102   [6]  60 06 0D 06 2C 06
 (007.489890)  can0  100   [6]  38 00 A4 01 00 00
 (007.490759)  can0  102   [6]  60 06 0D 06 2C 06
 (007.499787)  can0  100   [6]  39 00 A5 01 00 00
 (007.500657)  can0  102   [6]  60 06 0D 06 2C 06
 (007.509677)  can0  100   [6]  39 00 A5 01 00 00
 (007.510548)  can0  102   [6]  60 06 0D 06 2C 06
 (007.519583)  can0  100   [6]  39 00 A4 01 00 00
 (007.520319)  can0  101   [4]  05 00 05 00
 (007.521190)  can0  102   [6]  60 06 0D 06 2C 06
 (007.521817)  can0  103   [2]  00 02
 (007.522712)  can0  104   [6]  00 00 00 00 00 00
 (007.523217)  can0  1FF   [1]  32
 (007.529476)  can0  100   [6]  39 00 A5 01 00 00
 (007.530344)  can0  102   [6]  60 06 0D 06 2C 06
 (007.539376)  can0  100   [6]  38 00 A4 01 00 00
 (007.540245)  can0  102   [6]  60 06 0D 06 2C 06
 (007.549274)  can0  100   [6]  39 00 A5 01 00 00
 (007.550142)  can0  102   [6]  60 06 0D 06 2C 06
 (007.559169)  can0  100   [6]  38 00 A5 01 00 00
 (007.569075)  can0  100   [6]  38 00 A5 01 00 00
 (007.570729)  can0  102   [6]  60 06 0D 06 2C 06
 (007.571334)  can0  103   [2]  00 02
 (007.572242)  can0  104   [6]  00 00 00 00 00 00
 (007.572761)  can0  1FF   [1]  33
 (007.578958)  can0  100   [6]  39 00 A5 01 00 00
 (007.579822)  can0  102   [6]  60 06 0D 06 2C 06
 (007.588868)  can0  100   [6]  39 00 A5 01 00 00
 (007.598756)  can0  100   [6]  3A 00 A5 01 00 00
 (007.599623)  can0  102   [6]  60 06 0D 06 2C 06
 (007.608656)  can0  100   [6]  39 00 A5 01 00 00
 (007.609520)  can0  102   [6]  60 06 0D 06 2C 06
 (007.618535)  can0  100   [6]  39 00 A6 01 00 00
 (007.619263)  can0  101   [4]  05 00 FB FF
 (007.620134)  can0  102   [6]  60 06 0D 06 2C 06
 (007.620735)  can0  103   [2]  00 02
 (007.621647)  can0  104   [6]  00 00 00 00 00 00
 (007.622177)  can0  1FF   [1]  34
 (007.628430)  can0  100   [6]  39 00 A6 01 00 00
 (007.629298)  can0  102   [6]  60 06 0D 06 2C 06
 (007.638327)  can0  100   [6]  3A 00 A7 01 00 00
 (007.648223)  can0  100   [6]  39 00 A7 01 00 00
 (007.658137)  can0  100   [6]  3A 00 A7 01 00 00
 (007.658986)  can0  102   [6]  60 06 0D 06 2C 06
 (007.668007)  can0  100   [6]  39 00 A7 01 00 00
 (007.668750)  can0  101   [4]  00 00 00 00
 (007.669621)  can0  102   [6]  60 06 0D 06 2C 06
 (007.670220)  can0  103   [2]  00 02
 (007.671135)  can0  104   [6]  00 00 00 00 00 00
 (007.671652)  can0  1FF   [1]  35
 (007.677905)  can0  100   [6]  39 00 A6 01 00 00
 (007.687801)  can0  100   [6]  39 00 A6 01 00 00
 (007.688673)  can0  102   [6]  60 06 0D 06 2C 06
 (007.697702)  can0  100   [6]  39 00 A6 01 00 00
 (007.707587)  can0  100   [6]  39 00 A6 01 00 00
 (007.708454)  can0  102   [6]  60 06 0D 06 2C 06
 (007.717507)  can0  100   [6]  3A 00 A6 01 00 00
 (007.718239)  can0  101   [4]  F7 FF 04 00
 (007.719110)  can0  102   [6]  60 06 0D 06 2C 06
 (007.719709)  can0  103   [2]  00 02
 (007.720619)  can0  104   [6]  00 00 00 00 00 00
 (007.721133)  can0  1FF   [1]  36
 (007.727400)  can0  100   [6]  3A 00 A7 01 00 00
 (007.728264)  can0  102   [6]  60 06 0D 06 2C 06
 (007.737298)  can0  100   [6]  3A 00 A7 01 00 00
 (007.738166)  can0  102   [6]  60 06 0D 06 2C 06
 (007.747193)  can0  100   [6]  39 00 A6 01 00 00
 (007.748056)  can0  102   [6]  60 06 0D 06 2C 06
 (007.757095)  can0  100   [6]  38 00 A6 01 00 00
 (007.766998)  can0  100   [6]  38 00 A6 01 00 00
 (007.767754)  can0  101   [4]  02 00 00 00
 (007.768620)  can0  102   [6]  60 06 0D 06 2C 06
 (007.769221)  can0  103   [2]  00 02
 (007.770134)  can0  104   [6]  00 00 00 00 00 00
 (007.770658)  can0  1FF   [1]  37
 (007.776875)  can0  100   [6]  39 00 A6 01 00 00
 (007.777762)  can0  102   [6]  60 06 0D 06 2C 06
 (007.786775)  can0  100   [6]  39 00 A6 01 00 00
 (007.796685)  can0  100   [6]  39 00 A5 01 00 00
 (007.797549)  can0  102   [6]  60 06 0D 06 2C 06
 (007.806583)  can0  100   [6]  39 00 A5 01 00 00
 (007.807485)  can0  102   [6]  60 06 0D 06 2C 06
 (007.816470)  can0  100   [6]  3A 00 A5 01 00 00
 (007.817201)  can0  101   [4]  06 00 04 00
 (007.818072)  can0  102   [6]  60 06 0D 06 2C 06
 (007.818673)  can0  103   [2]  00 02
 (007.819584)  can0  104   [6]  00 00 00 00 00 00
 (007.820098)  can0  1FF   [1]  38
 (007.826375)  can0  100   [6]  39 00 A6 01 00 00
 (007.836262)  can0  100   [6]  39 00 A6 01 00 00
 (007.846151)  can0  100   [6]  3A 00 A5 01 00 00
 (007.856046)  can0  100   [6]  39 00 A6 01 00 00
 (007.865937)  can0  100   [6]  39 00 A6 01 00 00
 (007.866667)  can0  101   [4]  F8 FF F9 FF
 (007.868209)  can0  103   [2]  00 02
 (007.869119)  can0  104   [6]  00 00 00 00 00 00
 (007.869628)  can0  1FF   [1]  39
 (007.875838)  can0  100   [6]  39 00 A6 01 00 00
 (007.885732)  can0  100   [6]  39 00 A6 01 00 00
 (007.905520)  can0  100   [6]  38 00 A4 01 00 00
 (007.906381)  can0  102   [6]  60 06 0D 06 2C 06
 (007.916216)  can0  101   [4]  04 00 FC FF
 (007.917088)  can0  102   [6]  60 06 0D 06 2C 06
 (007.917684)  can0  103   [2]  00 02
 (007.918612)  can0  104   [6]  00 00 00 00 00 00
 (007.919118)  can0  1FF   [1]  3A
 (007.925309)  can0  100   [6]  39 00 A5 01 00 00
 (007.926179)  can0  102   [6]  60 06 0D 06 2C 06
 (007.935210)  can0  100   [6]  39 00 A5 01 00 00
 (007.936078)  can0  102   [6]  60 06 0D 06 2C 06
 (007.945113)  can0  100   [6]  39 00 A4 01 00 00
 (007.954992)  can0  100   [6]  39 00 A3 01 00 00
 (007.955864)  can0  102   [6]  60 06 0D 06 2C 06
 (007.964888)  can0  100   [6]  38 00 A4 01 00 00
 (007.965617)  can0  101   [4]  F7 FF 09 00
 (007.966486)  can0  102   [6]  60 06 0D 06 2C 06
 (007.967086)  can0  103   [2]  00 02
 (007.967997)  can0  104   [6]  00 00 00 00 00 00
 (007.968518)  can0  1FF   [1]  3B
 (007.974785)  can0  100   [6]  38 00 A4 01 00 00
 (007.975657)  can0  102   [6]  60 06 0D 06 2C 06
 (007.984686)  can0  100   [6]  38 00 A4 01 00 00
 (007.994580)  can0  100   [6]  38 00 A5 01 00 00
 (007.995449)  can0  102   [6]  60 06 0D 06 2C 06
 (008.004470)  can0  100   [6]  37 00 A5 01 00 00
 (008.005340)  can0  102   [6]  60 06 0D 06 2C 06
 (008.014374)  can0  100   [6]  37 00 A5 01 00 00
 (008.015099)  can0  101   [4]  FF FF FA FF
 (008.015968)  can0  102   [6]  60 06 0D 06 2C 06
 (008.016570)  can0  103   [2]  00 02
 (008.017481)  can0  104   [6]  00 00 00 00 00 00
 (008.018010)  can0  1FF   [1]  3C
 (008.024262)  can0  100   [6]  37 00 A5 01 00 00
 (008.025132)  can0  102   [6]  60 06 0D 06 2C 06
 (008.034152)  can0  100   [6]  36 00 A4 01 00 00
 (008.035022)  can0  102   [6]  60 06 0D 06 2C 06
 (008.044056)  can0  100   [6]  37 00 A4 01 00 00
 (008.044926)  can0  102   [6]  60 06 0D 06 2C 06
 (008.053949)  can0  100   [6]  37 00 A4 01 00 00
 (008.054826)  can0  102   [6]  60 06 0D 06 2C 06
 (008.063837)  can0  100   [6]  36 00 A4 01 00 00
 (008.064574)  can0  101   [4]  FC FF 00 00
 (008.065445)  can0  102   [6]  60 06 0D 06 2C 06
 (008.066046)  can0  103   [2]  00 02
 (008.066958)  can0  104   [6]  00 00 00 00 00 00
 (008.067479)  can0  1FF   [1]  3D
 (008.073740)  can0  100   [6]  37 00 A3 01 00 00
 (008.074615)  can0  102   [6]  60 06 0D 06 2C 06
 (008.083643)  can0  100   [6]  37 00 A3 01 00 00
 (008.093530)  can0  100   [6]  37 00 A2 01 00 00
