 (000.000000)  can0  1FF   [1]  03
 (000.092636)  can0  100   [6]  37 00 AD 01 00 00
 (000.122229)  can0  100   [6]  39 00 AD 01 00 00
 (000.211042)  can0  100   [6]  39 00 AD 01 00 00
 (000.260382)  can0  100   [6]  39 00 AD 01 00 00
 (000.280119)  can0  100   [6]  39 00 AD 01 00 00
 (000.368903)  can0  100   [6]  39 00 AD 01 00 00
 (001.132368)  can0  1FF   [1]  1A
 (001.158104)  can0  100   [6]  3A 00 B1 01 00 00
 (001.177850)  can0  100   [6]  3A 00 B1 01 00 00
 (001.181711)  can0  1FF   [1]  1B
 (001.187884)  can0  100   [6]  3B 00 B1 01 00 00
 (001.197689)  can0  100   [6]  3B 00 B1 01 00 00
 (001.227199)  can0  100   [6]  3B 00 B1 01 00 00
 (001.228702)  can0  101   [4]  05 00 08 00
 (001.231604)  can0  1FF   [1]  1C
 (001.331841)  can0  1FF   [1]  1E
 (001.434686)  can0  100   [6]  39 00 AD 01 00 00
 (001.523985)  can0  101   [4]  FE FF 09 00
 (001.602176)  can0  100   [6]  3A 00 AF 01 00 00
 (001.769921)  can0  100   [6]  3A 00 AF 01 00 00
 (001.773768)  can0  1FF   [1]  27
 (001.779783)  can0  100   [6]  3A 00 AE 01 00 00
 (001.789649)  can0  100   [6]  3A 00 AE 01 00 00
 (001.799524)  can0  100   [6]  3A 00 AE 01 00 00
 (001.823150)  can0  1FF   [1]  28
 (001.921830)  can0  1FF   [1]  2A
 (002.046388)  can0  100   [6]  3B 00 AF 01 00 00
 (002.431081)  can0  100   [6]  3B 00 B0 01 00 00
 (002.461409)  can0  101   [4]  08 00 FC FF
 (002.661863)  can0  1FF   [1]  39
 (002.711914)  can0  1FF   [1]  3A
 (002.717219)  can0  100   [6]  3B 00 AF 01 00 00
 (002.747168)  can0  100   [6]  3B 00 AF 01 00 00
 (002.761126)  can0  1FF   [1]  3B
 (002.845493)  can0  100   [6]  3A 00 AE 01 00 00
 (002.894841)  can0  100   [6]  3B 00 AF 01 00 00
 (002.904721)  can0  100   [6]  3B 00 AF 01 00 00
 (002.954066)  can0  100   [6]  3A 00 B1 01 00 00
 (002.954792)  can0  101   [4]  01 00 0B 00
 (003.400519)  can0  101   [4]  0A 00 01 00
 (003.418485)  can0  100   [6]  3A 00 AD 01 00 00
 (003.447676)  can0  100   [6]  39 00 AD 01 00 00
 (003.457458)  can0  100   [6]  39 00 AD 01 00 00
 (003.502419)  can0  1FF   [1]  4A
 (003.547984)  can0  101   [4]  F6 FF 00 00
 (003.552617)  can0  1FF   [1]  4B
 (003.556405)  can0  100   [6]  3A 00 AE 01 00 00
 (003.601766)  can0  1FF   [1]  4C
 (003.635145)  can0  100   [6]  3A 00 AE 01 00 00
 (003.651929)  can0  1FF   [1]  4D
 (004.400177)  can0  1FF   [1]  5B
 (004.400623)  can0  1FF   [1]  5C
 (004.438265)  can0  1FF   [1]  5D
 (004.444579)  can0  100   [6]  3D 00 B0 01 00 00
 (004.490138)  can0  1FF   [1]  5E
 (004.493957)  can0  100   [6]  3D 00 AE 01 00 00
 (004.513678)  can0  100   [6]  3D 00 AE 01 00 00
 (004.523556)  can0  100   [6]  3D 00 AF 01 00 00
 (004.538576)  can0  1FF   [1]  5F
 (004.632125)  can0  100   [6]  3D 00 AD 01 00 00
 (004.636585)  can0  1FF   [1]  61
 (004.686056)  can0  1FF   [1]  62
 (004.734808)  can0  1FF   [1]  63
 (005.377865)  can0  1FF   [1]  6F
 (005.378313)  can0  1FF   [1]  70
 (005.412300)  can0  100   [6]  3B 00 AF 01 00 00
 (005.426151)  can0  1FF   [1]  71
 (005.461417)  can0  100   [6]  3D 00 AF 01 00 00
 (005.475181)  can0  1FF   [1]  72
 (005.623202)  can0  1FF   [1]  75
 (005.629186)  can0  100   [6]  3D 00 AD 01 00 00
 (005.672541)  can0  1FF   [1]  76
 (005.678544)  can0  100   [6]  3D 00 AE 01 00 00
 (005.688418)  can0  100   [6]  3D 00 AF 01 00 00
 (005.698599)  can0  100   [6]  3D 00 AF 01 00 00
 (005.708160)  can0  100   [6]  3D 00 AF 01 00 00
 (005.718122)  can0  100   [6]  3D 00 AF 01 00 00
 (005.747684)  can0  100   [6]  3D 00 AE 01 00 00
 (006.389542)  can0  100   [6]  3B 00 AF 01 00 00
 (006.412815)  can0  1FF   [1]  85
 (006.418791)  can0  100   [6]  3D 00 AF 01 00 00
 (006.428658)  can0  100   [6]  3D 00 AF 01 00 00
 (006.468136)  can0  100   [6]  3D 00 AE 01 00 00
 (006.508030)  can0  100   [6]  3D 00 AF 01 00 00
 (006.508791)  can0  101   [4]  FF FF 01 00
 (006.547162)  can0  100   [6]  3D 00 AE 01 00 00
 (006.557246)  can0  100   [6]  3D 00 AF 01 00 00
 (006.626394)  can0  100   [6]  3B 00 AF 01 00 00
 (006.646418)  can0  100   [6]  3B 00 B0 01 00 00
 (006.655706)  can0  100   [6]  3A 00 B1 01 00 00
 (007.349026)  can0  101   [4]  FE FF F9 FF
 (007.351850)  can0  1FF   [1]  97
 (007.352314)  can0  1FF   [1]  98
 (007.356827)  can0  100   [6]  3A 00 AD 01 00 00
 (007.474989)  can0  100   [6]  3D 00 AD 01 00 00
 (007.501127)  can0  1FF   [1]  9B
 (007.524351)  can0  100   [6]  3D 00 AD 01 00 00
 (007.534403)  can0  100   [6]  3D 00 AD 01 00 00
 (007.550728)  can0  1FF   [1]  9C
 (007.599460)  can0  1FF   [1]  9D
 (007.603327)  can0  100   [6]  3D 00 AD 01 00 00
 (007.643609)  can0  101   [4]  FC FF 01 00
 (007.647774)  can0  1FF   [1]  9E
 (007.652681)  can0  100   [6]  3D 00 AD 01 00 00
 (007.662572)  can0  100   [6]  3D 00 AD 01 00 00
 (008.339035)  can0  1FF   [1]  AB
 (008.344366)  can0  100   [6]  3A 00 AB 01 00 00
 (008.353769)  can0  100   [6]  3A 00 AB 01 00 00
 (008.383339)  can0  100   [6]  3A 00 AD 01 00 00
 (008.386738)  can0  1FF   [1]  AD
 (008.393214)  can0  100   [6]  3A 00 AD 01 00 00
 (008.412967)  can0  100   [6]  3B 00 AB 01 00 00
 (008.472179)  can0  100   [6]  3D 00 AC 01 00 00
 (008.486633)  can0  1FF   [1]  AF
 (008.501805)  can0  100   [6]  3D 00 AC 01 00 00
 (008.535320)  can0  1FF   [1]  B0
 (008.551165)  can0  100   [6]  3D 00 AD 01 00 00
 (008.561043)  can0  100   [6]  3D 00 AD 01 00 00
 (008.570938)  can0  100   [6]  3D 00 AD 01 00 00
 (008.581476)  can0  101   [4]  FC FF 00 00
 (009.469875)  can0  101   [4]  F7 FF 0B 00
 (009.508582)  can0  100   [6]  3B 00 AF 01 00 00
 (009.568028)  can0  100   [6]  3D 00 AF 01 00 00
 (009.608054)  can0  100   [6]  3D 00 B0 01 00 00
 (009.657271)  can0  100   [6]  3D 00 B1 01 00 00
 (009.667094)  can0  100   [6]  3D 00 B1 01 00 00
 (009.668667)  can0  101   [4]  08 00 04 00
 (009.765202)  can0  100   [6]  3D 00 B1 01 00 00
 (009.814547)  can0  100   [6]  3D 00 B0 01 00 00
 (009.815271)  can0  101   [4]  0D 00 07 00
 (010.361231)  can0  1FF   [1]  D5
 (010.367977)  can0  100   [6]  3F 00 B0 01 00 00
 (010.525092)  can0  100   [6]  3D 00 B3 01 00 00
 (010.604804)  can0  101   [4]  FE FF 03 00
 (010.643493)  can0  100   [6]  3B 00 B1 01 00 00
 (010.732435)  can0  100   [6]  3D 00 B1 01 00 00
 (010.791532)  can0  100   [6]  3A 00 AF 01 00 00
 (010.805285)  can0  1FF   [1]  DE
 (010.811278)  can0  100   [6]  3A 00 B0 01 00 00
 (011.394143)  can0  101   [4]  F4 FF 02 00
 (011.398579)  can0  1FF   [1]  EA
 (011.521618)  can0  100   [6]  3B 00 AF 01 00 00
 (011.551232)  can0  100   [6]  3B 00 AF 01 00 00
 (011.640808)  can0  101   [4]  FD FF 09 00
 (011.679522)  can0  100   [6]  3B 00 B0 01 00 00
 (011.828039)  can0  100   [6]  3A 00 B0 01 00 00
 (011.847214)  can0  100   [6]  3A 00 B1 01 00 00
 (012.321433)  can0  100   [6]  3B 00 B5 01 00 00
 (012.350443)  can0  100   [6]  3B 00 B5 01 00 00
 (012.449104)  can0  100   [6]  3B 00 B2 01 00 00
 (012.581242)  can0  1FF   [1]  02
 (012.686399)  can0  100   [6]  3D 00 B1 01 00 00
 (012.705618)  can0  100   [6]  3D 00 B1 01 00 00
 (013.860371)  can0  101   [4]  F2 FF 0A 00
 (014.480807)  can0  100   [6]  3D 00 AF 01 00 00
 (015.191672)  can0  101   [4]  FE FF 0A 00
 (015.329029)  can0  100   [6]  3D 00 AF 01 00 00
 (015.546397)  can0  100   [6]  3B 00 AB 01 00 00
 (015.831977)  can0  100   [6]  3D 00 AD 01 00 00
 (016.375097)  can0  101   [4]  05 00 11 00
 (016.522994)  can0  101   [4]  EE FF F6 FF
 (018.780451)  can0  100   [6]  3D 00 AD 01 00 00
 (018.889767)  can0  101   [4]  F7 FF 0A 00
 (027.694272)  can0  100   [6]  3F 00 B2 01 00 00
 (030.031437)  can0  100   [6]  40 00 AD 01 00 00
 (033.729434)  can0  101   [4]  05 00 0A 00
 (037.258834)  can0  100   [6]  3D 00 B1 01 00 00
 (037.972838)  can0  1FF   [1]  05
 (038.097854)  can0  100   [6]  3B 00 AF 01 00 00
 (038.118071)  can0  101   [4]  FC FF FA FF
 (038.196398)  can0  100   [6]  37 00 AD 01 00 00
 (038.206381)  can0  100   [6]  37 00 AD 01 00 00
 (038.462915)  can0  101   [4]  05 00 0A 00
 (038.858109)  can0  101   [4]  05 00 0A 00
 (039.408824)  can0  100   [6]  3B 00 AF 01 00 00
 (040.533071)  can0  100   [6]  3B 00 AF 01 00 00
 (041.767827)  can0  101   [4]  02 00 05 00
 (042.061669)  can0  100   [6]  3D 00 B1 01 00 00
 (042.071522)  can0  100   [6]  3D 00 B2 01 00 00
 (042.771906)  can0  100   [6]  3A 00 B0 01 00 00
 (043.201868)  can0  1FF   [1]  6F
 (043.350722)  can0  1FF   [1]  72
 (043.690129)  can0  101   [4]  02 00 09 00
 (043.817612)  can0  100   [6]  3A 00 B1 01 00 00
 (043.857275)  can0  100   [6]  3B 00 B1 01 00 00
 (043.995228)  can0  100   [6]  3B 00 AF 01 00 00
 (044.005099)  can0  100   [6]  3B 00 B0 01 00 00
 (044.134145)  can0  101   [4]  F5 FF 02 00
 (044.232818)  can0  101   [4]  05 00 05 00
 (044.419467)  can0  100   [6]  3B 00 AF 01 00 00
 (044.508275)  can0  100   [6]  3D 00 AF 01 00 00
 (044.628863)  can0  101   [4]  FA FF F4 FF
 (045.248630)  can0  100   [6]  3B 00 B2 01 00 00
 (045.466467)  can0  101   [4]  F6 FF 02 00
 (046.204957)  can0  100   [6]  3B 00 B2 01 00 00
 (046.224687)  can0  100   [6]  3A 00 B1 01 00 00
 (046.303620)  can0  100   [6]  39 00 B1 01 00 00
 (046.304365)  can0  101   [4]  FD FF 08 00
 (046.309091)  can0  1FF   [1]  AE
 (046.313489)  can0  100   [6]  3A 00 B1 01 00 00
 (046.323372)  can0  100   [6]  3A 00 B1 01 00 00
 (046.343121)  can0  100   [6]  39 00 B0 01 00 00
 (047.099054)  can0  1FF   [1]  BE
 (047.241953)  can0  101   [4]  03 00 09 00
 (047.389148)  can0  100   [6]  39 00 B2 01 00 00
 (047.418752)  can0  100   [6]  39 00 B2 01 00 00
 (048.327986)  can0  101   [4]  05 00 FE FF
 (048.331621)  can0  1FF   [1]  D7
 (049.117035)  can0  101   [4]  FA FF 0D 00
 (049.174806)  can0  100   [6]  3A 00 B3 01 00 00
 (049.313713)  can0  101   [4]  0D 00 02 00
 (049.363056)  can0  101   [4]  FE FF FA FF
 (049.451639)  can0  100   [6]  3B 00 B2 01 00 00
 (049.510294)  can0  100   [6]  3A 00 B1 01 00 00
 (049.559637)  can0  100   [6]  3D 00 B2 01 00 00
 (049.569528)  can0  100   [6]  3D 00 B2 01 00 00
 (049.599118)  can0  100   [6]  3D 00 B1 01 00 00
 (049.737279)  can0  100   [6]  3D 00 AF 01 00 00
 (049.747536)  can0  100   [6]  3D 00 AF 01 00 00
 (050.703943)  can0  100   [6]  3A 00 B1 01 00 00
 (050.713818)  can0  100   [6]  3A 00 B1 01 00 00
 (050.749123)  can0  1FF   [1]  08
 (050.812493)  can0  100   [6]  3A 00 B0 01 00 00
 (050.930881)  can0  100   [6]  3A 00 B1 01 00 00
 (052.213106)  can0  100   [6]  3A 00 AE 01 00 00
 (052.276962)  can0  1FF   [1]  27
 (052.569763)  can0  101   [4]  FE FF 03 00
 (053.258683)  can0  100   [6]  3A 00 B1 01 00 00
 (053.317881)  can0  100   [6]  3B 00 B0 01 00 00
 (053.457946)  can0  101   [4]  FE FF F6 FF
 (053.999269)  can0  101   [4]  09 00 09 00
 (054.235298)  can0  100   [6]  3D 00 B1 01 00 00
 (054.245177)  can0  100   [6]  3D 00 B1 01 00 00
 (054.857326)  can0  100   [6]  3B 00 B1 01 00 00
 (054.867110)  can0  100   [6]  3B 00 B1 01 00 00
 (054.877222)  can0  100   [6]  3A 00 B1 01 00 00
 (054.886409)  can0  100   [6]  3B 00 B1 01 00 00
 (055.035197)  can0  101   [4]  05 00 08 00
 (055.073871)  can0  100   [6]  3D 00 B2 01 00 00
 (055.271202)  can0  100   [6]  3B 00 B0 01 00 00
 (055.380488)  can0  101   [4]  FE FF FA FF
 (056.564102)  can0  101   [4]  05 00 08 00
 (057.066403)  can0  100   [6]  3B 00 B2 01 00 00
 (057.381891)  can0  100   [6]  3B 00 AF 01 00 00
 (057.748430)  can0  101   [4]  FD FF 0A 00
 (057.797753)  can0  101   [4]  FE FF 03 00
 (058.072346)  can0  100   [6]  3A 00 AE 01 00 00
 (058.979811)  can0  100   [6]  3A 00 B0 01 00 00
 (059.131908)  can0  1FF   [1]  B2
 (059.217275)  can0  100   [6]  3B 00 AF 01 00 00
