 (000.000000)  can0  100   [6]  3B 00 A5 01 00 00
 (000.003484)  can0  1FF   [1]  B1
 (000.039523)  can0  100   [6]  39 00 A7 01 00 00
 (000.049381)  can0  100   [6]  39 00 A7 01 00 00
 (000.051702)  can0  103   [2]  00 02
 (000.925976)  can0  101   [4]  F0 FF FD FF
 (000.929681)  can0  100   [6]  36 00 A6 01 00 00
 (000.930501)  can0  102   [6]  60 06 0D 06 2C 06
 (000.939517)  can0  100   [6]  36 00 A6 01 00 00
 (000.940187)  can0  101   [4]  07 00 04 00
 (000.941604)  can0  103   [2]  00 04
 (000.942768)  can0  1FF   [1]  C4
 (000.949003)  can0  100   [6]  37 00 A5 01 00 00
 (000.959134)  can0  100   [6]  37 00 A5 01 00 00
 (000.968727)  can0  100   [6]  38 00 A4 01 00 00
 (000.978619)  can0  100   [6]  39 00 A3 01 00 00
 (000.988517)  can0  100   [6]  3A 00 A4 01 00 00
 (000.989166)  can0  101   [4]  03 00 FC FF
 (000.990582)  can0  103   [2]  00 04
 (000.991802)  can0  1FF   [1]  C5
 (000.998412)  can0  100   [6]  3A 00 A6 01 00 00
 (001.008294)  can0  100   [6]  3A 00 A7 01 00 00
 (001.018214)  can0  100   [6]  38 00 A8 01 00 00
 (001.019008)  can0  102   [6]  60 06 0D 06 2C 06
 (001.028095)  can0  100   [6]  38 00 A8 01 00 00
 (001.028898)  can0  102   [6]  60 06 0D 06 2C 06
 (001.037971)  can0  100   [6]  38 00 A6 01 00 00
 (001.038617)  can0  101   [4]  F8 FF 09 00
 (001.040035)  can0  103   [2]  00 04
 (001.041317)  can0  1FF   [1]  C6
 (001.047860)  can0  100   [6]  38 00 A5 01 00 00
 (001.048663)  can0  102   [6]  60 06 0D 06 2C 06
 (001.057753)  can0  100   [6]  37 00 A4 01 00 00
 (001.067644)  can0  100   [6]  38 00 A3 01 00 00
 (001.077527)  can0  100   [6]  37 00 A3 01 00 00
 (001.087416)  can0  100   [6]  38 00 A4 01 00 00
 (001.088139)  can0  101   [4]  F0 FF 02 00
 (001.089676)  can0  103   [2]  00 04
 (001.091024)  can0  1FF   [1]  C7
 (001.097301)  can0  100   [6]  39 00 A5 01 00 00
 (001.107179)  can0  100   [6]  39 00 A6 01 00 00
 (001.117094)  can0  100   [6]  38 00 A8 01 00 00
 (001.126970)  can0  100   [6]  37 00 A8 01 00 00
 (001.127835)  can0  102   [6]  60 06 0D 06 2C 06
 (001.136864)  can0  100   [6]  36 00 A9 01 00 00
 (001.137591)  can0  101   [4]  FA FF 08 00
 (001.138462)  can0  102   [6]  60 06 0D 06 2C 06
 (001.139073)  can0  103   [2]  00 04
 (001.139976)  can0  104   [6]  00 00 00 00 00 00
 (001.140500)  can0  1FF   [1]  C8
 (001.146769)  can0  100   [6]  36 00 A8 01 00 00
 (001.147633)  can0  102   [6]  60 06 0D 06 2C 06
 (001.156643)  can0  100   [6]  37 00 A7 01 00 00
 (001.157505)  can0  102   [6]  60 06 0D 06 2C 06
 (001.166535)  can0  100   [6]  38 00 A6 01 00 00
 (001.176430)  can0  100   [6]  39 00 A5 01 00 00
 (001.186318)  can0  100   [6]  3B 00 A5 01 00 00
 (001.187058)  can0  101   [4]  00 00 FD FF
 (001.188605)  can0  103   [2]  00 04
 (001.189512)  can0  104   [6]  00 00 00 00 00 00
 (001.190030)  can0  1FF   [1]  C9
 (001.196206)  can0  100   [6]  3B 00 A5 01 00 00
 (001.206089)  can0  100   [6]  3B 00 A5 01 00 00
 (001.215971)  can0  100   [6]  3A 00 A5 01 00 00
 (001.225867)  can0  100   [6]  3A 00 A5 01 00 00
 (001.235750)  can0  100   [6]  39 00 A7 01 00 00
 (001.236485)  can0  101   [4]  03 00 00 00
 (001.238033)  can0  103   [2]  00 04
 (001.238941)  can0  104   [6]  00 00 00 00 00 00
 (001.239469)  can0  1FF   [1]  CA
 (001.245640)  can0  100   [6]  39 00 A7 01 00 00
 (001.255549)  can0  100   [6]  39 00 A8 01 00 00
 (001.265702)  can0  100   [6]  38 00 A8 01 00 00
 (001.275367)  can0  100   [6]  38 00 A8 01 00 00
 (001.285244)  can0  100   [6]  38 00 A7 01 00 00
 (001.914977)  can0  101   [4]  F1 FF 03 00
 (001.918846)  can0  100   [6]  39 00 A5 01 00 00
 (001.928099)  can0  100   [6]  3A 00 A3 01 00 00
 (001.929039)  can0  101   [4]  F5 FF 04 00
 (001.931571)  can0  1FF   [1]  D8
 (001.938499)  can0  100   [6]  3A 00 A3 01 00 00
 (001.947825)  can0  100   [6]  3B 00 A3 01 00 00
 (001.957644)  can0  100   [6]  3A 00 A5 01 00 00
 (001.967531)  can0  100   [6]  3B 00 A8 01 00 00
 (001.977409)  can0  100   [6]  3B 00 AB 01 00 00
 (001.979312)  can0  103   [2]  00 04
 (001.980161)  can0  104   [6]  00 00 00 00 00 00
 (001.980608)  can0  1FF   [1]  D9
 (001.987305)  can0  100   [6]  3A 00 AC 01 00 00
 (001.997207)  can0  100   [6]  3A 00 AC 01 00 00
 (002.007071)  can0  100   [6]  39 00 AA 01 00 00
 (002.016968)  can0  100   [6]  39 00 A7 01 00 00
 (002.026856)  can0  100   [6]  3A 00 A4 01 00 00
 (002.029199)  can0  103   [2]  00 04
 (002.030452)  can0  1FF   [1]  DA
 (002.036737)  can0  100   [6]  3B 00 A3 01 00 00
 (002.046641)  can0  100   [6]  3C 00 A2 01 00 00
 (002.056630)  can0  100   [6]  3D 00 A5 01 00 00
 (002.066416)  can0  100   [6]  3C 00 A7 01 00 00
 (002.076296)  can0  100   [6]  3B 00 A9 01 00 00
 (002.077022)  can0  101   [4]  06 00 0D 00
 (002.078561)  can0  103   [2]  00 04
 (002.079916)  can0  1FF   [1]  DB
 (002.086181)  can0  100   [6]  3A 00 AA 01 00 00
 (002.096086)  can0  100   [6]  3A 00 AB 01 00 00
 (002.105962)  can0  100   [6]  3A 00 AA 01 00 00
 (002.115864)  can0  100   [6]  39 00 A8 01 00 00
 (002.125744)  can0  100   [6]  39 00 A6 01 00 00
 (002.126456)  can0  101   [4]  02 00 F6 FF
 (002.127331)  can0  102   [6]  60 06 0D 06 2C 06
 (002.127941)  can0  103   [2]  00 04
 (002.128853)  can0  104   [6]  00 00 00 00 00 00
 (002.129381)  can0  1FF   [1]  DC
 (002.135646)  can0  100   [6]  3A 00 A4 01 00 00
 (002.145530)  can0  100   [6]  3A 00 A4 01 00 00
 (002.155416)  can0  100   [6]  39 00 A5 01 00 00
 (002.165675)  can0  100   [6]  39 00 A6 01 00 00
 (002.166938)  can0  102   [6]  60 06 0D 06 2C 06
 (002.175215)  can0  100   [6]  3A 00 A6 01 00 00
 (002.903824)  can0  101   [4]  00 00 02 00
 (002.907514)  can0  100   [6]  3A 00 A3 01 00 00
 (002.916924)  can0  100   [6]  3A 00 A3 01 00 00
 (002.917587)  can0  101   [4]  EE FF 04 00
 (002.919875)  can0  104   [6]  00 00 00 00 00 00
 (002.920327)  can0  1FF   [1]  EC
 (002.928255)  can0  102   [6]  60 06 0D 06 2C 06
 (002.956405)  can0  100   [6]  39 00 A3 01 00 00
 (002.966282)  can0  100   [6]  3A 00 A3 01 00 00
 (002.966968)  can0  101   [4]  0C 00 F9 FF
 (002.968392)  can0  103   [2]  00 04
 (002.969266)  can0  104   [6]  00 00 00 00 00 00
 (002.969682)  can0  1FF   [1]  ED
 (002.976177)  can0  100   [6]  3A 00 A3 01 00 00
 (002.986106)  can0  100   [6]  3A 00 A2 01 00 00
 (003.005847)  can0  100   [6]  39 00 A5 01 00 00
 (003.015731)  can0  100   [6]  39 00 A6 01 00 00
 (003.016462)  can0  101   [4]  FF FF 09 00
 (003.018026)  can0  103   [2]  00 04
 (003.018913)  can0  104   [6]  00 00 00 00 00 00
 (003.019425)  can0  1FF   [1]  EE
 (003.025615)  can0  100   [6]  3B 00 A6 01 00 00
 (003.035527)  can0  100   [6]  3C 00 A5 01 00 00
 (003.045405)  can0  100   [6]  3C 00 A4 01 00 00
 (003.055294)  can0  100   [6]  3C 00 A4 01 00 00
 (003.065667)  can0  100   [6]  3B 00 A4 01 00 00
 (003.066799)  can0  101   [4]  FD FF 04 00
 (003.067671)  can0  102   [6]  60 06 0D 06 2C 06
 (003.068279)  can0  103   [2]  00 04
 (003.069198)  can0  104   [6]  00 00 00 00 00 00
 (003.069711)  can0  1FF   [1]  EF
 (003.075069)  can0  100   [6]  3A 00 A5 01 00 00
 (003.075935)  can0  102   [6]  60 06 0D 06 2C 06
 (003.085218)  can0  100   [6]  39 00 A5 01 00 00
 (003.094854)  can0  100   [6]  39 00 A6 01 00 00
 (003.105210)  can0  100   [6]  38 00 A7 01 00 00
 (003.106079)  can0  102   [6]  60 06 0D 06 2C 06
 (003.114973)  can0  100   [6]  38 00 A6 01 00 00
 (003.116093)  can0  101   [4]  EE FF F9 FF
 (003.117638)  can0  103   [2]  00 04
 (003.125206)  can0  100   [6]  39 00 A6 01 00 00
 (003.134545)  can0  100   [6]  3A 00 A5 01 00 00
 (003.144350)  can0  100   [6]  3A 00 A5 01 00 00
 (003.154539)  can0  100   [6]  39 00 A5 01 00 00
 (003.165558)  can0  101   [4]  F0 FF 02 00
 (003.877145)  can0  102   [6]  60 06 0D 06 2C 06
 (003.877959)  can0  100   [6]  3A 00 A4 01 00 00
 (003.878626)  can0  101   [4]  01 00 00 00
 (003.879435)  can0  102   [6]  60 06 0D 06 2C 06
 (003.879971)  can0  103   [2]  00 02
 (003.886139)  can0  100   [6]  39 00 A6 01 00 00
 (003.896438)  can0  100   [6]  39 00 A6 01 00 00
 (003.897244)  can0  102   [6]  60 06 0D 06 2C 06
 (003.906350)  can0  100   [6]  3A 00 A5 01 00 00
 (003.907020)  can0  101   [4]  06 00 0F 00
 (003.907827)  can0  102   [6]  60 06 0D 06 2C 06
 (003.908369)  can0  103   [2]  00 04
 (003.909222)  can0  104   [6]  00 00 00 00 00 00
 (003.909675)  can0  1FF   [1]  00
 (003.916316)  can0  100   [6]  3C 00 A3 01 00 00
 (003.925706)  can0  100   [6]  3D 00 A3 01 00 00
 (003.935597)  can0  100   [6]  3D 00 A3 01 00 00
 (003.936400)  can0  102   [6]  60 06 0D 06 2C 06
 (003.945479)  can0  100   [6]  3D 00 A4 01 00 00
 (003.946286)  can0  102   [6]  60 06 0D 06 2C 06
 (003.955377)  can0  100   [6]  3B 00 A6 01 00 00
 (003.956024)  can0  101   [4]  F7 FF 0F 00
 (003.957441)  can0  103   [2]  00 04
 (003.958296)  can0  104   [6]  00 00 00 00 00 00
 (003.958755)  can0  1FF   [1]  01
 (003.965667)  can0  100   [6]  39 00 A7 01 00 00
 (003.966474)  can0  102   [6]  60 06 0D 06 2C 06
 (003.975155)  can0  100   [6]  39 00 A7 01 00 00
 (003.975955)  can0  102   [6]  60 06 0D 06 2C 06
 (003.985241)  can0  100   [6]  38 00 A7 01 00 00
 (003.986042)  can0  102   [6]  60 06 0D 06 2C 06
 (003.994938)  can0  100   [6]  37 00 A7 01 00 00
 (004.005206)  can0  100   [6]  39 00 A7 01 00 00
 (004.005882)  can0  101   [4]  FD FF FF FF
 (004.007302)  can0  103   [2]  00 04
 (004.008148)  can0  104   [6]  00 00 00 00 00 00
 (004.008605)  can0  1FF   [1]  02
 (004.014989)  can0  100   [6]  3A 00 A5 01 00 00
 (004.015789)  can0  102   [6]  60 06 0D 06 2C 06
 (004.025218)  can0  100   [6]  3B 00 A4 01 00 00
 (004.026017)  can0  102   [6]  60 06 0D 06 2C 06
 (004.034529)  can0  100   [6]  3A 00 A4 01 00 00
 (004.035330)  can0  102   [6]  60 06 0D 06 2C 06
 (004.045246)  can0  100   [6]  3A 00 A4 01 00 00
 (004.046053)  can0  102   [6]  60 06 0D 06 2C 06
 (004.054569)  can0  100   [6]  38 00 A4 01 00 00
 (004.055179)  can0  101   [4]  F5 FF FA FF
 (004.055987)  can0  102   [6]  60 06 0D 06 2C 06
 (004.056533)  can0  103   [2]  00 04
 (004.057382)  can0  104   [6]  00 00 00 00 00 00
 (004.057841)  can0  1FF   [1]  03
 (004.064359)  can0  100   [6]  36 00 A4 01 00 00
 (004.065166)  can0  102   [6]  60 06 0D 06 2C 06
 (004.074535)  can0  100   [6]  36 00 A5 01 00 00
 (004.084374)  can0  100   [6]  37 00 A4 01 00 00
 (004.094514)  can0  100   [6]  36 00 A4 01 00 00
 (004.104375)  can0  100   [6]  37 00 A4 01 00 00
 (004.105045)  can0  101   [4]  F8 FF F5 FF
 (004.106463)  can0  103   [2]  00 04
 (004.107311)  can0  104   [6]  00 00 00 00 00 00
 (004.107777)  can0  1FF   [1]  04
 (004.114119)  can0  100   [6]  38 00 A5 01 00 00
 (004.123691)  can0  100   [6]  38 00 A5 01 00 00
 (004.133661)  can0  100   [6]  37 00 A6 01 00 00
 (004.143646)  can0  100   [6]  36 00 A6 01 00 00
 (004.153680)  can0  100   [6]  36 00 A5 01 00 00
 (004.154350)  can0  101   [4]  FD FF FA FF
 (004.155761)  can0  103   [2]  00 04
 (004.156611)  can0  104   [6]  00 00 00 00 00 00
 (004.157083)  can0  1FF   [1]  05
 (004.163110)  can0  100   [6]  37 00 A3 01 00 00
 (004.163914)  can0  102   [6]  60 06 0D 06 2C 06
 (004.173668)  can0  100   [6]  38 00 A2 01 00 00
 (004.182899)  can0  100   [6]  38 00 A2 01 00 00
 (004.183704)  can0  102   [6]  60 06 0D 06 2C 06
 (004.192792)  can0  100   [6]  38 00 A4 01 00 00
 (004.202730)  can0  100   [6]  39 00 A5 01 00 00
 (004.203353)  can0  101   [4]  15 00 F9 FF
 (004.204768)  can0  103   [2]  00 04
 (004.205997)  can0  1FF   [1]  06
 (004.212560)  can0  100   [6]  39 00 A5 01 00 00
 (004.222446)  can0  100   [6]  39 00 A5 01 00 00
 (004.232338)  can0  100   [6]  38 00 A5 01 00 00
 (004.233142)  can0  102   [6]  60 06 0D 06 2C 06
 (004.242221)  can0  100   [6]  39 00 A6 01 00 00
 (004.252125)  can0  100   [6]  39 00 A5 01 00 00
 (004.252803)  can0  101   [4]  0C 00 05 00
 (004.254209)  can0  103   [2]  00 04
 (004.255055)  can0  104   [6]  00 00 00 00 00 00
 (004.255510)  can0  1FF   [1]  07
 (004.262132)  can0  100   [6]  3A 00 A4 01 00 00
 (004.271909)  can0  100   [6]  3A 00 A4 01 00 00
 (004.281784)  can0  100   [6]  3B 00 A3 01 00 00
 (004.291668)  can0  100   [6]  3B 00 A3 01 00 00
 (004.301556)  can0  100   [6]  3A 00 A3 01 00 00
 (004.302271)  can0  101   [4]  06 00 F7 FF
 (004.305083)  can0  103   [2]  00 04
 (004.307268)  can0  1FF   [1]  08
 (004.311442)  can0  100   [6]  3A 00 A3 01 00 00
 (004.321333)  can0  100   [6]  38 00 A4 01 00 00
 (004.331225)  can0  100   [6]  37 00 A5 01 00 00
 (004.341101)  can0  100   [6]  37 00 A7 01 00 00
 (004.350993)  can0  100   [6]  37 00 A7 01 00 00
 (004.351793)  can0  101   [4]  ED FF 03 00
 (004.353904)  can0  103   [2]  00 04
 (004.355997)  can0  1FF   [1]  09
 (004.360882)  can0  100   [6]  38 00 A6 01 00 00
 (004.370784)  can0  100   [6]  39 00 A5 01 00 00
 (004.371660)  can0  102   [6]  60 06 0D 06 2C 06
 (004.380663)  can0  100   [6]  3A 00 A3 01 00 00
 (004.390545)  can0  100   [6]  3B 00 A3 01 00 00
 (004.400428)  can0  100   [6]  3A 00 A3 01 00 00
 (004.401138)  can0  101   [4]  EA FF FA FF
 (004.402696)  can0  103   [2]  00 04
 (004.405947)  can0  1FF   [1]  0A
 (004.410340)  can0  100   [6]  39 00 A4 01 00 00
 (004.420220)  can0  100   [6]  38 00 A4 01 00 00
 (004.430109)  can0  100   [6]  38 00 A5 01 00 00
 (004.880459)  can0  102   [6]  60 06 0D 06 2C 06
 (004.881259)  can0  100   [6]  3B 00 A3 01 00 00
 (004.881935)  can0  101   [4]  00 00 FA FF
 (004.885799)  can0  100   [6]  38 00 A6 01 00 00
 (004.895569)  can0  100   [6]  39 00 A5 01 00 00
 (004.896237)  can0  101   [4]  FC FF 00 00
 (004.897058)  can0  102   [6]  60 06 0D 06 2C 06
 (004.897603)  can0  103   [2]  00 04
 (004.898859)  can0  1FF   [1]  14
 (004.905004)  can0  100   [6]  39 00 A3 01 00 00
 (004.915226)  can0  100   [6]  39 00 A3 01 00 00
 (004.916016)  can0  102   [6]  60 06 0D 06 2C 06
 (004.925214)  can0  100   [6]  39 00 A2 01 00 00
 (004.926027)  can0  102   [6]  60 06 0D 06 2C 06
 (004.934589)  can0  100   [6]  37 00 A2 01 00 00
 (004.935389)  can0  102   [6]  60 06 0D 06 2C 06
 (004.945228)  can0  100   [6]  36 00 A2 01 00 00
 (004.945913)  can0  101   [4]  08 00 FF FF
 (004.947335)  can0  103   [2]  00 04
 (004.948176)  can0  104   [6]  00 00 00 00 00 00
 (004.948627)  can0  1FF   [1]  15
 (004.954554)  can0  100   [6]  35 00 A4 01 00 00
 (004.955344)  can0  102   [6]  60 06 0D 06 2C 06
 (004.964364)  can0  100   [6]  35 00 A5 01 00 00
 (004.965175)  can0  102   [6]  60 06 0D 06 2C 06
 (004.974535)  can0  100   [6]  35 00 A6 01 00 00
 (004.984364)  can0  100   [6]  36 00 A6 01 00 00
 (004.994530)  can0  100   [6]  38 00 A4 01 00 00
 (004.996670)  can0  103   [2]  00 04
 (004.997882)  can0  1FF   [1]  16
 (005.004353)  can0  100   [6]  39 00 A3 01 00 00
 (005.014149)  can0  100   [6]  3B 00 A1 01 00 00
 (005.023705)  can0  100   [6]  3C 00 A0 01 00 00
 (005.033663)  can0  100   [6]  3B 00 A1 01 00 00
 (005.043680)  can0  100   [6]  3A 00 A2 01 00 00
 (005.044340)  can0  101   [4]  F6 FF 00 00
 (005.045763)  can0  103   [2]  00 04
 (005.046609)  can0  104   [6]  00 00 00 00 00 00
 (005.047068)  can0  1FF   [1]  17
 (005.053688)  can0  100   [6]  38 00 A4 01 00 00
 (005.054505)  can0  102   [6]  60 06 0D 06 2C 06
 (005.063676)  can0  100   [6]  38 00 A6 01 00 00
 (005.064477)  can0  102   [6]  60 06 0D 06 2C 06
 (005.073696)  can0  100   [6]  39 00 A5 01 00 00
 (005.082954)  can0  100   [6]  3B 00 A4 01 00 00
 (005.083760)  can0  102   [6]  60 06 0D 06 2C 06
 (005.092848)  can0  100   [6]  3B 00 A3 01 00 00
 (005.093517)  can0  101   [4]  01 00 FB FF
 (005.094933)  can0  103   [2]  00 04
 (005.095779)  can0  104   [6]  00 00 00 00 00 00
 (005.096246)  can0  1FF   [1]  18
 (005.102744)  can0  100   [6]  3B 00 A3 01 00 00
 (005.103547)  can0  102   [6]  60 06 0D 06 2C 06
 (005.112650)  can0  100   [6]  3B 00 A4 01 00 00
 (005.113444)  can0  102   [6]  60 06 0D 06 2C 06
 (005.122543)  can0  100   [6]  39 00 A5 01 00 00
 (005.123355)  can0  102   [6]  60 06 0D 06 2C 06
 (005.132439)  can0  100   [6]  39 00 A5 01 00 00
 (005.133243)  can0  102   [6]  60 06 0D 06 2C 06
 (005.142327)  can0  100   [6]  38 00 A4 01 00 00
 (005.142993)  can0  101   [4]  07 00 EC FF
 (005.143804)  can0  102   [6]  60 06 0D 06 2C 06
 (005.144350)  can0  103   [2]  00 04
 (005.145216)  can0  104   [6]  00 00 00 00 00 00
 (005.145654)  can0  1FF   [1]  19
 (005.152232)  can0  100   [6]  39 00 A4 01 00 00
 (005.153036)  can0  102   [6]  60 06 0D 06 2C 06
 (005.162124)  can0  100   [6]  3A 00 A4 01 00 00
 (005.162926)  can0  102   [6]  60 06 0D 06 2C 06
 (005.172009)  can0  100   [6]  3A 00 A3 01 00 00
 (005.172824)  can0  102   [6]  60 06 0D 06 2C 06
 (005.181928)  can0  100   [6]  3A 00 A2 01 00 00
 (005.182729)  can0  102   [6]  60 06 0D 06 2C 06
 (005.191809)  can0  100   [6]  3B 00 A1 01 00 00
 (005.192463)  can0  101   [4]  EB FF 0A 00
 (005.193273)  can0  102   [6]  60 06 0D 06 2C 06
 (005.193820)  can0  103   [2]  00 04
 (005.194668)  can0  104   [6]  00 00 00 00 00 00
 (005.195119)  can0  1FF   [1]  1A
 (005.201716)  can0  100   [6]  3B 00 A2 01 00 00
 (005.202529)  can0  102   [6]  60 06 0D 06 2C 06
 (005.211617)  can0  100   [6]  3B 00 A2 01 00 00
 (005.212399)  can0  102   [6]  60 06 0D 06 2C 06
 (005.221512)  can0  100   [6]  3A 00 A2 01 00 00
 (005.222317)  can0  102   [6]  60 06 0D 06 2C 06
 (005.231392)  can0  100   [6]  39 00 A3 01 00 00
 (005.241283)  can0  100   [6]  39 00 A2 01 00 00
 (005.241941)  can0  101   [4]  08 00 FC FF
 (005.243368)  can0  103   [2]  00 04
 (005.244523)  can0  1FF   [1]  1B
 (005.251176)  can0  100   [6]  38 00 A4 01 00 00
 (005.251976)  can0  102   [6]  60 06 0D 06 2C 06
 (005.261075)  can0  100   [6]  38 00 A4 01 00 00
 (005.270955)  can0  100   [6]  38 00 A4 01 00 00
 (005.271750)  can0  102   [6]  60 06 0D 06 2C 06
 (005.280855)  can0  100   [6]  38 00 A3 01 00 00
 (005.290738)  can0  100   [6]  37 00 A3 01 00 00
 (005.291600)  can0  101   [4]  FD FF F9 FF
 (005.292217)  can0  102   [6]  60 06 0D 06 2C 06
 (005.292764)  can0  103   [2]  00 04
 (005.293608)  can0  104   [6]  00 00 00 00 00 00
 (005.294056)  can0  1FF   [1]  1C
 (005.300633)  can0  100   [6]  37 00 A3 01 00 00
 (005.310555)  can0  100   [6]  37 00 A3 01 00 00
 (005.320416)  can0  100   [6]  38 00 A3 01 00 00
 (005.330284)  can0  100   [6]  39 00 A3 01 00 00
 (005.340172)  can0  100   [6]  39 00 A3 01 00 00
 (005.342515)  can0  103   [2]  00 04
 (005.344038)  can0  104   [6]  00 00 00 00 00 00
 (005.345184)  can0  1FF   [1]  1D
 (005.350082)  can0  100   [6]  38 00 A3 01 00 00
 (005.350947)  can0  102   [6]  60 06 0D 06 2C 06
 (005.359973)  can0  100   [6]  38 00 A3 01 00 00
 (005.360838)  can0  102   [6]  60 06 0D 06 2C 06
 (005.369881)  can0  100   [6]  38 00 A3 01 00 00
 (005.379758)  can0  100   [6]  37 00 A4 01 00 00
 (005.380625)  can0  102   [6]  60 06 0D 06 2C 06
 (005.389653)  can0  100   [6]  37 00 A4 01 00 00
 (005.390381)  can0  101   [4]  01 00 FB FF
 (005.391260)  can0  102   [6]  60 06 0D 06 2C 06
 (005.391862)  can0  103   [2]  00 04
 (005.392779)  can0  104   [6]  00 00 00 00 00 00
 (005.393933)  can0  1FF   [1]  1E
 (005.399553)  can0  100   [6]  37 00 A4 01 00 00
 (005.409449)  can0  100   [6]  38 00 A4 01 00 00
 (005.419332)  can0  100   [6]  39 00 A3 01 00 00
 (005.429225)  can0  100   [6]  3B 00 A3 01 00 00
 (005.430087)  can0  102   [6]  60 06 0D 06 2C 06
 (005.439124)  can0  100   [6]  3C 00 A2 01 00 00
 (005.440824)  can0  102   [6]  60 06 0D 06 2C 06
 (005.441402)  can0  103   [2]  00 04
 (005.442314)  can0  104   [6]  00 00 00 00 00 00
 (005.443476)  can0  1FF   [1]  1F
 (005.449023)  can0  100   [6]  3C 00 A3 01 00 00
 (005.458916)  can0  100   [6]  3C 00 A3 01 00 00
 (005.459777)  can0  102   [6]  60 06 0D 06 2C 06
 (005.468790)  can0  100   [6]  3B 00 A2 01 00 00
 (005.478677)  can0  100   [6]  3B 00 A2 01 00 00
 (005.488594)  can0  100   [6]  3A 00 A2 01 00 00
 (005.489328)  can0  101   [4]  06 00 03 00
 (005.490870)  can0  103   [2]  00 04
 (005.491778)  can0  104   [6]  00 00 00 00 00 00
 (005.492305)  can0  1FF   [1]  20
 (005.498469)  can0  100   [6]  39 00 A2 01 00 00
 (005.508352)  can0  100   [6]  39 00 A2 01 00 00
 (005.509238)  can0  102   [6]  60 06 0D 06 2C 06
 (005.518236)  can0  100   [6]  3A 00 A3 01 00 00
 (005.529068)  can0  102   [6]  60 06 0D 06 2C 06
 (005.538051)  can0  100   [6]  39 00 A5 01 00 00
 (005.538737)  can0  101   [4]  FE FF 0B 00
 (005.539614)  can0  102   [6]  60 06 0D 06 2C 06
 (005.540233)  can0  103   [2]  00 04
 (005.541134)  can0  104   [6]  00 00 00 00 00 00
 (005.541655)  can0  1FF   [1]  21
 (005.547923)  can0  100   [6]  39 00 A5 01 00 00
 (005.548787)  can0  102   [6]  60 06 0D 06 2C 06
 (005.557821)  can0  100   [6]  3A 00 A5 01 00 00
 (005.567712)  can0  100   [6]  3A 00 A4 01 00 00
 (005.568575)  can0  102   [6]  60 06 0D 06 2C 06
 (005.587484)  can0  100   [6]  38 00 A4 01 00 00
 (005.588225)  can0  101   [4]  03 00 04 00
 (005.589767)  can0  103   [2]  00 04
 (005.590683)  can0  104   [6]  00 00 00 00 00 00
 (005.591203)  can0  1FF   [1]  22
 (005.597385)  can0  100   [6]  37 00 A4 01 00 00
 (005.607271)  can0  100   [6]  37 00 A3 01 00 00
 (005.617152)  can0  100   [6]  36 00 A2 01 00 00
 (005.627045)  can0  100   [6]  37 00 A2 01 00 00
 (005.636942)  can0  100   [6]  38 00 A2 01 00 00
 (005.637669)  can0  101   [4]  00 00 F6 FF
 (005.639238)  can0  103   [2]  00 04
 (005.871453)  can0  101   [4]  09 00 09 00
 (005.874366)  can0  100   [6]  3A 00 A5 01 00 00
 (005.884348)  can0  100   [6]  3A 00 A5 01 00 00
 (005.885029)  can0  101   [4]  05 00 00 00
 (005.886455)  can0  103   [2]  00 04
 (005.887298)  can0  104   [6]  00 00 00 00 00 00
 (005.887739)  can0  1FF   [1]  28
 (005.894613)  can0  100   [6]  39 00 A5 01 00 00
 (005.904818)  can0  100   [6]  3A 00 A6 01 00 00
 (005.914131)  can0  100   [6]  39 00 A8 01 00 00
 (005.924357)  can0  100   [6]  39 00 A9 01 00 00
 (005.933666)  can0  100   [6]  38 00 A9 01 00 00
 (005.934345)  can0  101   [4]  FF FF 0B 00
 (005.935753)  can0  103   [2]  00 04
 (005.936602)  can0  104   [6]  00 00 00 00 00 00
 (005.937051)  can0  1FF   [1]  29
 (005.943675)  can0  100   [6]  38 00 A7 01 00 00
 (005.953668)  can0  100   [6]  38 00 A6 01 00 00
 (005.973794)  can0  100   [6]  3A 00 A3 01 00 00
 (005.983666)  can0  100   [6]  3A 00 A4 01 00 00
 (005.985055)  can0  101   [4]  02 00 01 00
 (005.987370)  can0  103   [2]  00 04
 (005.988283)  can0  104   [6]  00 00 00 00 00 00
 (005.988811)  can0  1FF   [1]  2A
 (005.993671)  can0  100   [6]  3B 00 A4 01 00 00
 (006.002895)  can0  100   [6]  3B 00 A5 01 00 00
 (006.012803)  can0  100   [6]  3A 00 A6 01 00 00
 (006.022683)  can0  100   [6]  3A 00 A6 01 00 00
 (006.032555)  can0  100   [6]  39 00 A5 01 00 00
 (006.033927)  can0  101   [4]  00 00 00 00
 (006.036262)  can0  103   [2]  00 04
 (006.037617)  can0  1FF   [1]  2B
 (006.042437)  can0  100   [6]  3A 00 A5 01 00 00
 (006.052330)  can0  100   [6]  3B 00 A6 01 00 00
 (006.062227)  can0  100   [6]  3C 00 A5 01 00 00
 (006.072110)  can0  100   [6]  3C 00 A4 01 00 00
 (006.081996)  can0  100   [6]  3C 00 A4 01 00 00
 (006.082754)  can0  101   [4]  02 00 00 00
 (006.085561)  can0  103   [2]  00 04
 (006.087276)  can0  104   [6]  00 00 00 00 00 00
 (006.087773)  can0  1FF   [1]  2C
 (006.091888)  can0  100   [6]  3D 00 A5 01 00 00
 (006.101775)  can0  100   [6]  3D 00 A6 01 00 00
 (006.111669)  can0  100   [6]  3E 00 A7 01 00 00
 (006.121557)  can0  100   [6]  3D 00 A7 01 00 00
 (006.131434)  can0  100   [6]  3C 00 A6 01 00 00
 (006.132165)  can0  101   [4]  09 00 12 00
 (006.135137)  can0  103   [2]  00 04
 (006.136053)  can0  104   [6]  00 00 00 00 00 00
 (006.136573)  can0  1FF   [1]  2D
 (006.141334)  can0  100   [6]  3C 00 A6 01 00 00
 (006.142207)  can0  102   [6]  60 06 0D 06 2C 06
 (006.151216)  can0  100   [6]  3B 00 A5 01 00 00
 (006.161104)  can0  100   [6]  3A 00 A5 01 00 00
 (006.170996)  can0  100   [6]  3B 00 A4 01 00 00
 (006.855726)  can0  100   [6]  39 00 A7 01 00 00
 (006.858253)  can0  102   [6]  60 06 0D 06 2C 06
 (006.859056)  can0  100   [6]  37 00 A7 01 00 00
 (006.861181)  can0  103   [2]  00 02
 (006.863536)  can0  100   [6]  39 00 A7 01 00 00
 (006.864344)  can0  102   [6]  60 06 0D 06 2C 06
 (006.873225)  can0  100   [6]  3A 00 A7 01 00 00
 (006.873908)  can0  101   [4]  F7 FF FD FF
 (006.875302)  can0  103   [2]  00 06
 (006.876151)  can0  104   [6]  00 00 00 00 00 00
 (006.876616)  can0  1FF   [1]  3C
 (006.883083)  can0  100   [6]  3A 00 A7 01 00 00
 (006.893530)  can0  100   [6]  3A 00 A7 01 00 00
 (006.902838)  can0  100   [6]  3A 00 A7 01 00 00
 (006.903644)  can0  102   [6]  60 06 0D 06 2C 06
 (006.912744)  can0  100   [6]  3A 00 A7 01 00 00
 (006.922618)  can0  100   [6]  3A 00 A7 01 00 00
 (006.923289)  can0  101   [4]  0A 00 05 00
 (006.924096)  can0  102   [6]  60 06 0D 06 2C 06
 (006.924638)  can0  103   [2]  00 04
 (006.925498)  can0  104   [6]  00 00 00 00 00 00
 (006.925944)  can0  1FF   [1]  3D
 (006.932505)  can0  100   [6]  3A 00 A8 01 00 00
 (006.942394)  can0  100   [6]  3A 00 A7 01 00 00
 (006.943199)  can0  102   [6]  60 06 0D 06 2C 06
 (006.952287)  can0  100   [6]  39 00 A8 01 00 00
 (006.962196)  can0  100   [6]  38 00 A8 01 00 00
 (006.972081)  can0  100   [6]  38 00 A8 01 00 00
 (006.972746)  can0  101   [4]  FC FF 01 00
 (006.973556)  can0  102   [6]  60 06 0D 06 2C 06
 (006.974100)  can0  103   [2]  00 04
 (006.974959)  can0  104   [6]  00 00 00 00 00 00
 (006.975422)  can0  1FF   [1]  3E
 (006.981972)  can0  100   [6]  38 00 A8 01 00 00
 (006.991840)  can0  100   [6]  39 00 A7 01 00 00
 (007.001746)  can0  100   [6]  38 00 A7 01 00 00
 (007.011629)  can0  100   [6]  38 00 A6 01 00 00
 (007.021512)  can0  100   [6]  39 00 A6 01 00 00
 (007.022173)  can0  101   [4]  05 00 0B 00
 (007.022987)  can0  102   [6]  60 06 0D 06 2C 06
 (007.023526)  can0  103   [2]  00 04
 (007.024373)  can0  104   [6]  00 00 00 00 00 00
 (007.024832)  can0  1FF   [1]  3F
 (007.031417)  can0  100   [6]  39 00 A8 01 00 00
 (007.041298)  can0  100   [6]  38 00 A7 01 00 00
 (007.051183)  can0  100   [6]  37 00 A7 01 00 00
 (007.061084)  can0  100   [6]  38 00 A7 01 00 00
 (007.061883)  can0  102   [6]  60 06 0D 06 2C 06
 (007.070968)  can0  100   [6]  38 00 A7 01 00 00
 (007.071649)  can0  101   [4]  F7 FF 00 00
 (007.072465)  can0  102   [6]  60 06 0D 06 2C 06
 (007.073007)  can0  103   [2]  00 04
 (007.073855)  can0  104   [6]  00 00 00 00 00 00
 (007.074311)  can0  1FF   [1]  40
 (007.080876)  can0  100   [6]  38 00 A7 01 00 00
 (007.090753)  can0  100   [6]  38 00 A7 01 00 00
 (007.091559)  can0  102   [6]  60 06 0D 06 2C 06
 (007.100632)  can0  100   [6]  39 00 A7 01 00 00
 (007.110527)  can0  100   [6]  39 00 A6 01 00 00
 (007.120414)  can0  100   [6]  39 00 A6 01 00 00
 (007.121087)  can0  101   [4]  FC FF 04 00
 (007.122560)  can0  103   [2]  00 04
 (007.123357)  can0  104   [6]  00 00 00 00 00 00
 (007.123822)  can0  1FF   [1]  41
 (007.130331)  can0  100   [6]  38 00 A6 01 00 00
 (007.140200)  can0  100   [6]  37 00 A6 01 00 00
 (007.141032)  can0  102   [6]  60 06 0D 06 2C 06
 (007.150114)  can0  100   [6]  37 00 A6 01 00 00
 (007.159981)  can0  100   [6]  37 00 A6 01 00 00
 (007.169875)  can0  100   [6]  37 00 A6 01 00 00
 (007.170617)  can0  101   [4]  FF FF FF FF
 (007.172162)  can0  103   [2]  00 04
 (007.175792)  can0  1FF   [1]  42
 (007.179769)  can0  100   [6]  38 00 A6 01 00 00
 (007.189645)  can0  100   [6]  39 00 A6 01 00 00
 (007.199546)  can0  100   [6]  39 00 A6 01 00 00
 (007.209424)  can0  100   [6]  39 00 A6 01 00 00
 (007.219311)  can0  100   [6]  39 00 A6 01 00 00
 (007.220039)  can0  101   [4]  02 00 FE FF
 (007.221599)  can0  103   [2]  00 04
 (007.224271)  can0  1FF   [1]  43
 (007.229225)  can0  100   [6]  38 00 A7 01 00 00
 (007.239107)  can0  100   [6]  38 00 A7 01 00 00
 (007.248990)  can0  100   [6]  38 00 A6 01 00 00
 (007.258875)  can0  100   [6]  39 00 A7 01 00 00
 (007.268767)  can0  100   [6]  38 00 A6 01 00 00
 (007.269499)  can0  101   [4]  FC FF 0B 00
 (007.271040)  can0  103   [2]  00 04
 (007.271955)  can0  104   [6]  00 00 00 00 00 00
 (007.272475)  can0  1FF   [1]  44
 (007.278659)  can0  100   [6]  38 00 A6 01 00 00
 (007.288547)  can0  100   [6]  38 00 A6 01 00 00
 (007.298432)  can0  100   [6]  39 00 A6 01 00 00
 (007.308313)  can0  100   [6]  39 00 A6 01 00 00
 (007.849341)  can0  101   [4]  FA FF F9 FF
 (007.852280)  can0  100   [6]  3A 00 A5 01 00 00
 (007.862284)  can0  100   [6]  3B 00 A6 01 00 00
 (007.862958)  can0  101   [4]  00 00 FA FF
 (007.864371)  can0  103   [2]  00 04
 (007.865221)  can0  104   [6]  00 00 00 00 00 00
 (007.865684)  can0  1FF   [1]  50
 (007.872766)  can0  100   [6]  3B 00 A5 01 00 00
 (007.882348)  can0  100   [6]  3B 00 A5 01 00 00
 (007.891740)  can0  100   [6]  3B 00 A5 01 00 00
 (007.901632)  can0  100   [6]  3A 00 A5 01 00 00
 (007.911512)  can0  100   [6]  3B 00 A4 01 00 00
 (007.912166)  can0  101   [4]  05 00 03 00
 (007.914807)  can0  1FF   [1]  51
 (007.921407)  can0  100   [6]  3A 00 A4 01 00 00
 (007.931294)  can0  100   [6]  3A 00 A4 01 00 00
 (007.941192)  can0  100   [6]  3A 00 A4 01 00 00
 (007.951074)  can0  100   [6]  3A 00 A4 01 00 00
 (007.960964)  can0  100   [6]  3A 00 A4 01 00 00
 (007.961697)  can0  101   [4]  00 00 FA FF
 (007.963870)  can0  103   [2]  00 04
 (007.966635)  can0  1FF   [1]  52
 (007.970841)  can0  100   [6]  3A 00 A3 01 00 00
 (007.980743)  can0  100   [6]  3B 00 A4 01 00 00
 (007.990624)  can0  100   [6]  3A 00 A5 01 00 00
 (008.000513)  can0  100   [6]  3A 00 A4 01 00 00
 (008.010399)  can0  100   [6]  3B 00 A4 01 00 00
 (008.011134)  can0  101   [4]  F8 FF 00 00
 (008.012687)  can0  103   [2]  00 04
 (008.014222)  can0  104   [6]  00 00 00 00 00 00
 (008.015142)  can0  1FF   [1]  53
 (008.020294)  can0  100   [6]  3B 00 A4 01 00 00
 (008.021157)  can0  102   [6]  60 06 0D 06 2C 06
 (008.030200)  can0  100   [6]  3B 00 A3 01 00 00
 (008.040063)  can0  100   [6]  3B 00 A2 01 00 00
 (008.040936)  can0  102   [6]  60 06 0D 06 2C 06
 (008.049971)  can0  100   [6]  3A 00 A2 01 00 00
 (008.059859)  can0  100   [6]  3A 00 A2 01 00 00
 (008.060599)  can0  101   [4]  FA FF FB FF
 (008.062142)  can0  103   [2]  00 04
 (008.063683)  can0  104   [6]  00 00 00 00 00 00
 (008.064840)  can0  1FF   [1]  54
 (008.069739)  can0  100   [6]  3A 00 A1 01 00 00
 (008.079623)  can0  100   [6]  39 00 A1 01 00 00
 (008.089652)  can0  100   [6]  39 00 A2 01 00 00
 (008.099409)  can0  100   [6]  38 00 A2 01 00 00
 (008.109296)  can0  100   [6]  38 00 A2 01 00 00
 (008.837912)  can0  101   [4]  FF FF 00 00
 (008.841374)  can0  100   [6]  3B 00 A4 01 00 00
 (008.851027)  can0  100   [6]  3A 00 A3 01 00 00
 (008.851707)  can0  101   [4]  08 00 00 00
 (008.853123)  can0  103   [2]  00 04
 (008.853987)  can0  104   [6]  00 00 00 00 00 00
 (008.854420)  can0  1FF   [1]  64
 (008.861540)  can0  100   [6]  3A 00 A3 01 00 00
 (008.862316)  can0  102   [6]  60 06 0D 06 2C 06
 (008.871267)  can0  100   [6]  3A 00 A4 01 00 00
 (008.872072)  can0  102   [6]  60 06 0D 06 2C 06
 (008.880592)  can0  100   [6]  3A 00 A4 01 00 00
 (008.890472)  can0  100   [6]  3B 00 A4 01 00 00
 (008.900358)  can0  100   [6]  3B 00 A4 01 00 00
 (008.901050)  can0  101   [4]  02 00 00 00
 (008.901862)  can0  102   [6]  60 06 0D 06 2C 06
 (008.902403)  can0  103   [2]  00 04
 (008.903251)  can0  104   [6]  00 00 00 00 00 00
 (008.903698)  can0  1FF   [1]  65
 (008.910281)  can0  100   [6]  3C 00 A3 01 00 00
 (008.920158)  can0  100   [6]  3C 00 A3 01 00 00
 (008.930087)  can0  100   [6]  3B 00 A3 01 00 00
 (008.930858)  can0  102   [6]  60 06 0D 06 2C 06
 (008.939927)  can0  100   [6]  3A 00 A3 01 00 00
 (008.949814)  can0  100   [6]  3B 00 A2 01 00 00
 (008.951962)  can0  103   [2]  00 04
 (008.952809)  can0  104   [6]  00 00 00 00 00 00
 (008.953265)  can0  1FF   [1]  66
 (008.959708)  can0  100   [6]  3B 00 A2 01 00 00
 (008.969598)  can0  100   [6]  3B 00 A2 01 00 00
 (008.979491)  can0  100   [6]  3B 00 A2 01 00 00
 (008.980293)  can0  102   [6]  60 06 0D 06 2C 06
 (008.989378)  can0  100   [6]  3B 00 A2 01 00 00
 (008.990178)  can0  102   [6]  60 06 0D 06 2C 06
 (008.999270)  can0  100   [6]  3B 00 A2 01 00 00
 (008.999936)  can0  101   [4]  00 00 FA FF
 (009.000746)  can0  102   [6]  60 06 0D 06 2C 06
 (009.001291)  can0  103   [2]  00 04
 (009.002146)  can0  104   [6]  00 00 00 00 00 00
 (009.002593)  can0  1FF   [1]  67
 (009.009170)  can0  100   [6]  3C 00 A2 01 00 00
 (009.019061)  can0  100   [6]  3B 00 A2 01 00 00
 (009.028961)  can0  100   [6]  3A 00 A2 01 00 00
 (009.038840)  can0  100   [6]  39 00 A2 01 00 00
 (009.039650)  can0  102   [6]  60 06 0D 06 2C 06
 (009.048730)  can0  100   [6]  39 00 A3 01 00 00
 (009.049405)  can0  101   [4]  00 00 00 00
 (009.050214)  can0  102   [6]  60 06 0D 06 2C 06
 (009.050754)  can0  103   [2]  00 04
 (009.051604)  can0  104   [6]  00 00 00 00 00 00
 (009.052061)  can0  1FF   [1]  68
 (009.058639)  can0  100   [6]  38 00 A3 01 00 00
 (009.068514)  can0  100   [6]  39 00 A3 01 00 00
 (009.069311)  can0  102   [6]  60 06 0D 06 2C 06
 (009.078398)  can0  100   [6]  39 00 A3 01 00 00
 (009.098183)  can0  100   [6]  39 00 A3 01 00 00
 (009.100507)  can0  103   [2]  00 04
 (009.101866)  can0  1FF   [1]  69
 (009.108077)  can0  100   [6]  39 00 A3 01 00 00
 (009.117997)  can0  100   [6]  38 00 A3 01 00 00
 (009.127895)  can0  100   [6]  37 00 A3 01 00 00
 (009.137750)  can0  100   [6]  37 00 A4 01 00 00
 (009.147629)  can0  100   [6]  37 00 A4 01 00 00
 (009.149852)  can0  103   [2]  00 04
 (009.151103)  can0  1FF   [1]  6A
 (009.157519)  can0  100   [6]  38 00 A5 01 00 00
 (009.167408)  can0  100   [6]  38 00 A5 01 00 00
 (009.177289)  can0  100   [6]  39 00 A5 01 00 00
 (009.187189)  can0  100   [6]  39 00 A5 01 00 00
 (009.197065)  can0  100   [6]  3A 00 A4 01 00 00
 (009.197805)  can0  101   [4]  02 00 FE FF
 (009.199338)  can0  103   [2]  00 04
 (009.200252)  can0  104   [6]  00 00 00 00 00 00
 (009.200763)  can0  1FF   [1]  6B
 (009.206942)  can0  100   [6]  3A 00 A3 01 00 00
 (009.216830)  can0  100   [6]  3B 00 A3 01 00 00
 (009.827189)  can0  101   [4]  FC FF 03 00
 (009.827996)  can0  102   [6]  60 06 0D 06 2C 06
 (009.828539)  can0  103   [2]  00 02
 (009.830044)  can0  100   [6]  35 00 A2 01 00 00
 (009.839943)  can0  100   [6]  35 00 A2 01 00 00
 (009.842092)  can0  103   [2]  00 06
 (009.842929)  can0  104   [6]  00 00 00 00 00 00
 (009.843381)  can0  1FF   [1]  78
 (009.850474)  can0  100   [6]  35 00 A2 01 00 00
 (009.860058)  can0  100   [6]  35 00 A2 01 00 00
 (009.869599)  can0  100   [6]  36 00 A2 01 00 00
 (009.870594)  can0  102   [6]  60 06 0D 06 2C 06
 (009.879489)  can0  100   [6]  36 00 A3 01 00 00
 (009.880290)  can0  102   [6]  60 06 0D 06 2C 06
 (009.889382)  can0  100   [6]  36 00 A3 01 00 00
 (009.890051)  can0  101   [4]  F7 FF FF FF
 (009.891466)  can0  103   [2]  00 04
 (009.892324)  can0  104   [6]  00 00 00 00 00 00
 (009.892767)  can0  1FF   [1]  79
 (009.899283)  can0  100   [6]  36 00 A3 01 00 00
 (009.900090)  can0  102   [6]  60 06 0D 06 2C 06
 (009.909175)  can0  100   [6]  36 00 A2 01 00 00
 (009.909976)  can0  102   [6]  60 06 0D 06 2C 06
 (009.919057)  can0  100   [6]  35 00 A3 01 00 00
 (009.928954)  can0  100   [6]  36 00 A3 01 00 00
 (009.938845)  can0  100   [6]  36 00 A3 01 00 00
 (009.939546)  can0  101   [4]  08 00 FF FF
 (009.940945)  can0  103   [2]  00 04
 (009.941792)  can0  104   [6]  00 00 00 00 00 00
 (009.942244)  can0  1FF   [1]  7A
 (009.948733)  can0  100   [6]  36 00 A3 01 00 00
 (009.949536)  can0  102   [6]  60 06 0D 06 2C 06
 (009.958620)  can0  100   [6]  35 00 A4 01 00 00
 (009.968528)  can0  100   [6]  37 00 A3 01 00 00
 (009.969320)  can0  102   [6]  60 06 0D 06 2C 06
 (009.978405)  can0  100   [6]  36 00 A3 01 00 00
 (009.979209)  can0  102   [6]  60 06 0D 06 2C 06
 (009.988325)  can0  100   [6]  36 00 A3 01 00 00
 (009.988959)  can0  101   [4]  F2 FF 04 00
 (009.990372)  can0  103   [2]  00 04
 (009.991219)  can0  104   [6]  00 00 00 00 00 00
 (009.991677)  can0  1FF   [1]  7B
 (009.998210)  can0  100   [6]  37 00 A3 01 00 00
 (010.008088)  can0  100   [6]  37 00 A3 01 00 00
 (010.017975)  can0  100   [6]  37 00 A3 01 00 00
 (010.027864)  can0  100   [6]  37 00 A3 01 00 00
 (010.028672)  can0  102   [6]  60 06 0D 06 2C 06
 (010.037749)  can0  100   [6]  37 00 A4 01 00 00
 (010.038419)  can0  101   [4]  FE FF 03 00
 (010.039226)  can0  102   [6]  60 06 0D 06 2C 06
 (010.039771)  can0  103   [2]  00 04
 (010.040618)  can0  104   [6]  00 00 00 00 00 00
 (010.041084)  can0  1FF   [1]  7C
 (010.047633)  can0  100   [6]  36 00 A4 01 00 00
 (010.048436)  can0  102   [6]  60 06 0D 06 2C 06
 (010.057555)  can0  100   [6]  37 00 A5 01 00 00
 (010.067417)  can0  100   [6]  37 00 A5 01 00 00
 (010.077309)  can0  100   [6]  37 00 A5 01 00 00
 (010.087206)  can0  100   [6]  36 00 A5 01 00 00
 (010.087876)  can0  101   [4]  FB FF 05 00
 (010.089295)  can0  103   [2]  00 04
 (010.090506)  can0  1FF   [1]  7D
 (010.097096)  can0  100   [6]  36 00 A6 01 00 00
 (010.106988)  can0  100   [6]  36 00 A6 01 00 00
 (010.116862)  can0  100   [6]  36 00 A6 01 00 00
 (010.126756)  can0  100   [6]  36 00 A6 01 00 00
 (010.136645)  can0  100   [6]  36 00 A6 01 00 00
 (010.140301)  can0  1FF   [1]  7E
 (010.146537)  can0  100   [6]  37 00 A6 01 00 00
 (010.156425)  can0  100   [6]  37 00 A6 01 00 00
 (010.166302)  can0  100   [6]  37 00 A6 01 00 00
 (010.176189)  can0  100   [6]  37 00 A6 01 00 00
 (010.186089)  can0  100   [6]  38 00 A5 01 00 00
 (010.186825)  can0  101   [4]  00 00 09 00
 (010.188368)  can0  103   [2]  00 04
 (010.189734)  can0  1FF   [1]  7F
 (010.195972)  can0  100   [6]  38 00 A5 01 00 00
 (010.205855)  can0  100   [6]  38 00 A6 01 00 00
 (010.215750)  can0  100   [6]  38 00 A6 01 00 00
 (010.225617)  can0  100   [6]  39 00 A6 01 00 00
 (010.812893)  can0  102   [6]  60 06 0D 06 2C 06
 (010.813696)  can0  100   [6]  39 00 A6 01 00 00
 (010.814514)  can0  102   [6]  60 06 0D 06 2C 06
 (010.815310)  can0  100   [6]  39 00 A6 01 00 00
 (010.815990)  can0  101   [4]  03 00 04 00
 (010.816817)  can0  102   [6]  60 06 0D 06 2C 06
 (010.817366)  can0  103   [2]  00 02
 (010.819763)  can0  100   [6]  3A 00 A5 01 00 00
 (010.820573)  can0  102   [6]  60 06 0D 06 2C 06
 (010.829445)  can0  100   [6]  39 00 A5 01 00 00
 (010.830126)  can0  101   [4]  00 00 04 00
 (010.830933)  can0  102   [6]  60 06 0D 06 2C 06
 (010.831478)  can0  103   [2]  00 04
 (010.832333)  can0  104   [6]  00 00 00 00 00 00
 (010.832777)  can0  1FF   [1]  8C
 (010.838958)  can0  100   [6]  39 00 A4 01 00 00
 (010.839764)  can0  102   [6]  60 06 0D 06 2C 06
 (010.849102)  can0  100   [6]  3A 00 A4 01 00 00
 (010.849916)  can0  102   [6]  60 06 0D 06 2C 06
 (010.858670)  can0  100   [6]  3A 00 A4 01 00 00
 (010.859475)  can0  102   [6]  60 06 0D 06 2C 06
 (010.869431)  can0  102   [6]  60 06 0D 06 2C 06
 (010.878469)  can0  100   [6]  3A 00 A4 01 00 00
 (010.879119)  can0  101   [4]  00 00 FC FF
 (010.879928)  can0  102   [6]  60 06 0D 06 2C 06
 (010.880471)  can0  103   [2]  00 04
 (010.881320)  can0  104   [6]  00 00 00 00 00 00
 (010.881770)  can0  1FF   [1]  8D
 (010.908127)  can0  100   [6]  39 00 A5 01 00 00
 (010.908929)  can0  102   [6]  60 06 0D 06 2C 06
 (010.918013)  can0  100   [6]  3A 00 A5 01 00 00
 (010.918811)  can0  102   [6]  60 06 0D 06 2C 06
 (010.927939)  can0  100   [6]  39 00 A5 01 00 00
 (010.928574)  can0  101   [4]  02 00 06 00
 (010.929991)  can0  103   [2]  00 04
 (010.930838)  can0  104   [6]  00 00 00 00 00 00
 (010.931299)  can0  1FF   [1]  8E
 (010.937804)  can0  100   [6]  3A 00 A4 01 00 00
 (010.938604)  can0  102   [6]  60 06 0D 06 2C 06
 (010.947693)  can0  100   [6]  3A 00 A4 01 00 00
 (010.957595)  can0  100   [6]  3A 00 A4 01 00 00
 (010.958392)  can0  102   [6]  60 06 0D 06 2C 06
 (010.967490)  can0  100   [6]  39 00 A4 01 00 00
 (010.968299)  can0  102   [6]  60 06 0D 06 2C 06
 (010.977383)  can0  100   [6]  39 00 A4 01 00 00
 (010.978050)  can0  101   [4]  05 00 05 00
 (010.978878)  can0  102   [6]  60 06 0D 06 2C 06
 (010.979403)  can0  103   [2]  00 04
 (010.980254)  can0  104   [6]  00 00 00 00 00 00
 (010.980711)  can0  1FF   [1]  8F
 (010.987270)  can0  100   [6]  38 00 A4 01 00 00
 (010.997165)  can0  100   [6]  39 00 A4 01 00 00
 (010.997971)  can0  102   [6]  60 06 0D 06 2C 06
 (011.016946)  can0  100   [6]  38 00 A4 01 00 00
 (011.026834)  can0  100   [6]  38 00 A4 01 00 00
 (011.027502)  can0  101   [4]  02 00 FD FF
 (011.028916)  can0  103   [2]  00 04
 (011.029761)  can0  104   [6]  00 00 00 00 00 00
 (011.030240)  can0  1FF   [1]  90
 (011.036712)  can0  100   [6]  37 00 A4 01 00 00
 (011.046607)  can0  100   [6]  37 00 A4 01 00 00
 (011.056498)  can0  100   [6]  37 00 A4 01 00 00
 (011.066382)  can0  100   [6]  38 00 A4 01 00 00
 (011.076285)  can0  100   [6]  38 00 A3 01 00 00
 (011.076951)  can0  101   [4]  FD FF 00 00
 (011.078368)  can0  103   [2]  00 04
 (011.079217)  can0  104   [6]  00 00 00 00 00 00
 (011.079664)  can0  1FF   [1]  91
 (011.086191)  can0  100   [6]  38 00 A3 01 00 00
 (011.096037)  can0  100   [6]  39 00 A2 01 00 00
 (011.105932)  can0  100   [6]  38 00 A2 01 00 00
 (011.115834)  can0  100   [6]  38 00 A3 01 00 00
 (011.125707)  can0  100   [6]  38 00 A3 01 00 00
 (011.126376)  can0  101   [4]  FB FF 03 00
 (011.127806)  can0  103   [2]  00 04
 (011.129047)  can0  1FF   [1]  92
 (011.135591)  can0  100   [6]  38 00 A4 01 00 00
 (011.145479)  can0  100   [6]  38 00 A5 01 00 00
 (011.155356)  can0  100   [6]  37 00 A5 01 00 00
 (011.165676)  can0  100   [6]  37 00 A5 01 00 00
 (011.175134)  can0  100   [6]  37 00 A5 01 00 00
 (011.175871)  can0  101   [4]  FF FF 00 00
 (011.177416)  can0  103   [2]  00 04
 (011.178770)  can0  1FF   [1]  93
 (011.185226)  can0  100   [6]  38 00 A4 01 00 00
 (011.225223)  can0  100   [6]  39 00 A5 01 00 00
 (011.225987)  can0  101   [4]  FE FF FD FF
 (011.227505)  can0  103   [2]  00 04
 (011.228417)  can0  104   [6]  00 00 00 00 00 00
 (011.228939)  can0  1FF   [1]  94
 (011.234549)  can0  100   [6]  39 00 A5 01 00 00
 (011.244384)  can0  100   [6]  39 00 A5 01 00 00
 (011.254629)  can0  100   [6]  39 00 A5 01 00 00
 (011.264372)  can0  100   [6]  3A 00 A4 01 00 00
 (011.274532)  can0  100   [6]  3A 00 A4 01 00 00
 (011.275275)  can0  101   [4]  FF FF 04 00
 (011.801494)  can0  102   [6]  60 06 0D 06 2C 06
 (011.802302)  can0  100   [6]  38 00 A5 01 00 00
 (011.803105)  can0  102   [6]  60 06 0D 06 2C 06
 (011.803933)  can0  100   [6]  39 00 A4 01 00 00
 (011.804620)  can0  101   [4]  00 00 02 00
 (011.805429)  can0  102   [6]  60 06 0D 06 2C 06
 (011.805966)  can0  103   [2]  00 02
 (011.808242)  can0  100   [6]  38 00 A4 01 00 00
 (011.809046)  can0  102   [6]  60 06 0D 06 2C 06
 (011.818084)  can0  100   [6]  38 00 A4 01 00 00
 (011.818750)  can0  101   [4]  F7 FF 03 00
 (011.820168)  can0  103   [2]  00 04
 (011.821427)  can0  1FF   [1]  A0
 (011.828299)  can0  100   [6]  38 00 A4 01 00 00
 (011.837876)  can0  100   [6]  38 00 A4 01 00 00
 (011.847666)  can0  100   [6]  38 00 A4 01 00 00
 (011.857547)  can0  100   [6]  37 00 A5 01 00 00
 (011.867437)  can0  100   [6]  38 00 A4 01 00 00
 (011.868099)  can0  101   [4]  07 00 F7 FF
 (011.869517)  can0  103   [2]  00 04
 (011.870367)  can0  104   [6]  00 00 00 00 00 00
 (011.870814)  can0  1FF   [1]  A1
 (011.877354)  can0  100   [6]  38 00 A4 01 00 00
 (011.878132)  can0  102   [6]  60 06 0D 06 2C 06
 (011.887211)  can0  100   [6]  39 00 A3 01 00 00
 (011.888018)  can0  102   [6]  60 06 0D 06 2C 06
 (011.897114)  can0  100   [6]  39 00 A3 01 00 00
 (011.907007)  can0  100   [6]  39 00 A3 01 00 00
 (011.907809)  can0  102   [6]  60 06 0D 06 2C 06
 (011.916917)  can0  100   [6]  38 00 A3 01 00 00
 (011.917582)  can0  101   [4]  F8 FF 01 00
 (011.918392)  can0  102   [6]  60 06 0D 06 2C 06
 (011.918937)  can0  103   [2]  00 04
 (011.919784)  can0  104   [6]  00 00 00 00 00 00
 (011.920235)  can0  1FF   [1]  A2
 (011.926789)  can0  100   [6]  39 00 A2 01 00 00
 (011.936693)  can0  100   [6]  38 00 A2 01 00 00
 (011.937499)  can0  102   [6]  60 06 0D 06 2C 06
 (011.946582)  can0  100   [6]  38 00 A1 01 00 00
 (011.947387)  can0  102   [6]  60 06 0D 06 2C 06
 (011.956480)  can0  100   [6]  38 00 A1 01 00 00
 (011.957303)  can0  102   [6]  60 06 0D 06 2C 06
 (011.966369)  can0  100   [6]  38 00 A2 01 00 00
 (011.967041)  can0  101   [4]  FF FF F8 FF
 (011.967848)  can0  102   [6]  60 06 0D 06 2C 06
 (011.968393)  can0  103   [2]  00 04
 (011.969240)  can0  104   [6]  00 00 00 00 00 00
 (011.969692)  can0  1FF   [1]  A3
 (011.976263)  can0  100   [6]  39 00 A2 01 00 00
 (011.977071)  can0  102   [6]  60 06 0D 06 2C 06
 (011.986161)  can0  100   [6]  39 00 A1 01 00 00
 (011.996046)  can0  100   [6]  3A 00 A1 01 00 00
 (012.005940)  can0  100   [6]  3A 00 A1 01 00 00
 (012.015824)  can0  100   [6]  3A 00 A1 01 00 00
 (012.016498)  can0  101   [4]  0B 00 FD FF
 (012.017918)  can0  103   [2]  00 04
 (012.018767)  can0  104   [6]  00 00 00 00 00 00
 (012.019234)  can0  1FF   [1]  A4
 (012.025734)  can0  100   [6]  3A 00 A2 01 00 00
 (012.026540)  can0  102   [6]  60 06 0D 06 2C 06
 (012.035622)  can0  100   [6]  3A 00 A3 01 00 00
 (012.036438)  can0  102   [6]  60 06 0D 06 2C 06
 (012.045507)  can0  100   [6]  3A 00 A3 01 00 00
 (012.046311)  can0  102   [6]  60 06 0D 06 2C 06
 (012.055404)  can0  100   [6]  3A 00 A3 01 00 00
 (012.056210)  can0  102   [6]  60 06 0D 06 2C 06
 (012.066405)  can0  101   [4]  01 00 F7 FF
 (012.067816)  can0  103   [2]  00 04
 (012.068663)  can0  104   [6]  00 00 00 00 00 00
 (012.069112)  can0  1FF   [1]  A5
 (012.075205)  can0  100   [6]  39 00 A4 01 00 00
 (012.076017)  can0  102   [6]  60 06 0D 06 2C 06
 (012.085222)  can0  100   [6]  38 00 A4 01 00 00
 (012.086026)  can0  102   [6]  60 06 0D 06 2C 06
 (012.094980)  can0  100   [6]  39 00 A3 01 00 00
 (012.095788)  can0  102   [6]  60 06 0D 06 2C 06
 (012.105206)  can0  100   [6]  39 00 A3 01 00 00
 (012.106013)  can0  102   [6]  60 06 0D 06 2C 06
 (012.114992)  can0  100   [6]  3A 00 A4 01 00 00
 (012.115666)  can0  101   [4]  04 00 01 00
 (012.116472)  can0  102   [6]  60 06 0D 06 2C 06
 (012.117025)  can0  103   [2]  00 04
 (012.117887)  can0  104   [6]  00 00 00 00 00 00
 (012.118322)  can0  1FF   [1]  A6
 (012.125234)  can0  100   [6]  3A 00 A4 01 00 00
 (012.126036)  can0  102   [6]  60 06 0D 06 2C 06
 (012.134562)  can0  100   [6]  3A 00 A4 01 00 00
 (012.135371)  can0  102   [6]  60 06 0D 06 2C 06
 (012.145222)  can0  100   [6]  3A 00 A4 01 00 00
 (012.154536)  can0  100   [6]  39 00 A4 01 00 00
 (012.155341)  can0  102   [6]  60 06 0D 06 2C 06
 (012.164512)  can0  100   [6]  38 00 A4 01 00 00
 (012.165172)  can0  101   [4]  F6 FF 00 00
 (012.166616)  can0  103   [2]  00 04
 (012.167448)  can0  104   [6]  00 00 00 00 00 00
 (012.167897)  can0  1FF   [1]  A7
 (012.174518)  can0  100   [6]  38 00 A4 01 00 00
 (012.175324)  can0  102   [6]  60 06 0D 06 2C 06
 (012.184412)  can0  100   [6]  38 00 A4 01 00 00
 (012.185194)  can0  102   [6]  60 06 0D 06 2C 06
 (012.194535)  can0  100   [6]  38 00 A4 01 00 00
 (012.195339)  can0  102   [6]  60 06 0D 06 2C 06
 (012.204359)  can0  100   [6]  38 00 A5 01 00 00
 (012.214141)  can0  100   [6]  38 00 A5 01 00 00
 (012.214823)  can0  101   [4]  0F 00 00 00
 (012.216239)  can0  103   [2]  00 04
 (012.217085)  can0  104   [6]  00 00 00 00 00 00
 (012.217535)  can0  1FF   [1]  A8
 (012.223658)  can0  100   [6]  39 00 A6 01 00 00
 (012.233680)  can0  100   [6]  39 00 A6 01 00 00
 (012.243668)  can0  100   [6]  39 00 A6 01 00 00
 (012.253680)  can0  100   [6]  39 00 A6 01 00 00
 (012.263685)  can0  100   [6]  39 00 A5 01 00 00
 (012.264343)  can0  101   [4]  06 00 01 00
 (012.265150)  can0  102   [6]  60 06 0D 06 2C 06
 (012.265698)  can0  103   [2]  00 04
 (012.266542)  can0  104   [6]  00 00 00 00 00 00
 (012.266995)  can0  1FF   [1]  A9
 (012.273676)  can0  100   [6]  39 00 A5 01 00 00
 (012.282932)  can0  100   [6]  38 00 A5 01 00 00
 (012.283733)  can0  102   [6]  60 06 0D 06 2C 06
 (012.292821)  can0  100   [6]  38 00 A6 01 00 00
 (012.302711)  can0  100   [6]  38 00 A6 01 00 00
 (012.312602)  can0  100   [6]  39 00 A6 01 00 00
 (012.313264)  can0  101   [4]  01 00 FF FF
 (012.314685)  can0  103   [2]  00 04
 (012.315528)  can0  104   [6]  00 00 00 00 00 00
 (012.315980)  can0  1FF   [1]  AA
 (012.322504)  can0  100   [6]  38 00 A5 01 00 00
 (012.332389)  can0  100   [6]  37 00 A5 01 00 00
 (012.342278)  can0  100   [6]  37 00 A6 01 00 00
 (012.352158)  can0  100   [6]  36 00 A6 01 00 00
 (012.362051)  can0  100   [6]  36 00 A6 01 00 00
 (012.362692)  can0  101   [4]  F5 FF 0F 00
 (012.363502)  can0  102   [6]  60 06 0D 06 2C 06
 (012.364045)  can0  103   [2]  00 04
 (012.364894)  can0  104   [6]  00 00 00 00 00 00
 (012.365363)  can0  1FF   [1]  AB
 (012.371942)  can0  100   [6]  36 00 A7 01 00 00
 (012.381833)  can0  100   [6]  35 00 A7 01 00 00
 (012.391736)  can0  100   [6]  35 00 A6 01 00 00
 (012.401610)  can0  100   [6]  36 00 A6 01 00 00
 (012.411502)  can0  100   [6]  36 00 A6 01 00 00
 (012.412229)  can0  101   [4]  00 00 05 00
 (012.414803)  can0  103   [2]  00 04
 (012.416512)  can0  104   [6]  00 00 00 00 00 00
 (012.417429)  can0  1FF   [1]  AC
 (012.421382)  can0  100   [6]  36 00 A6 01 00 00
 (012.431276)  can0  100   [6]  36 00 A6 01 00 00
 (012.441155)  can0  100   [6]  36 00 A6 01 00 00
 (012.451062)  can0  100   [6]  36 00 A5 01 00 00
 (012.460945)  can0  100   [6]  36 00 A5 01 00 00
 (012.461659)  can0  101   [4]  FA FF 0D 00
 (012.463836)  can0  103   [2]  00 04
 (012.465375)  can0  104   [6]  00 00 00 00 00 00
 (012.466294)  can0  1FF   [1]  AD
 (012.470846)  can0  100   [6]  36 00 A5 01 00 00
 (012.480730)  can0  100   [6]  36 00 A5 01 00 00
 (012.490611)  can0  100   [6]  36 00 A5 01 00 00
 (012.500495)  can0  100   [6]  38 00 A5 01 00 00
 (012.510367)  can0  100   [6]  37 00 A5 01 00 00
 (012.511078)  can0  101   [4]  F4 FF 06 00
 (012.512631)  can0  103   [2]  00 04
 (012.514175)  can0  104   [6]  00 00 00 00 00 00
 (012.515084)  can0  1FF   [1]  AE
 (012.520273)  can0  100   [6]  38 00 A5 01 00 00
 (012.530156)  can0  100   [6]  38 00 A6 01 00 00
 (012.540048)  can0  100   [6]  38 00 A6 01 00 00
 (012.549929)  can0  100   [6]  37 00 A6 01 00 00
 (012.559816)  can0  100   [6]  37 00 A6 01 00 00
 (012.560534)  can0  101   [4]  F6 FF 00 00
 (012.561408)  can0  102   [6]  60 06 0D 06 2C 06
 (012.562015)  can0  103   [2]  00 04
 (012.564689)  can0  1FF   [1]  AF
 (012.569709)  can0  100   [6]  38 00 A6 01 00 00
 (012.794205)  can0  101   [4]  FF FF 05 00
 (012.799579)  can0  100   [6]  39 00 A5 01 00 00
 (012.807034)  can0  100   [6]  39 00 A6 01 00 00
 (012.807696)  can0  101   [4]  FE FF FC FF
 (012.809980)  can0  104   [6]  00 00 00 00 00 00
 (012.810422)  can0  1FF   [1]  B4
 (012.817506)  can0  100   [6]  39 00 A6 01 00 00
 (012.827106)  can0  100   [6]  39 00 A6 01 00 00
 (012.836696)  can0  100   [6]  39 00 A7 01 00 00
 (012.846577)  can0  100   [6]  39 00 A6 01 00 00
 (012.856467)  can0  100   [6]  39 00 A6 01 00 00
 (012.858632)  can0  103   [2]  00 04
 (012.859909)  can0  1FF   [1]  B5
 (012.866369)  can0  100   [6]  3A 00 A6 01 00 00
 (012.876253)  can0  100   [6]  3A 00 A7 01 00 00
 (012.886144)  can0  100   [6]  3A 00 A7 01 00 00
 (012.887009)  can0  102   [6]  60 06 0D 06 2C 06
 (012.896032)  can0  100   [6]  3A 00 A7 01 00 00
 (012.905926)  can0  100   [6]  3A 00 A7 01 00 00
 (012.906661)  can0  101   [4]  04 00 06 00
 (012.907535)  can0  102   [6]  60 06 0D 06 2C 06
 (012.908140)  can0  103   [2]  00 04
 (012.909068)  can0  104   [6]  00 00 00 00 00 00
 (012.909567)  can0  1FF   [1]  B6
 (012.915812)  can0  100   [6]  3A 00 A7 01 00 00
 (012.916682)  can0  102   [6]  60 06 0D 06 2C 06
 (012.925728)  can0  100   [6]  3A 00 A6 01 00 00
 (012.935592)  can0  100   [6]  3B 00 A7 01 00 00
 (012.936464)  can0  102   [6]  60 06 0D 06 2C 06
 (012.945486)  can0  100   [6]  3B 00 A7 01 00 00
 (012.946374)  can0  102   [6]  60 06 0D 06 2C 06
 (012.955391)  can0  100   [6]  3C 00 A7 01 00 00
 (012.956131)  can0  101   [4]  00 00 01 00
 (012.957676)  can0  103   [2]  00 04
 (012.958600)  can0  104   [6]  00 00 00 00 00 00
 (012.959107)  can0  1FF   [1]  B7
 (012.965673)  can0  100   [6]  3B 00 A8 01 00 00
 (012.966944)  can0  102   [6]  60 06 0D 06 2C 06
 (012.975169)  can0  100   [6]  3C 00 A7 01 00 00
 (012.976042)  can0  102   [6]  60 06 0D 06 2C 06
 (012.985236)  can0  100   [6]  3C 00 A8 01 00 00
 (012.986103)  can0  102   [6]  60 06 0D 06 2C 06
 (012.994966)  can0  100   [6]  3C 00 A7 01 00 00
 (012.995830)  can0  102   [6]  60 06 0D 06 2C 06
 (013.005212)  can0  100   [6]  3C 00 A7 01 00 00
 (013.005953)  can0  101   [4]  00 00 07 00
 (013.007493)  can0  103   [2]  00 04
 (013.008402)  can0  104   [6]  00 00 00 00 00 00
 (013.008915)  can0  1FF   [1]  B8
 (013.014976)  can0  100   [6]  3B 00 A7 01 00 00
 (013.016246)  can0  102   [6]  60 06 0D 06 2C 06
 (013.025220)  can0  100   [6]  3B 00 A8 01 00 00
 (013.026087)  can0  102   [6]  60 06 0D 06 2C 06
 (013.034549)  can0  100   [6]  3B 00 A8 01 00 00
 (013.035412)  can0  102   [6]  60 06 0D 06 2C 06
 (013.045223)  can0  100   [6]  3B 00 A9 01 00 00
 (013.046089)  can0  102   [6]  60 06 0D 06 2C 06
 (013.054519)  can0  100   [6]  3B 00 A9 01 00 00
 (013.055181)  can0  101   [4]  FF FF 0D 00
 (013.055989)  can0  102   [6]  60 06 0D 06 2C 06
 (013.056550)  can0  103   [2]  00 04
 (013.057381)  can0  104   [6]  00 00 00 00 00 00
 (013.057833)  can0  1FF   [1]  B9
 (013.064357)  can0  100   [6]  3B 00 A9 01 00 00
 (013.065162)  can0  102   [6]  60 06 0D 06 2C 06
 (013.074514)  can0  100   [6]  3A 00 A9 01 00 00
 (013.075315)  can0  102   [6]  60 06 0D 06 2C 06
 (013.084348)  can0  100   [6]  3A 00 A9 01 00 00
 (013.094528)  can0  100   [6]  3A 00 A9 01 00 00
 (013.104363)  can0  100   [6]  3A 00 A9 01 00 00
 (013.105899)  can0  101   [4]  0E 00 02 00
 (013.107444)  can0  103   [2]  00 04
 (013.108350)  can0  104   [6]  00 00 00 00 00 00
 (013.108863)  can0  1FF   [1]  BA
 (013.114116)  can0  100   [6]  3A 00 AA 01 00 00
 (013.123843)  can0  100   [6]  3A 00 AA 01 00 00
 (013.133655)  can0  100   [6]  3A 00 AA 01 00 00
 (013.135321)  can0  102   [6]  60 06 0D 06 2C 06
 (013.143683)  can0  100   [6]  3A 00 A9 01 00 00
 (013.145166)  can0  102   [6]  60 06 0D 06 2C 06
 (013.153654)  can0  100   [6]  3A 00 A8 01 00 00
 (013.155207)  can0  101   [4]  FE FF 04 00
 (013.156737)  can0  103   [2]  00 04
 (013.157646)  can0  104   [6]  00 00 00 00 00 00
 (013.158163)  can0  1FF   [1]  BB
 (013.163677)  can0  100   [6]  3A 00 A8 01 00 00
 (013.173660)  can0  100   [6]  3B 00 A8 01 00 00
 (013.182926)  can0  100   [6]  3A 00 A8 01 00 00
 (013.192816)  can0  100   [6]  3A 00 A7 01 00 00
 (013.202712)  can0  100   [6]  3A 00 A7 01 00 00
 (013.207116)  can0  103   [2]  00 04
 (013.208027)  can0  104   [6]  00 00 00 00 00 00
 (013.208540)  can0  1FF   [1]  BC
 (013.212609)  can0  100   [6]  3B 00 A6 01 00 00
 (013.222518)  can0  100   [6]  3A 00 A6 01 00 00
 (013.232375)  can0  100   [6]  3B 00 A7 01 00 00
 (013.233872)  can0  102   [6]  60 06 0D 06 2C 06
 (013.242284)  can0  100   [6]  3A 00 A7 01 00 00
 (013.252172)  can0  100   [6]  3A 00 A7 01 00 00
 (013.253521)  can0  101   [4]  05 00 F6 FF
 (013.255858)  can0  103   [2]  00 04
 (013.256769)  can0  104   [6]  00 00 00 00 00 00
 (013.257281)  can0  1FF   [1]  BD
 (013.262082)  can0  100   [6]  39 00 A7 01 00 00
 (013.262927)  can0  102   [6]  60 06 0D 06 2C 06
 (013.271962)  can0  100   [6]  3A 00 A7 01 00 00
 (013.281857)  can0  100   [6]  3A 00 A7 01 00 00
 (013.282722)  can0  102   [6]  60 06 0D 06 2C 06
 (013.291747)  can0  100   [6]  3A 00 A7 01 00 00
 (013.292613)  can0  102   [6]  60 06 0D 06 2C 06
 (013.301662)  can0  100   [6]  39 00 A8 01 00 00
 (013.302355)  can0  101   [4]  F5 FF 05 00
 (013.303861)  can0  102   [6]  60 06 0D 06 2C 06
 (013.305122)  can0  103   [2]  00 04
 (013.306805)  can0  104   [6]  00 00 00 00 00 00
 (013.307329)  can0  1FF   [1]  BE
 (013.311521)  can0  100   [6]  39 00 A8 01 00 00
 (013.321416)  can0  100   [6]  39 00 A6 01 00 00
 (013.331314)  can0  100   [6]  38 00 A7 01 00 00
 (013.332180)  can0  102   [6]  60 06 0D 06 2C 06
 (013.341219)  can0  100   [6]  38 00 A7 01 00 00
 (013.351096)  can0  100   [6]  38 00 A7 01 00 00
 (013.351831)  can0  101   [4]  FD FF 05 00
 (013.352700)  can0  102   [6]  60 06 0D 06 2C 06
 (013.353940)  can0  103   [2]  00 04
 (013.355646)  can0  104   [6]  00 00 00 00 00 00
 (013.356168)  can0  1FF   [1]  BF
 (013.361013)  can0  100   [6]  38 00 A6 01 00 00
 (013.370880)  can0  100   [6]  38 00 A6 01 00 00
 (013.380781)  can0  100   [6]  38 00 A5 01 00 00
 (013.390662)  can0  100   [6]  38 00 A5 01 00 00
 (013.391536)  can0  102   [6]  60 06 0D 06 2C 06
 (013.400557)  can0  100   [6]  38 00 A5 01 00 00
 (013.401290)  can0  101   [4]  09 00 F4 FF
 (013.403443)  can0  103   [2]  00 04
 (013.404990)  can0  104   [6]  00 00 00 00 00 00
 (013.406312)  can0  1FF   [1]  C0
 (013.410442)  can0  100   [6]  38 00 A5 01 00 00
 (013.420339)  can0  100   [6]  39 00 A5 01 00 00
 (013.430227)  can0  100   [6]  39 00 A5 01 00 00
 (013.431232)  can0  102   [6]  60 06 0D 06 2C 06
 (013.440155)  can0  100   [6]  38 00 A5 01 00 00
 (013.779685)  can0  102   [6]  60 06 0D 06 2C 06
 (013.780499)  can0  100   [6]  39 00 A8 01 00 00
 (013.781304)  can0  102   [6]  60 06 0D 06 2C 06
 (013.782121)  can0  100   [6]  39 00 A8 01 00 00
 (013.782789)  can0  101   [4]  00 00 06 00
 (013.783599)  can0  102   [6]  60 06 0D 06 2C 06
 (013.784128)  can0  103   [2]  00 06
 (013.786407)  can0  100   [6]  3A 00 A8 01 00 00
 (013.796343)  can0  100   [6]  39 00 A8 01 00 00
 (013.797015)  can0  101   [4]  05 00 05 00
 (013.797820)  can0  102   [6]  60 06 0D 06 2C 06
 (013.798364)  can0  103   [2]  00 04
 (013.799214)  can0  104   [6]  00 00 00 00 00 00
 (013.799671)  can0  1FF   [1]  C8
 (013.806538)  can0  100   [6]  39 00 A8 01 00 00
 (013.807347)  can0  102   [6]  60 06 0D 06 2C 06
 (013.815998)  can0  100   [6]  39 00 A9 01 00 00
 (013.825873)  can0  100   [6]  39 00 A9 01 00 00
 (013.826676)  can0  102   [6]  60 06 0D 06 2C 06
 (013.835767)  can0  100   [6]  39 00 A9 01 00 00
 (013.845662)  can0  100   [6]  38 00 A9 01 00 00
 (013.847802)  can0  103   [2]  00 04
 (013.849059)  can0  1FF   [1]  C9
 (013.855545)  can0  100   [6]  38 00 A9 01 00 00
 (013.865691)  can0  100   [6]  39 00 A9 01 00 00
 (013.875314)  can0  100   [6]  39 00 A9 01 00 00
 (013.885231)  can0  100   [6]  39 00 A9 01 00 00
 (013.895121)  can0  100   [6]  39 00 A8 01 00 00
 (013.895783)  can0  101   [4]  FF FF 02 00
 (013.897196)  can0  103   [2]  00 04
 (013.898416)  can0  1FF   [1]  CA
 (013.905226)  can0  100   [6]  3A 00 A7 01 00 00
 (013.914997)  can0  100   [6]  3A 00 A7 01 00 00
 (013.925218)  can0  100   [6]  3A 00 A6 01 00 00
 (013.934649)  can0  100   [6]  39 00 A6 01 00 00
 (013.945212)  can0  100   [6]  3B 00 A7 01 00 00
 (013.945898)  can0  101   [4]  0C 00 06 00
 (013.947314)  can0  103   [2]  00 04
 (013.948489)  can0  1FF   [1]  CB
 (013.954559)  can0  100   [6]  3B 00 A7 01 00 00
 (013.964365)  can0  100   [6]  3A 00 A7 01 00 00
 (013.965165)  can0  102   [6]  60 06 0D 06 2C 06
 (013.974524)  can0  100   [6]  3B 00 A7 01 00 00
 (013.975309)  can0  102   [6]  60 06 0D 06 2C 06
 (013.984371)  can0  100   [6]  3B 00 A7 01 00 00
 (013.994575)  can0  100   [6]  3A 00 A7 01 00 00
 (013.995214)  can0  101   [4]  00 00 0B 00
 (013.996022)  can0  102   [6]  60 06 0D 06 2C 06
 (013.996568)  can0  103   [2]  00 04
 (013.997421)  can0  104   [6]  00 00 00 00 00 00
 (013.997864)  can0  1FF   [1]  CC
 (014.004378)  can0  100   [6]  3A 00 A7 01 00 00
 (014.014122)  can0  100   [6]  3B 00 A7 01 00 00
 (014.023669)  can0  100   [6]  3B 00 A7 01 00 00
 (014.033671)  can0  100   [6]  3A 00 A7 01 00 00
 (014.035331)  can0  102   [6]  60 06 0D 06 2C 06
 (014.043668)  can0  100   [6]  3A 00 A6 01 00 00
 (014.045034)  can0  101   [4]  01 00 00 00
 (014.047370)  can0  103   [2]  00 04
 (014.048765)  can0  1FF   [1]  CD
 (014.053677)  can0  100   [6]  3A 00 A6 01 00 00
 (014.063658)  can0  100   [6]  3A 00 A5 01 00 00
 (014.073662)  can0  100   [6]  3A 00 A5 01 00 00
 (014.075318)  can0  102   [6]  60 06 0D 06 2C 06
 (014.083659)  can0  100   [6]  3B 00 A5 01 00 00
 (014.092893)  can0  100   [6]  3B 00 A5 01 00 00
 (014.094265)  can0  101   [4]  04 00 04 00
 (014.096614)  can0  103   [2]  00 04
 (014.097509)  can0  104   [6]  00 00 00 00 00 00
 (014.098021)  can0  1FF   [1]  CE
 (014.102783)  can0  100   [6]  3B 00 A4 01 00 00
 (014.112680)  can0  100   [6]  3B 00 A4 01 00 00
 (014.114179)  can0  102   [6]  60 06 0D 06 2C 06
 (014.122571)  can0  100   [6]  3C 00 A4 01 00 00
 (014.124077)  can0  102   [6]  60 06 0D 06 2C 06
 (014.132472)  can0  100   [6]  3B 00 A4 01 00 00
 (014.142352)  can0  100   [6]  3A 00 A5 01 00 00
 (014.143721)  can0  101   [4]  00 00 F7 FF
 (014.146701)  can0  103   [2]  00 04
 (014.147601)  can0  104   [6]  00 00 00 00 00 00
 (014.148127)  can0  1FF   [1]  CF
 (014.152252)  can0  100   [6]  3A 00 A4 01 00 00
 (014.153748)  can0  102   [6]  60 06 0D 06 2C 06
 (014.162137)  can0  100   [6]  3B 00 A4 01 00 00
 (014.163662)  can0  102   [6]  60 06 0D 06 2C 06
 (014.172030)  can0  100   [6]  3B 00 A3 01 00 00
 (014.181931)  can0  100   [6]  3C 00 A4 01 00 00
 (014.182795)  can0  102   [6]  60 06 0D 06 2C 06
 (014.191824)  can0  100   [6]  3C 00 A4 01 00 00
 (014.192559)  can0  101   [4]  01 00 FD FF
 (014.195538)  can0  103   [2]  00 04
 (014.196445)  can0  104   [6]  00 00 00 00 00 00
 (014.196962)  can0  1FF   [1]  D0
 (014.201698)  can0  100   [6]  3B 00 A4 01 00 00
 (014.202565)  can0  102   [6]  60 06 0D 06 2C 06
 (014.211595)  can0  100   [6]  3B 00 A5 01 00 00
 (014.221492)  can0  100   [6]  3B 00 A5 01 00 00
 (014.231381)  can0  100   [6]  3B 00 A5 01 00 00
 (014.241270)  can0  100   [6]  3B 00 A4 01 00 00
 (014.241992)  can0  101   [4]  00 00 05 00
 (014.244172)  can0  103   [2]  00 04
 (014.245716)  can0  104   [6]  00 00 00 00 00 00
 (014.247036)  can0  1FF   [1]  D1
 (014.251156)  can0  100   [6]  3B 00 A4 01 00 00
 (014.261077)  can0  100   [6]  3A 00 A4 01 00 00
 (014.261915)  can0  102   [6]  60 06 0D 06 2C 06
 (014.270941)  can0  100   [6]  3B 00 A4 01 00 00
 (014.280841)  can0  100   [6]  3B 00 A4 01 00 00
 (014.290726)  can0  100   [6]  3C 00 A3 01 00 00
 (014.293680)  can0  103   [2]  00 04
 (014.295723)  can0  1FF   [1]  D2
 (014.300605)  can0  100   [6]  3C 00 A4 01 00 00
 (014.769011)  can0  102   [6]  60 06 0D 06 2C 06
 (014.769775)  can0  100   [6]  3A 00 A5 01 00 00
 (014.772179)  can0  101   [4]  02 00 FE FF
 (014.775868)  can0  100   [6]  3A 00 A4 01 00 00
 (014.776674)  can0  102   [6]  60 06 0D 06 2C 06
 (014.785750)  can0  100   [6]  3A 00 A4 01 00 00
 (014.786401)  can0  101   [4]  00 00 00 00
 (014.787810)  can0  103   [2]  00 04
 (014.788658)  can0  104   [6]  00 00 00 00 00 00
 (014.789126)  can0  1FF   [1]  DC
 (014.795759)  can0  100   [6]  3A 00 A4 01 00 00
 (014.805555)  can0  100   [6]  3A 00 A4 01 00 00
 (014.815023)  can0  100   [6]  3A 00 A4 01 00 00
 (014.825218)  can0  100   [6]  3A 00 A4 01 00 00
 (014.835360)  can0  101   [4]  F8 FF 02 00
 (014.836772)  can0  103   [2]  00 04
 (014.837942)  can0  1FF   [1]  DD
 (014.845218)  can0  100   [6]  39 00 A5 01 00 00
 (014.854540)  can0  100   [6]  38 00 A5 01 00 00
 (014.864371)  can0  100   [6]  38 00 A5 01 00 00
 (014.884362)  can0  100   [6]  39 00 A5 01 00 00
 (014.885092)  can0  101   [4]  FC FF FE FF
 (014.887358)  can0  103   [2]  00 04
 (014.888233)  can0  104   [6]  00 00 00 00 00 00
 (014.888745)  can0  1FF   [1]  DE
 (014.904423)  can0  100   [6]  3A 00 A4 01 00 00
 (014.933702)  can0  100   [6]  3A 00 A4 01 00 00
 (014.935181)  can0  101   [4]  F6 FF FC FF
 (014.936724)  can0  103   [2]  00 04
 (014.937992)  can0  1FF   [1]  DF
 (014.943663)  can0  100   [6]  3A 00 A5 01 00 00
 (014.953661)  can0  100   [6]  3A 00 A5 01 00 00
 (014.963654)  can0  100   [6]  3B 00 A4 01 00 00
 (014.973648)  can0  100   [6]  3B 00 A4 01 00 00
 (014.982980)  can0  100   [6]  3B 00 A4 01 00 00
 (014.984303)  can0  101   [4]  FB FF FF FF
 (014.987271)  can0  103   [2]  00 04
 (014.988683)  can0  1FF   [1]  E0
 (014.992824)  can0  100   [6]  3C 00 A5 01 00 00
 (015.002720)  can0  100   [6]  3C 00 A4 01 00 00
 (015.012585)  can0  100   [6]  3C 00 A4 01 00 00
 (015.022501)  can0  100   [6]  3A 00 A4 01 00 00
 (015.761037)  can0  101   [4]  05 00 FB FF
 (015.761845)  can0  102   [6]  60 06 0D 06 2C 06
 (015.762421)  can0  103   [2]  00 02
 (015.764803)  can0  100   [6]  3B 00 A2 01 00 00
 (015.774297)  can0  100   [6]  3B 00 A1 01 00 00
 (015.774963)  can0  101   [4]  03 00 F7 FF
 (015.777247)  can0  104   [6]  00 00 00 00 00 00
 (015.777716)  can0  1FF   [1]  F0
 (015.784475)  can0  100   [6]  3B 00 A2 01 00 00
 (015.785278)  can0  102   [6]  60 06 0D 06 2C 06
 (015.794156)  can0  100   [6]  3B 00 A2 01 00 00
 (015.794955)  can0  102   [6]  60 06 0D 06 2C 06
 (015.804364)  can0  100   [6]  3B 00 A2 01 00 00
 (015.805166)  can0  102   [6]  60 06 0D 06 2C 06
 (015.813714)  can0  100   [6]  3C 00 A3 01 00 00
 (015.823667)  can0  100   [6]  3C 00 A2 01 00 00
 (015.824331)  can0  101   [4]  06 00 FD FF
 (015.825148)  can0  102   [6]  60 06 0D 06 2C 06
 (015.825687)  can0  103   [2]  00 04
 (015.826531)  can0  104   [6]  00 00 00 00 00 00
 (015.826999)  can0  1FF   [1]  F1
 (015.833661)  can0  100   [6]  3B 00 A2 01 00 00
 (015.843665)  can0  100   [6]  3B 00 A3 01 00 00
 (015.844471)  can0  102   [6]  60 06 0D 06 2C 06
 (015.853661)  can0  100   [6]  3B 00 A3 01 00 00
 (015.863668)  can0  100   [6]  3B 00 A4 01 00 00
 (015.864474)  can0  102   [6]  60 06 0D 06 2C 06
 (015.873667)  can0  100   [6]  3B 00 A4 01 00 00
 (015.874312)  can0  101   [4]  03 00 F2 FF
 (015.875734)  can0  103   [2]  00 04
 (015.876994)  can0  1FF   [1]  F2
 (015.882870)  can0  100   [6]  3B 00 A5 01 00 00
 (015.892762)  can0  100   [6]  3B 00 A4 01 00 00
 (015.902667)  can0  100   [6]  3A 00 A4 01 00 00
 (015.903469)  can0  102   [6]  60 06 0D 06 2C 06
 (015.912551)  can0  100   [6]  3B 00 A3 01 00 00
 (015.922446)  can0  100   [6]  3C 00 A2 01 00 00
 (015.923121)  can0  101   [4]  00 00 FB FF
 (015.924538)  can0  103   [2]  00 04
 (015.925383)  can0  104   [6]  00 00 00 00 00 00
 (015.925847)  can0  1FF   [1]  F3
 (015.932344)  can0  100   [6]  3C 00 A3 01 00 00
 (015.942240)  can0  100   [6]  3C 00 A3 01 00 00
 (015.952112)  can0  100   [6]  3B 00 A4 01 00 00
 (015.961996)  can0  100   [6]  3B 00 A4 01 00 00
 (015.971896)  can0  100   [6]  3A 00 A4 01 00 00
 (015.972571)  can0  101   [4]  FF FF 00 00
 (015.974693)  can0  103   [2]  00 04
 (015.976874)  can0  1FF   [1]  F4
 (015.981780)  can0  100   [6]  3A 00 A4 01 00 00
 (015.982648)  can0  102   [6]  60 06 0D 06 2C 06
 (015.991676)  can0  100   [6]  3A 00 A4 01 00 00
 (015.992542)  can0  102   [6]  60 06 0D 06 2C 06
 (016.001565)  can0  100   [6]  3A 00 A5 01 00 00
 (016.002431)  can0  102   [6]  60 06 0D 06 2C 06
 (016.011460)  can0  100   [6]  3A 00 A5 01 00 00
 (016.012322)  can0  102   [6]  60 06 0D 06 2C 06
 (016.021361)  can0  100   [6]  3A 00 A4 01 00 00
 (016.022029)  can0  101   [4]  00 00 F4 FF
 (016.022840)  can0  102   [6]  60 06 0D 06 2C 06
 (016.023379)  can0  103   [2]  00 04
 (016.024227)  can0  104   [6]  00 00 00 00 00 00
 (016.024687)  can0  1FF   [1]  F5
 (016.031249)  can0  100   [6]  3A 00 A4 01 00 00
 (016.032063)  can0  102   [6]  60 06 0D 06 2C 06
 (016.041139)  can0  100   [6]  3B 00 A3 01 00 00
 (016.041944)  can0  102   [6]  60 06 0D 06 2C 06
 (016.051039)  can0  100   [6]  3B 00 A3 01 00 00
 (016.051839)  can0  102   [6]  60 06 0D 06 2C 06
 (016.060935)  can0  100   [6]  3B 00 A3 01 00 00
 (016.070833)  can0  100   [6]  3B 00 A4 01 00 00
 (016.071511)  can0  101   [4]  FD FF FE FF
 (016.072322)  can0  102   [6]  60 06 0D 06 2C 06
 (016.072866)  can0  103   [2]  00 04
 (016.073717)  can0  104   [6]  00 00 00 00 00 00
 (016.074177)  can0  1FF   [1]  F6
 (016.080739)  can0  100   [6]  3A 00 A3 01 00 00
 (016.081517)  can0  102   [6]  60 06 0D 06 2C 06
 (016.090608)  can0  100   [6]  3A 00 A3 01 00 00
 (016.091411)  can0  102   [6]  60 06 0D 06 2C 06
 (016.100504)  can0  100   [6]  3A 00 A3 01 00 00
 (016.101303)  can0  102   [6]  60 06 0D 06 2C 06
 (016.110409)  can0  100   [6]  3A 00 A3 01 00 00
 (016.111209)  can0  102   [6]  60 06 0D 06 2C 06
 (016.120286)  can0  100   [6]  3A 00 A3 01 00 00
 (016.120949)  can0  101   [4]  05 00 FB FF
 (016.121757)  can0  102   [6]  60 06 0D 06 2C 06
 (016.122308)  can0  103   [2]  00 04
 (016.123157)  can0  104   [6]  00 00 00 00 00 00
 (016.123610)  can0  1FF   [1]  F7
 (016.130189)  can0  100   [6]  3A 00 A3 01 00 00
 (016.130989)  can0  102   [6]  60 06 0D 06 2C 06
 (016.140077)  can0  100   [6]  3A 00 A3 01 00 00
 (016.140875)  can0  102   [6]  60 06 0D 06 2C 06
 (016.149984)  can0  100   [6]  39 00 A4 01 00 00
 (016.150785)  can0  102   [6]  60 06 0D 06 2C 06
 (016.169786)  can0  100   [6]  39 00 A4 01 00 00
 (016.170458)  can0  101   [4]  F8 FF 04 00
 (016.171401)  can0  102   [6]  60 06 0D 06 2C 06
 (016.171809)  can0  103   [2]  00 04
 (016.172894)  can0  104   [6]  00 00 00 00 00 00
 (016.173135)  can0  1FF   [1]  F8
 (016.180530)  can0  102   [6]  60 06 0D 06 2C 06
 (016.219232)  can0  100   [6]  38 00 A4 01 00 00
 (016.219959)  can0  101   [4]  FD FF FC FF
 (016.220833)  can0  102   [6]  60 06 0D 06 2C 06
 (016.221442)  can0  103   [2]  00 04
 (016.222351)  can0  104   [6]  00 00 00 00 00 00
 (016.223510)  can0  1FF   [1]  F9
 (016.229139)  can0  100   [6]  38 00 A3 01 00 00
 (016.230035)  can0  102   [6]  60 06 0D 06 2C 06
 (016.239024)  can0  100   [6]  37 00 A4 01 00 00
 (016.239889)  can0  102   [6]  60 06 0D 06 2C 06
 (016.248910)  can0  100   [6]  37 00 A3 01 00 00
 (016.249779)  can0  102   [6]  60 06 0D 06 2C 06
 (016.258815)  can0  100   [6]  38 00 A3 01 00 00
 (016.268695)  can0  100   [6]  38 00 A4 01 00 00
 (016.269417)  can0  101   [4]  F2 FF 0C 00
 (016.270299)  can0  102   [6]  60 06 0D 06 2C 06
 (016.270894)  can0  103   [2]  00 04
 (016.271808)  can0  104   [6]  00 00 00 00 00 00
 (016.272335)  can0  1FF   [1]  FA
 (016.278590)  can0  100   [6]  38 00 A4 01 00 00
 (016.288485)  can0  100   [6]  38 00 A4 01 00 00
 (016.298379)  can0  100   [6]  38 00 A4 01 00 00
 (016.299264)  can0  102   [6]  60 06 0D 06 2C 06
 (016.308279)  can0  100   [6]  39 00 A4 01 00 00
 (016.309145)  can0  102   [6]  60 06 0D 06 2C 06
 (016.318167)  can0  100   [6]  38 00 A4 01 00 00
 (016.318888)  can0  101   [4]  06 00 09 00
 (016.320433)  can0  103   [2]  00 04
 (016.321342)  can0  104   [6]  00 00 00 00 00 00
 (016.321869)  can0  1FF   [1]  FB
 (016.347829)  can0  100   [6]  3A 00 A5 01 00 00
 (016.348703)  can0  102   [6]  60 06 0D 06 2C 06
 (016.357723)  can0  100   [6]  3A 00 A5 01 00 00
 (016.367616)  can0  100   [6]  39 00 A5 01 00 00
 (016.368345)  can0  101   [4]  FD FF 00 00
 (016.369896)  can0  103   [2]  00 04
 (016.370802)  can0  104   [6]  00 00 00 00 00 00
 (016.371321)  can0  1FF   [1]  FC
 (016.377532)  can0  100   [6]  39 00 A5 01 00 00
 (016.378380)  can0  102   [6]  60 06 0D 06 2C 06
 (016.387402)  can0  100   [6]  39 00 A6 01 00 00
 (016.388269)  can0  102   [6]  60 06 0D 06 2C 06
 (016.397287)  can0  100   [6]  39 00 A6 01 00 00
 (016.407210)  can0  100   [6]  39 00 A6 01 00 00
 (016.408050)  can0  102   [6]  60 06 0D 06 2C 06
 (016.417075)  can0  100   [6]  39 00 A6 01 00 00
 (016.417796)  can0  101   [4]  EF FF 09 00
 (016.419338)  can0  103   [2]  00 04
 (016.420644)  can0  1FF   [1]  FD
 (016.426991)  can0  100   [6]  3A 00 A6 01 00 00
 (016.436862)  can0  100   [6]  3A 00 A5 01 00 00
 (016.437728)  can0  102   [6]  60 06 0D 06 2C 06
 (016.446757)  can0  100   [6]  3A 00 A4 01 00 00
 (016.447633)  can0  102   [6]  60 06 0D 06 2C 06
 (016.456649)  can0  100   [6]  3A 00 A4 01 00 00
 (016.466538)  can0  100   [6]  3A 00 A5 01 00 00
 (016.467263)  can0  101   [4]  05 00 06 00
 (016.468812)  can0  103   [2]  00 04
 (016.470165)  can0  1FF   [1]  FE
 (016.476443)  can0  100   [6]  39 00 A4 01 00 00
 (016.477304)  can0  102   [6]  60 06 0D 06 2C 06
 (016.486325)  can0  100   [6]  38 00 A5 01 00 00
 (016.487197)  can0  102   [6]  60 06 0D 06 2C 06
 (016.496217)  can0  100   [6]  37 00 A4 01 00 00
 (016.506109)  can0  100   [6]  37 00 A4 01 00 00
 (016.516003)  can0  100   [6]  37 00 A4 01 00 00
 (016.516736)  can0  101   [4]  FD FF F3 FF
 (016.517606)  can0  102   [6]  60 06 0D 06 2C 06
 (016.518220)  can0  103   [2]  00 04
 (016.519127)  can0  104   [6]  00 00 00 00 00 00
 (016.519656)  can0  1FF   [1]  FF
 (016.525896)  can0  100   [6]  38 00 A4 01 00 00
 (016.535796)  can0  100   [6]  39 00 A4 01 00 00
 (016.747166)  can0  102   [6]  60 06 0D 06 2C 06
 (016.747980)  can0  100   [6]  37 00 A8 01 00 00
 (016.750376)  can0  101   [4]  04 00 FF FF
 (016.754091)  can0  100   [6]  39 00 A7 01 00 00
 (016.764021)  can0  100   [6]  3A 00 A7 01 00 00
 (016.764712)  can0  101   [4]  06 00 00 00
 (016.765514)  can0  102   [6]  60 06 0D 06 2C 06
 (016.766062)  can0  103   [2]  00 04
 (016.766912)  can0  104   [6]  00 00 00 00 00 00
 (016.767373)  can0  1FF   [1]  04
 (016.773544)  can0  100   [6]  3A 00 A7 01 00 00
 (016.774349)  can0  102   [6]  60 06 0D 06 2C 06
 (016.783767)  can0  100   [6]  3A 00 A7 01 00 00
 (016.793661)  can0  100   [6]  3A 00 A7 01 00 00
 (016.794465)  can0  102   [6]  60 06 0D 06 2C 06
 (016.802907)  can0  100   [6]  3A 00 A7 01 00 00
 (016.803725)  can0  102   [6]  60 06 0D 06 2C 06
 (016.812792)  can0  100   [6]  3B 00 A6 01 00 00
 (016.813459)  can0  101   [4]  09 00 0C 00
 (016.814879)  can0  103   [2]  00 04
 (016.815722)  can0  104   [6]  00 00 00 00 00 00
 (016.816182)  can0  1FF   [1]  05
 (016.822683)  can0  100   [6]  3B 00 A6 01 00 00
 (016.823487)  can0  102   [6]  60 06 0D 06 2C 06
 (016.832598)  can0  100   [6]  3A 00 A6 01 00 00
 (016.833400)  can0  102   [6]  60 06 0D 06 2C 06
 (016.842476)  can0  100   [6]  3A 00 A7 01 00 00
 (016.852369)  can0  100   [6]  39 00 A8 01 00 00
 (016.853175)  can0  102   [6]  60 06 0D 06 2C 06
 (016.862269)  can0  100   [6]  39 00 A8 01 00 00
 (016.862962)  can0  101   [4]  FA FF 00 00
 (016.864342)  can0  103   [2]  00 04
 (016.865190)  can0  104   [6]  00 00 00 00 00 00
 (016.865655)  can0  1FF   [1]  06
 (016.872160)  can0  100   [6]  38 00 A8 01 00 00
 (016.882037)  can0  100   [6]  39 00 A7 01 00 00
 (016.891933)  can0  100   [6]  3A 00 A7 01 00 00
 (016.901812)  can0  100   [6]  3B 00 A6 01 00 00
 (016.911714)  can0  100   [6]  3C 00 A6 01 00 00
 (016.912372)  can0  101   [4]  01 00 06 00
 (016.913785)  can0  103   [2]  00 04
 (016.914959)  can0  1FF   [1]  07
 (016.921599)  can0  100   [6]  3C 00 A6 01 00 00
 (016.931500)  can0  100   [6]  3C 00 A6 01 00 00
 (016.941374)  can0  100   [6]  3B 00 A6 01 00 00
 (016.951293)  can0  100   [6]  3B 00 A6 01 00 00
 (016.952074)  can0  102   [6]  60 06 0D 06 2C 06
 (016.961167)  can0  100   [6]  39 00 A6 01 00 00
 (016.963318)  can0  103   [2]  00 04
 (016.964146)  can0  104   [6]  00 00 00 00 00 00
 (016.964602)  can0  1FF   [1]  08
 (016.971057)  can0  100   [6]  38 00 A6 01 00 00
 (016.980945)  can0  100   [6]  38 00 A5 01 00 00
 (016.990844)  can0  100   [6]  38 00 A7 01 00 00
 (017.000718)  can0  100   [6]  37 00 A9 01 00 00
 (017.001580)  can0  102   [6]  60 06 0D 06 2C 06
 (017.010610)  can0  100   [6]  37 00 A9 01 00 00
 (017.011339)  can0  101   [4]  FF FF F9 FF
 (017.013512)  can0  103   [2]  00 04
 (017.016916)  can0  1FF   [1]  09
 (017.020506)  can0  100   [6]  37 00 A8 01 00 00
 (017.021368)  can0  102   [6]  60 06 0D 06 2C 06
 (017.030400)  can0  100   [6]  38 00 A6 01 00 00
 (017.040282)  can0  100   [6]  38 00 A4 01 00 00
 (017.050184)  can0  100   [6]  3A 00 A2 01 00 00
 (017.060055)  can0  100   [6]  3B 00 A2 01 00 00
 (017.062381)  can0  103   [2]  00 04
 (017.065755)  can0  1FF   [1]  0A
 (017.069941)  can0  100   [6]  3B 00 A2 01 00 00
 (017.079829)  can0  100   [6]  3B 00 A4 01 00 00
 (017.089712)  can0  100   [6]  3A 00 A5 01 00 00
 (017.099608)  can0  100   [6]  38 00 A5 01 00 00
 (017.109497)  can0  100   [6]  38 00 A7 01 00 00
 (017.111821)  can0  103   [2]  00 04
 (017.736330)  can0  102   [6]  60 06 0D 06 2C 06
 (017.737135)  can0  100   [6]  3D 00 A2 01 00 00
 (017.740968)  can0  103   [2]  00 02
 (017.742504)  can0  100   [6]  3C 00 A5 01 00 00
 (017.752672)  can0  100   [6]  3B 00 A7 01 00 00
 (017.754794)  can0  103   [2]  00 04
 (017.756175)  can0  1FF   [1]  18
 (017.762594)  can0  100   [6]  39 00 A7 01 00 00
 (017.772543)  can0  100   [6]  39 00 A6 01 00 00
 (017.781968)  can0  100   [6]  39 00 A5 01 00 00
 (017.791855)  can0  100   [6]  39 00 A3 01 00 00
 (017.792654)  can0  102   [6]  60 06 0D 06 2C 06
 (017.801754)  can0  100   [6]  3A 00 A3 01 00 00
 (017.802403)  can0  101   [4]  F1 FF 08 00
 (017.803209)  can0  102   [6]  60 06 0D 06 2C 06
 (017.803752)  can0  103   [2]  00 04
 (017.804602)  can0  104   [6]  00 00 00 00 00 00
 (017.805064)  can0  1FF   [1]  19
 (017.811640)  can0  100   [6]  3B 00 A2 01 00 00
 (017.821537)  can0  100   [6]  3C 00 A2 01 00 00
 (017.831433)  can0  100   [6]  3C 00 A2 01 00 00
 (017.832236)  can0  102   [6]  60 06 0D 06 2C 06
 (017.841333)  can0  100   [6]  3C 00 A3 01 00 00
 (017.842134)  can0  102   [6]  60 06 0D 06 2C 06
 (017.851217)  can0  100   [6]  3B 00 A5 01 00 00
 (017.851887)  can0  101   [4]  FB FF 06 00
 (017.852695)  can0  102   [6]  60 06 0D 06 2C 06
 (017.853240)  can0  103   [2]  00 04
 (017.854090)  can0  104   [6]  00 00 00 00 00 00
 (017.854538)  can0  1FF   [1]  1A
 (017.861128)  can0  100   [6]  3A 00 A6 01 00 00
 (017.861929)  can0  102   [6]  60 06 0D 06 2C 06
 (017.871002)  can0  100   [6]  3A 00 A5 01 00 00
 (017.871806)  can0  102   [6]  60 06 0D 06 2C 06
 (017.880906)  can0  100   [6]  39 00 A3 01 00 00
 (017.881708)  can0  102   [6]  60 06 0D 06 2C 06
 (017.890811)  can0  100   [6]  3A 00 A2 01 00 00
 (017.891613)  can0  102   [6]  60 06 0D 06 2C 06
 (017.900716)  can0  100   [6]  3A 00 A2 01 00 00
 (017.901388)  can0  101   [4]  0C 00 FA FF
 (017.902216)  can0  102   [6]  60 06 0D 06 2C 06
 (017.902741)  can0  103   [2]  00 04
 (017.903591)  can0  104   [6]  00 00 00 00 00 00
 (017.904040)  can0  1FF   [1]  1B
 (017.910602)  can0  100   [6]  38 00 A3 01 00 00
 (017.911405)  can0  102   [6]  60 06 0D 06 2C 06
 (017.920499)  can0  100   [6]  38 00 A5 01 00 00
 (017.921294)  can0  102   [6]  60 06 0D 06 2C 06
 (017.930387)  can0  100   [6]  38 00 A5 01 00 00
 (017.940271)  can0  100   [6]  39 00 A5 01 00 00
 (017.950884)  can0  101   [4]  EC FF F4 FF
 (017.951686)  can0  102   [6]  60 06 0D 06 2C 06
 (017.952231)  can0  103   [2]  00 04
 (017.953088)  can0  104   [6]  00 00 00 00 00 00
 (017.953531)  can0  1FF   [1]  1C
 (017.960070)  can0  100   [6]  39 00 A4 01 00 00
 (017.960876)  can0  102   [6]  60 06 0D 06 2C 06
 (017.969951)  can0  100   [6]  3A 00 A3 01 00 00
 (017.970748)  can0  102   [6]  60 06 0D 06 2C 06
 (017.979837)  can0  100   [6]  3A 00 A3 01 00 00
 (017.980646)  can0  102   [6]  60 06 0D 06 2C 06
 (017.989735)  can0  100   [6]  3A 00 A3 01 00 00
 (017.999625)  can0  100   [6]  39 00 A5 01 00 00
 (018.000301)  can0  101   [4]  FC FF FD FF
 (018.001714)  can0  103   [2]  00 04
 (018.002881)  can0  1FF   [1]  1D
 (018.009519)  can0  100   [6]  37 00 A7 01 00 00
 (018.019411)  can0  100   [6]  37 00 A7 01 00 00
 (018.020211)  can0  102   [6]  60 06 0D 06 2C 06
 (018.029297)  can0  100   [6]  37 00 A7 01 00 00
 (018.030096)  can0  102   [6]  60 06 0D 06 2C 06
 (018.039205)  can0  100   [6]  37 00 A5 01 00 00
 (018.040006)  can0  102   [6]  60 06 0D 06 2C 06
 (018.049091)  can0  100   [6]  39 00 A3 01 00 00
 (018.049747)  can0  101   [4]  1F 00 F5 FF
 (018.051162)  can0  103   [2]  00 04
 (018.052063)  can0  104   [6]  00 00 00 00 00 00
 (018.052519)  can0  1FF   [1]  1E
 (018.058982)  can0  100   [6]  3A 00 A1 01 00 00
 (018.068885)  can0  100   [6]  3A 00 A0 01 00 00
 (018.069679)  can0  102   [6]  60 06 0D 06 2C 06
 (018.078760)  can0  100   [6]  3A 00 A1 01 00 00
 (018.079561)  can0  102   [6]  60 06 0D 06 2C 06
 (018.088653)  can0  100   [6]  3A 00 A3 01 00 00
 (018.089450)  can0  102   [6]  60 06 0D 06 2C 06
 (018.098548)  can0  100   [6]  38 00 A6 01 00 00
 (018.099212)  can0  101   [4]  F5 FF F3 FF
 (018.100015)  can0  102   [6]  60 06 0D 06 2C 06
 (018.100571)  can0  103   [2]  00 04
 (018.101407)  can0  104   [6]  00 00 00 00 00 00
 (018.101872)  can0  1FF   [1]  1F
 (018.108442)  can0  100   [6]  38 00 A7 01 00 00
 (018.118328)  can0  100   [6]  39 00 A7 01 00 00
 (018.119132)  can0  102   [6]  60 06 0D 06 2C 06
 (018.128217)  can0  100   [6]  39 00 A6 01 00 00
 (018.129023)  can0  102   [6]  60 06 0D 06 2C 06
 (018.138122)  can0  100   [6]  3B 00 A5 01 00 00
 (018.138918)  can0  102   [6]  60 06 0D 06 2C 06
 (018.148019)  can0  100   [6]  3B 00 A3 01 00 00
 (018.148691)  can0  101   [4]  FE FF FD FF
 (018.149498)  can0  102   [6]  60 06 0D 06 2C 06
 (018.150042)  can0  103   [2]  00 04
 (018.150912)  can0  104   [6]  00 00 00 00 00 00
 (018.151358)  can0  1FF   [1]  20
 (018.157907)  can0  100   [6]  3A 00 A1 01 00 00
 (018.158708)  can0  102   [6]  60 06 0D 06 2C 06
 (018.167795)  can0  100   [6]  39 00 A1 01 00 00
 (018.168605)  can0  102   [6]  60 06 0D 06 2C 06
 (018.177712)  can0  100   [6]  38 00 A2 01 00 00
 (018.178527)  can0  102   [6]  60 06 0D 06 2C 06
 (018.187611)  can0  100   [6]  38 00 A3 01 00 00
 (018.188412)  can0  102   [6]  60 06 0D 06 2C 06
 (018.197497)  can0  100   [6]  37 00 A5 01 00 00
 (018.198162)  can0  101   [4]  00 00 ED FF
 (018.198968)  can0  102   [6]  60 06 0D 06 2C 06
 (018.199510)  can0  103   [2]  00 04
 (018.200358)  can0  104   [6]  00 00 00 00 00 00
 (018.200816)  can0  1FF   [1]  21
 (018.207375)  can0  100   [6]  39 00 A7 01 00 00
 (018.217279)  can0  100   [6]  39 00 A8 01 00 00
 (018.218086)  can0  102   [6]  60 06 0D 06 2C 06
 (018.227171)  can0  100   [6]  3B 00 A8 01 00 00
 (018.237052)  can0  100   [6]  3B 00 A6 01 00 00
 (018.246944)  can0  100   [6]  3B 00 A4 01 00 00
 (018.247603)  can0  101   [4]  11 00 E9 FF
 (018.248411)  can0  102   [6]  60 06 0D 06 2C 06
 (018.248955)  can0  103   [2]  00 04
 (018.249806)  can0  104   [6]  00 00 00 00 00 00
 (018.250261)  can0  1FF   [1]  22
 (018.256838)  can0  100   [6]  3A 00 A4 01 00 00
 (018.266734)  can0  100   [6]  3A 00 A2 01 00 00
 (018.276619)  can0  100   [6]  3A 00 A0 01 00 00
 (018.286531)  can0  100   [6]  3A 00 9F 01 00 00
 (018.296416)  can0  100   [6]  3A 00 A0 01 00 00
 (018.297958)  can0  102   [6]  60 06 0D 06 2C 06
 (018.298519)  can0  103   [2]  00 04
 (018.299348)  can0  104   [6]  00 00 00 00 00 00
 (018.299797)  can0  1FF   [1]  23
 (018.306302)  can0  100   [6]  3A 00 A2 01 00 00
 (018.307113)  can0  102   [6]  60 06 0D 06 2C 06
 (018.316190)  can0  100   [6]  3A 00 A4 01 00 00
 (018.326083)  can0  100   [6]  39 00 A5 01 00 00
 (018.335965)  can0  100   [6]  3A 00 A5 01 00 00
 (018.345868)  can0  100   [6]  3A 00 A4 01 00 00
 (018.346604)  can0  101   [4]  FD FF FB FF
 (018.347482)  can0  102   [6]  60 06 0D 06 2C 06
 (018.348088)  can0  103   [2]  00 04
 (018.348997)  can0  104   [6]  00 00 00 00 00 00
 (018.349510)  can0  1FF   [1]  24
 (018.355788)  can0  100   [6]  38 00 A3 01 00 00
 (018.356635)  can0  102   [6]  60 06 0D 06 2C 06
 (018.365704)  can0  100   [6]  38 00 A2 01 00 00
 (018.366979)  can0  102   [6]  60 06 0D 06 2C 06
 (018.375555)  can0  100   [6]  38 00 A0 01 00 00
 (018.376390)  can0  102   [6]  60 06 0D 06 2C 06
 (018.385437)  can0  100   [6]  39 00 9F 01 00 00
 (018.395329)  can0  100   [6]  3A 00 A0 01 00 00
 (018.396076)  can0  101   [4]  06 00 00 00
 (018.397626)  can0  103   [2]  00 04
 (018.398531)  can0  104   [6]  00 00 00 00 00 00
 (018.399052)  can0  1FF   [1]  25
 (018.405220)  can0  100   [6]  3A 00 A1 01 00 00
 (018.406105)  can0  102   [6]  60 06 0D 06 2C 06
 (018.415448)  can0  100   [6]  3A 00 A1 01 00 00
 (018.416315)  can0  102   [6]  60 06 0D 06 2C 06
 (018.425232)  can0  100   [6]  3A 00 A2 01 00 00
 (018.434896)  can0  100   [6]  3A 00 A4 01 00 00
 (018.445232)  can0  100   [6]  38 00 A3 01 00 00
 (018.445977)  can0  101   [4]  00 00 00 00
 (018.447517)  can0  103   [2]  00 04
 (018.448427)  can0  104   [6]  00 00 00 00 00 00
 (018.448938)  can0  1FF   [1]  26
 (018.454684)  can0  100   [6]  38 00 A3 01 00 00
 (018.455554)  can0  102   [6]  60 06 0D 06 2C 06
 (018.464827)  can0  100   [6]  38 00 A1 01 00 00
 (018.474529)  can0  100   [6]  39 00 9F 01 00 00
 (018.484361)  can0  100   [6]  39 00 9E 01 00 00
 (018.494530)  can0  100   [6]  39 00 9E 01 00 00
 (018.496881)  can0  103   [2]  00 04
 (018.497766)  can0  104   [6]  00 00 00 00 00 00
 (018.498276)  can0  1FF   [1]  27
 (018.504361)  can0  100   [6]  39 00 9F 01 00 00
 (018.506020)  can0  102   [6]  60 06 0D 06 2C 06
 (018.514121)  can0  100   [6]  39 00 A2 01 00 00
 (018.524381)  can0  100   [6]  3B 00 A3 01 00 00
 (018.526026)  can0  102   [6]  60 06 0D 06 2C 06
 (018.534515)  can0  100   [6]  3B 00 A4 01 00 00
 (018.544364)  can0  100   [6]  3B 00 A5 01 00 00
 (018.545901)  can0  101   [4]  0A 00 00 00
 (018.547442)  can0  103   [2]  00 04
 (018.548747)  can0  1FF   [1]  28
 (018.553658)  can0  100   [6]  3B 00 A5 01 00 00
 (018.563669)  can0  100   [6]  3A 00 A5 01 00 00
 (018.573662)  can0  100   [6]  39 00 A3 01 00 00
 (018.583663)  can0  100   [6]  39 00 A2 01 00 00
 (018.593673)  can0  100   [6]  39 00 A0 01 00 00
 (018.595185)  can0  101   [4]  03 00 F5 FF
 (018.596056)  can0  102   [6]  60 06 0D 06 2C 06
 (018.596664)  can0  103   [2]  00 04
 (018.597576)  can0  104   [6]  00 00 00 00 00 00
 (018.598088)  can0  1FF   [1]  29
 (018.603663)  can0  100   [6]  3A 00 9E 01 00 00
 (018.605177)  can0  102   [6]  60 06 0D 06 2C 06
 (018.612914)  can0  100   [6]  3B 00 9E 01 00 00
 (018.624976)  can0  102   [6]  60 06 0D 06 2C 06
 (018.632728)  can0  100   [6]  3C 00 9F 01 00 00
 (018.634226)  can0  102   [6]  60 06 0D 06 2C 06
 (018.642604)  can0  100   [6]  3D 00 A0 01 00 00
 (018.643966)  can0  101   [4]  01 00 08 00
 (018.645469)  can0  102   [6]  60 06 0D 06 2C 06
 (018.646890)  can0  103   [2]  00 04
 (018.647791)  can0  104   [6]  00 00 00 00 00 00
 (018.648308)  can0  1FF   [1]  2A
 (018.652480)  can0  100   [6]  3D 00 A1 01 00 00
 (018.662371)  can0  100   [6]  3B 00 A1 01 00 00
 (018.672264)  can0  100   [6]  3A 00 A3 01 00 00
 (018.750559)  can0  101   [4]  09 00 EF FF
 (018.752835)  can0  104   [6]  00 00 00 00 00 00
 (018.753285)  can0  1FF   [1]  2B
 (018.754113)  can0  100   [6]  3C 00 A1 01 00 00
 (018.761574)  can0  100   [6]  3C 00 A3 01 00 00
 (018.771171)  can0  100   [6]  3B 00 A3 01 00 00
 (018.781382)  can0  100   [6]  3B 00 A3 01 00 00
 (018.790920)  can0  100   [6]  3A 00 A3 01 00 00
 (018.791569)  can0  101   [4]  01 00 F6 FF
 (018.792988)  can0  103   [2]  00 04
 (018.793856)  can0  104   [6]  00 00 00 00 00 00
 (018.794295)  can0  1FF   [1]  2D
 (018.800808)  can0  100   [6]  39 00 A2 01 00 00
 (018.801627)  can0  102   [6]  60 06 0D 06 2C 06
 (018.810703)  can0  100   [6]  39 00 A2 01 00 00
 (018.820607)  can0  100   [6]  3A 00 A2 01 00 00
 (018.830499)  can0  100   [6]  39 00 A3 01 00 00
 (018.842569)  can0  103   [2]  00 04
 (018.843746)  can0  1FF   [1]  2E
 (018.850264)  can0  100   [6]  38 00 A5 01 00 00
 (018.860148)  can0  100   [6]  39 00 A5 01 00 00
 (018.870035)  can0  100   [6]  3A 00 A4 01 00 00
 (018.879935)  can0  100   [6]  3C 00 A3 01 00 00
 (018.889834)  can0  100   [6]  3E 00 A1 01 00 00
 (018.890572)  can0  101   [4]  02 00 FF FF
 (018.892133)  can0  103   [2]  00 04
 (018.895874)  can0  1FF   [1]  2F
 (018.899721)  can0  100   [6]  3E 00 A0 01 00 00
 (018.909618)  can0  100   [6]  3C 00 9F 01 00 00
 (018.919480)  can0  100   [6]  3B 00 A1 01 00 00
 (018.929377)  can0  100   [6]  3A 00 A3 01 00 00
 (018.930243)  can0  102   [6]  60 06 0D 06 2C 06
 (018.939297)  can0  100   [6]  39 00 A5 01 00 00
 (018.940010)  can0  101   [4]  F9 FF FF FF
 (018.941555)  can0  103   [2]  00 04
 (018.942470)  can0  104   [6]  00 00 00 00 00 00
 (018.943620)  can0  1FF   [1]  30
 (018.949163)  can0  100   [6]  38 00 A6 01 00 00
 (018.959048)  can0  100   [6]  38 00 A6 01 00 00
 (018.968933)  can0  100   [6]  39 00 A6 01 00 00
 (018.978818)  can0  100   [6]  3A 00 A5 01 00 00
 (018.988712)  can0  100   [6]  3A 00 A4 01 00 00
 (018.989431)  can0  101   [4]  F0 FF FB FF
 (018.990974)  can0  103   [2]  00 04
 (018.992323)  can0  1FF   [1]  31
 (018.998598)  can0  100   [6]  39 00 A3 01 00 00
 (019.008481)  can0  100   [6]  3B 00 A2 01 00 00
 (019.018366)  can0  100   [6]  3B 00 A2 01 00 00
 (019.028262)  can0  100   [6]  3D 00 A3 01 00 00
 (019.038148)  can0  100   [6]  3C 00 A2 01 00 00
 (019.038875)  can0  101   [4]  F8 FF 01 00
 (019.724154)  can0  102   [6]  60 06 0D 06 2C 06
 (019.724967)  can0  100   [6]  3A 00 A0 01 00 00
 (019.725637)  can0  101   [4]  09 00 04 00
 (019.727926)  can0  104   [6]  00 00 00 00 00 00
 (019.728392)  can0  1FF   [1]  3F
 (019.730656)  can0  100   [6]  39 00 A0 01 00 00
 (019.731326)  can0  101   [4]  0A 00 FF FF
 (019.733612)  can0  104   [6]  00 00 00 00 00 00
 (019.734065)  can0  1FF   [1]  40
 (019.740932)  can0  100   [6]  3A 00 A0 01 00 00
 (019.741723)  can0  102   [6]  60 06 0D 06 2C 06
 (019.750458)  can0  100   [6]  3A 00 A1 01 00 00
 (019.751261)  can0  102   [6]  60 06 0D 06 2C 06
 (019.760591)  can0  100   [6]  3A 00 A1 01 00 00
 (019.761394)  can0  102   [6]  60 06 0D 06 2C 06
 (019.770175)  can0  100   [6]  3A 00 A1 01 00 00
 (019.770983)  can0  102   [6]  60 06 0D 06 2C 06
 (019.780081)  can0  100   [6]  39 00 A1 01 00 00
 (019.780728)  can0  101   [4]  02 00 FA FF
 (019.781537)  can0  102   [6]  60 06 0D 06 2C 06
 (019.782081)  can0  103   [2]  00 04
 (019.782932)  can0  104   [6]  00 00 00 00 00 00
 (019.783397)  can0  1FF   [1]  41
 (019.789996)  can0  100   [6]  3A 00 A2 01 00 00
 (019.790784)  can0  102   [6]  60 06 0D 06 2C 06
 (019.799862)  can0  100   [6]  3A 00 A1 01 00 00
 (019.800663)  can0  102   [6]  60 06 0D 06 2C 06
 (019.809764)  can0  100   [6]  3A 00 A0 01 00 00
 (019.810572)  can0  102   [6]  60 06 0D 06 2C 06
 (019.819672)  can0  100   [6]  3B 00 A0 01 00 00
 (019.829563)  can0  100   [6]  3C 00 9F 01 00 00
 (019.830225)  can0  101   [4]  07 00 F6 FF
 (019.831047)  can0  102   [6]  60 06 0D 06 2C 06
 (019.831574)  can0  103   [2]  00 04
 (019.832423)  can0  104   [6]  00 00 00 00 00 00
 (019.832872)  can0  1FF   [1]  42
 (019.849331)  can0  100   [6]  3D 00 9F 01 00 00
 (019.859229)  can0  100   [6]  3D 00 9E 01 00 00
 (019.878991)  can0  100   [6]  3D 00 A0 01 00 00
 (019.879637)  can0  101   [4]  0D 00 F1 FF
 (019.881055)  can0  103   [2]  00 04
 (019.882094)  can0  1FF   [1]  43
 (019.888865)  can0  100   [6]  3D 00 A1 01 00 00
 (019.898755)  can0  100   [6]  3D 00 A2 01 00 00
 (019.908634)  can0  100   [6]  3D 00 A1 01 00 00
 (019.918578)  can0  100   [6]  3E 00 A0 01 00 00
 (019.928440)  can0  100   [6]  3E 00 A1 01 00 00
 (019.929115)  can0  101   [4]  04 00 FB FF
 (019.930534)  can0  103   [2]  00 04
 (019.931383)  can0  104   [6]  00 00 00 00 00 00
 (019.931842)  can0  1FF   [1]  44
 (019.938334)  can0  100   [6]  3E 00 A0 01 00 00
 (019.948203)  can0  100   [6]  3D 00 A0 01 00 00
 (019.958111)  can0  100   [6]  3C 00 A0 01 00 00
 (019.967986)  can0  100   [6]  3C 00 A1 01 00 00
 (019.977877)  can0  100   [6]  3C 00 A1 01 00 00
 (019.978592)  can0  101   [4]  FD FF 01 00
 (019.980082)  can0  103   [2]  00 04
 (019.981428)  can0  1FF   [1]  45
 (019.987737)  can0  100   [6]  3D 00 A1 01 00 00
 (019.997634)  can0  100   [6]  3D 00 A1 01 00 00
 (020.007513)  can0  100   [6]  3D 00 A1 01 00 00
 (020.017400)  can0  100   [6]  3D 00 A1 01 00 00
 (020.027311)  can0  100   [6]  3C 00 A1 01 00 00
 (020.028033)  can0  101   [4]  F7 FF F6 FF
 (020.029605)  can0  103   [2]  00 04
 (020.030924)  can0  1FF   [1]  46
 (020.037179)  can0  100   [6]  3B 00 A2 01 00 00
 (020.047089)  can0  100   [6]  3A 00 A2 01 00 00
 (020.056967)  can0  100   [6]  39 00 A3 01 00 00
 (020.057838)  can0  102   [6]  60 06 0D 06 2C 06
 (020.066873)  can0  100   [6]  39 00 A3 01 00 00
 (020.076745)  can0  100   [6]  39 00 A3 01 00 00
 (020.077484)  can0  101   [4]  F5 FF FF FF
 (020.079036)  can0  103   [2]  00 04
 (020.080380)  can0  1FF   [1]  47
 (020.086637)  can0  100   [6]  3A 00 A3 01 00 00
 (020.096532)  can0  100   [6]  3B 00 A2 01 00 00
 (020.106421)  can0  100   [6]  3B 00 A2 01 00 00
 (020.107284)  can0  102   [6]  60 06 0D 06 2C 06
 (020.116308)  can0  100   [6]  39 00 A2 01 00 00
 (020.126199)  can0  100   [6]  39 00 A2 01 00 00
 (020.126931)  can0  101   [4]  F5 FF FD FF
 (020.128477)  can0  103   [2]  00 04
 (020.129772)  can0  1FF   [1]  48
 (020.136096)  can0  100   [6]  38 00 A2 01 00 00
 (020.145983)  can0  100   [6]  38 00 A2 01 00 00
 (020.713514)  can0  102   [6]  60 06 0D 06 2C 06
 (020.714314)  can0  100   [6]  3A 00 A3 01 00 00
 (020.714975)  can0  101   [4]  05 00 03 00
 (020.717265)  can0  104   [6]  00 00 00 00 00 00
 (020.717719)  can0  1FF   [1]  53
 (020.720159)  can0  100   [6]  3C 00 A3 01 00 00
 (020.720830)  can0  101   [4]  FF FF 06 00
 (020.723113)  can0  104   [6]  00 00 00 00 00 00
 (020.723566)  can0  1FF   [1]  54
 (020.730177)  can0  100   [6]  3B 00 A3 01 00 00
 (020.739681)  can0  100   [6]  3A 00 A3 01 00 00
 (020.740486)  can0  102   [6]  60 06 0D 06 2C 06
 (020.749427)  can0  100   [6]  3A 00 A3 01 00 00
 (020.750229)  can0  102   [6]  60 06 0D 06 2C 06
 (020.759225)  can0  100   [6]  3A 00 A4 01 00 00
 (020.760026)  can0  102   [6]  60 06 0D 06 2C 06
 (020.769109)  can0  100   [6]  3B 00 A5 01 00 00
 (020.769793)  can0  101   [4]  0C 00 0A 00
 (020.771211)  can0  103   [2]  00 04
 (020.772432)  can0  1FF   [1]  55
 (020.778996)  can0  100   [6]  3B 00 A5 01 00 00
 (020.788891)  can0  100   [6]  3B 00 A5 01 00 00
 (020.798777)  can0  100   [6]  3A 00 A5 01 00 00
 (020.808696)  can0  100   [6]  3A 00 A4 01 00 00
 (020.818565)  can0  100   [6]  39 00 A3 01 00 00
 (020.819231)  can0  101   [4]  05 00 FA FF
 (020.820041)  can0  102   [6]  60 06 0D 06 2C 06
 (020.820583)  can0  103   [2]  00 04
 (020.821843)  can0  1FF   [1]  56
 (020.828451)  can0  100   [6]  39 00 A3 01 00 00
 (020.829253)  can0  102   [6]  60 06 0D 06 2C 06
 (020.838363)  can0  100   [6]  38 00 A3 01 00 00
 (020.848225)  can0  100   [6]  39 00 A2 01 00 00
 (020.858129)  can0  100   [6]  39 00 A2 01 00 00
 (020.868029)  can0  100   [6]  3A 00 A2 01 00 00
 (020.868704)  can0  101   [4]  05 00 04 00
 (020.870121)  can0  103   [2]  00 04
 (020.871368)  can0  1FF   [1]  57
 (020.877931)  can0  100   [6]  3A 00 A2 01 00 00
 (020.878728)  can0  102   [6]  60 06 0D 06 2C 06
 (020.887800)  can0  100   [6]  3A 00 A1 01 00 00
 (020.897701)  can0  100   [6]  39 00 A0 01 00 00
 (020.898521)  can0  102   [6]  60 06 0D 06 2C 06
 (020.907587)  can0  100   [6]  39 00 A1 01 00 00
 (020.908381)  can0  102   [6]  60 06 0D 06 2C 06
 (020.917488)  can0  100   [6]  38 00 A3 01 00 00
 (020.918159)  can0  101   [4]  08 00 04 00
 (020.918966)  can0  102   [6]  60 06 0D 06 2C 06
 (020.919510)  can0  103   [2]  00 04
 (020.920361)  can0  104   [6]  00 00 00 00 00 00
 (020.920811)  can0  1FF   [1]  58
 (020.927373)  can0  100   [6]  38 00 A4 01 00 00
 (020.947147)  can0  100   [6]  38 00 A2 01 00 00
 (020.957042)  can0  100   [6]  39 00 A0 01 00 00
 (020.957910)  can0  102   [6]  60 06 0D 06 2C 06
 (020.966926)  can0  100   [6]  3A 00 9F 01 00 00
 (020.967664)  can0  101   [4]  03 00 00 00
 (020.969139)  can0  103   [2]  00 04
 (020.970052)  can0  104   [6]  00 00 00 00 00 00
 (020.970565)  can0  1FF   [1]  59
 (020.976827)  can0  100   [6]  39 00 9F 01 00 00
 (020.977707)  can0  102   [6]  60 06 0D 06 2C 06
 (020.986727)  can0  100   [6]  38 00 A0 01 00 00
 (020.996608)  can0  100   [6]  38 00 A2 01 00 00
 (021.006531)  can0  100   [6]  38 00 A3 01 00 00
 (021.007379)  can0  102   [6]  60 06 0D 06 2C 06
 (021.016395)  can0  100   [6]  38 00 A4 01 00 00
 (021.017133)  can0  101   [4]  02 00 02 00
 (021.018675)  can0  103   [2]  00 04
 (021.019586)  can0  104   [6]  00 00 00 00 00 00
 (021.020100)  can0  1FF   [1]  5A
 (021.026284)  can0  100   [6]  37 00 A3 01 00 00
 (021.036184)  can0  100   [6]  38 00 A3 01 00 00
 (021.046064)  can0  100   [6]  38 00 A2 01 00 00
 (021.055958)  can0  100   [6]  38 00 A1 01 00 00
 (021.056822)  can0  102   [6]  60 06 0D 06 2C 06
 (021.066150)  can0  100   [6]  39 00 A0 01 00 00
 (021.068501)  can0  103   [2]  00 04
 (021.069408)  can0  104   [6]  00 00 00 00 00 00
 (021.069928)  can0  1FF   [1]  5B
 (021.075739)  can0  100   [6]  39 00 A0 01 00 00
 (021.076607)  can0  102   [6]  60 06 0D 06 2C 06
 (021.085624)  can0  100   [6]  38 00 A1 01 00 00
 (021.086505)  can0  102   [6]  60 06 0D 06 2C 06
 (021.095530)  can0  100   [6]  38 00 A3 01 00 00
 (021.096401)  can0  102   [6]  60 06 0D 06 2C 06
 (021.105426)  can0  100   [6]  37 00 A3 01 00 00
 (021.106312)  can0  102   [6]  60 06 0D 06 2C 06
 (021.115430)  can0  100   [6]  36 00 A3 01 00 00
 (021.116170)  can0  101   [4]  00 00 07 00
 (021.117054)  can0  102   [6]  60 06 0D 06 2C 06
 (021.117652)  can0  103   [2]  00 04
 (021.118568)  can0  104   [6]  00 00 00 00 00 00
 (021.119088)  can0  1FF   [1]  5C
 (021.125211)  can0  100   [6]  36 00 A2 01 00 00
 (021.135089)  can0  100   [6]  37 00 A3 01 00 00
 (021.145213)  can0  100   [6]  37 00 A2 01 00 00
 (021.154871)  can0  100   [6]  38 00 A0 01 00 00
 (021.164833)  can0  100   [6]  39 00 A0 01 00 00
 (021.166351)  can0  101   [4]  02 00 FE FF
 (021.168290)  can0  103   [2]  00 04
 (021.169687)  can0  1FF   [1]  5D
 (021.174640)  can0  100   [6]  39 00 A0 01 00 00
 (021.175508)  can0  102   [6]  60 06 0D 06 2C 06
 (021.185205)  can0  100   [6]  3A 00 A1 01 00 00
 (021.194523)  can0  100   [6]  39 00 A1 01 00 00
 (021.204361)  can0  100   [6]  39 00 A2 01 00 00
 (021.214991)  can0  100   [6]  38 00 A2 01 00 00
 (021.216110)  can0  101   [4]  03 00 07 00
 (021.216980)  can0  102   [6]  60 06 0D 06 2C 06
 (021.217595)  can0  103   [2]  00 04
 (021.218516)  can0  104   [6]  00 00 00 00 00 00
 (021.219033)  can0  1FF   [1]  5E
 (021.224372)  can0  100   [6]  38 00 A2 01 00 00
 (021.226040)  can0  102   [6]  60 06 0D 06 2C 06
 (021.234554)  can0  100   [6]  38 00 A1 01 00 00
 (021.235399)  can0  102   [6]  60 06 0D 06 2C 06
 (021.244375)  can0  100   [6]  39 00 A1 01 00 00
 (021.246027)  can0  102   [6]  60 06 0D 06 2C 06
 (021.254520)  can0  100   [6]  39 00 A2 01 00 00
 (021.255387)  can0  102   [6]  60 06 0D 06 2C 06
 (021.263693)  can0  100   [6]  38 00 A3 01 00 00
 (021.265051)  can0  101   [4]  0E 00 F6 FF
 (021.266320)  can0  102   [6]  60 06 0D 06 2C 06
 (021.267725)  can0  103   [2]  00 04
 (021.269038)  can0  104   [6]  00 00 00 00 00 00
 (021.269587)  can0  1FF   [1]  5F
 (021.273660)  can0  100   [6]  39 00 A2 01 00 00
 (021.275322)  can0  102   [6]  60 06 0D 06 2C 06
 (021.283658)  can0  100   [6]  39 00 A2 01 00 00
 (021.293677)  can0  100   [6]  39 00 A3 01 00 00
 (021.303660)  can0  100   [6]  39 00 A3 01 00 00
 (021.313665)  can0  100   [6]  39 00 A2 01 00 00
 (021.314801)  can0  101   [4]  09 00 00 00
 (021.317533)  can0  103   [2]  00 04
 (021.318447)  can0  104   [6]  00 00 00 00 00 00
 (021.318981)  can0  1FF   [1]  60
 (021.323663)  can0  100   [6]  39 00 A2 01 00 00
 (021.332905)  can0  100   [6]  39 00 A2 01 00 00
 (021.342790)  can0  100   [6]  3A 00 A3 01 00 00
 (021.352718)  can0  100   [6]  3A 00 A4 01 00 00
 (021.362568)  can0  100   [6]  3B 00 A4 01 00 00
 (021.363932)  can0  101   [4]  01 00 FF FF
 (021.689075)  can0  101   [4]  04 00 FD FF
 (021.691852)  can0  1FF   [1]  67
 (021.699453)  can0  100   [6]  3B 00 A1 01 00 00
 (021.708955)  can0  100   [6]  3A 00 A0 01 00 00
 (021.709647)  can0  101   [4]  08 00 FD FF
 (021.711064)  can0  103   [2]  00 04
 (021.712322)  can0  1FF   [1]  68
 (021.719188)  can0  100   [6]  39 00 9F 01 00 00
 (021.719992)  can0  102   [6]  60 06 0D 06 2C 06
 (021.728472)  can0  100   [6]  38 00 A0 01 00 00
 (021.729273)  can0  102   [6]  60 06 0D 06 2C 06
 (021.738365)  can0  100   [6]  38 00 A0 01 00 00
 (021.748240)  can0  100   [6]  3A 00 A0 01 00 00
 (021.749044)  can0  102   [6]  60 06 0D 06 2C 06
 (021.758147)  can0  100   [6]  3B 00 A0 01 00 00
 (021.758812)  can0  101   [4]  FA FF FC FF
 (021.760232)  can0  103   [2]  00 04
 (021.761423)  can0  1FF   [1]  69
