 (000.000000)  can0  100   [6]  2A 00 AF 01 00 00
 (000.009870)  can0  100   [6]  2A 00 B0 01 00 00
 (000.019723)  can0  100   [6]  29 00 AF 01 00 00
 (000.020444)  can0  101   [4]  F1 FF 00 00
 (000.021976)  can0  103   [2]  00 02
 (000.022885)  can0  104   [6]  00 00 00 00 00 00
 (000.023397)  can0  1FF   [1]  EE
 (000.029585)  can0  100   [6]  29 00 AF 01 00 00
 (000.039467)  can0  100   [6]  2A 00 AF 01 00 00
 (000.049315)  can0  100   [6]  2B 00 AE 01 00 00
 (000.059174)  can0  100   [6]  2B 00 AE 01 00 00
 (000.069044)  can0  100   [6]  2A 00 AF 01 00 00
 (000.069763)  can0  101   [4]  05 00 FE FF
 (000.681912)  can0  100   [6]  2D 00 AE 01 00 00
 (000.683578)  can0  100   [6]  2D 00 AE 01 00 00
 (000.690443)  can0  100   [6]  2E 00 B0 01 00 00
 (000.700287)  can0  100   [6]  2E 00 AF 01 00 00
 (000.710151)  can0  100   [6]  2E 00 AF 01 00 00
 (000.710822)  can0  101   [4]  00 00 ED FF
 (000.712226)  can0  103   [2]  00 02
 (000.713071)  can0  104   [6]  00 00 00 00 00 00
 (000.713526)  can0  1FF   [1]  FC
 (000.720020)  can0  100   [6]  2E 00 AE 01 00 00
 (000.729912)  can0  100   [6]  2E 00 AF 01 00 00
 (000.739742)  can0  100   [6]  2E 00 AF 01 00 00
 (000.749619)  can0  100   [6]  2E 00 AF 01 00 00
 (000.759476)  can0  100   [6]  2F 00 AE 01 00 00
 (000.760143)  can0  101   [4]  02 00 F5 FF
 (000.761527)  can0  103   [2]  00 02
 (000.762376)  can0  104   [6]  00 00 00 00 00 00
 (000.762828)  can0  1FF   [1]  FD
 (000.769351)  can0  100   [6]  2E 00 AE 01 00 00
 (000.779198)  can0  100   [6]  2E 00 AF 01 00 00
 (000.789067)  can0  100   [6]  2E 00 AE 01 00 00
 (000.798937)  can0  100   [6]  2E 00 AE 01 00 00
 (000.808797)  can0  100   [6]  2E 00 AF 01 00 00
 (000.809448)  can0  101   [4]  F5 FF 0B 00
 (000.810854)  can0  103   [2]  00 02
 (000.812105)  can0  1FF   [1]  FE
 (000.818652)  can0  100   [6]  2E 00 AF 01 00 00
 (000.828542)  can0  100   [6]  2E 00 B0 01 00 00
 (000.838406)  can0  100   [6]  2E 00 B0 01 00 00
 (000.848401)  can0  100   [6]  2E 00 B0 01 00 00
 (000.860493)  can0  103   [2]  00 02
 (000.861398)  can0  104   [6]  00 00 00 00 00 00
 (000.861924)  can0  1FF   [1]  FF
 (000.868002)  can0  100   [6]  2E 00 B0 01 00 00
 (000.877851)  can0  100   [6]  2E 00 AF 01 00 00
 (000.887705)  can0  100   [6]  2E 00 AF 01 00 00
 (000.897568)  can0  100   [6]  2E 00 AF 01 00 00
 (000.907428)  can0  100   [6]  2E 00 AF 01 00 00
 (000.908149)  can0  101   [4]  01 00 FC FF
 (000.909681)  can0  103   [2]  00 02
 (000.910590)  can0  104   [6]  00 00 00 00 00 00
 (000.911116)  can0  1FF   [1]  00
 (000.917299)  can0  100   [6]  2E 00 AF 01 00 00
 (000.927192)  can0  100   [6]  2E 00 B0 01 00 00
 (000.937037)  can0  100   [6]  2F 00 B0 01 00 00
 (000.937922)  can0  102   [6]  60 06 0D 06 2C 06
 (000.946928)  can0  100   [6]  2E 00 B0 01 00 00
 (000.947797)  can0  102   [6]  60 06 0D 06 2C 06
 (000.956799)  can0  100   [6]  2E 00 B0 01 00 00
 (000.957522)  can0  101   [4]  01 00 FE FF
 (000.959053)  can0  103   [2]  00 02
 (000.959962)  can0  104   [6]  00 00 00 00 00 00
 (000.960490)  can0  1FF   [1]  01
 (000.966696)  can0  100   [6]  2E 00 B0 01 00 00
 (000.976504)  can0  100   [6]  2E 00 B1 01 00 00
 (000.986396)  can0  100   [6]  2D 00 B0 01 00 00
 (000.996482)  can0  100   [6]  2D 00 B0 01 00 00
 (001.006134)  can0  100   [6]  2D 00 B0 01 00 00
 (001.006876)  can0  101   [4]  02 00 FF FF
 (001.008422)  can0  103   [2]  00 02
 (001.009315)  can0  104   [6]  00 00 00 00 00 00
 (001.009834)  can0  1FF   [1]  02
 (001.016012)  can0  100   [6]  2C 00 B0 01 00 00
 (001.016877)  can0  102   [6]  60 06 0D 06 2C 06
 (001.025870)  can0  100   [6]  2B 00 B0 01 00 00
 (001.035729)  can0  100   [6]  2A 00 B0 01 00 00
 (001.045600)  can0  100   [6]  2A 00 B0 01 00 00
 (001.055469)  can0  100   [6]  2A 00 B0 01 00 00
 (001.056204)  can0  101   [4]  FB FF FF FF
 (001.057739)  can0  103   [2]  00 02
 (001.058645)  can0  104   [6]  00 00 00 00 00 00
 (001.059165)  can0  1FF   [1]  03
 (001.065330)  can0  100   [6]  2A 00 B1 01 00 00
 (001.066198)  can0  102   [6]  60 06 0D 06 2C 06
 (001.075200)  can0  100   [6]  2A 00 B1 01 00 00
 (001.085067)  can0  100   [6]  2B 00 B2 01 00 00
 (001.668484)  can0  100   [6]  2B 00 AF 01 00 00
 (001.670172)  can0  100   [6]  2B 00 AF 01 00 00
 (001.677000)  can0  100   [6]  2B 00 AF 01 00 00
 (001.686871)  can0  100   [6]  2B 00 AE 01 00 00
 (001.696715)  can0  100   [6]  2B 00 AE 01 00 00
 (001.698863)  can0  103   [2]  00 02
 (001.699716)  can0  104   [6]  00 00 00 00 00 00
 (001.706579)  can0  100   [6]  2B 00 AE 01 00 00
 (001.716461)  can0  100   [6]  2A 00 AF 01 00 00
 (001.726329)  can0  100   [6]  2B 00 AF 01 00 00
 (001.736193)  can0  100   [6]  2C 00 AF 01 00 00
 (001.746053)  can0  100   [6]  2B 00 AE 01 00 00
 (001.746722)  can0  101   [4]  FE FF 00 00
 (001.748126)  can0  103   [2]  00 02
 (001.748987)  can0  104   [6]  00 00 00 00 00 00
 (001.749420)  can0  1FF   [1]  11
 (001.755907)  can0  100   [6]  2B 00 AE 01 00 00
 (001.765794)  can0  100   [6]  2B 00 AE 01 00 00
 (001.775638)  can0  100   [6]  2B 00 AF 01 00 00
 (001.785490)  can0  100   [6]  2A 00 AF 01 00 00
 (001.795351)  can0  100   [6]  2B 00 AE 01 00 00
 (001.798453)  can0  104   [6]  00 00 00 00 00 00
 (001.798967)  can0  1FF   [1]  12
 (001.805214)  can0  100   [6]  2B 00 AE 01 00 00
 (001.815082)  can0  100   [6]  2B 00 AE 01 00 00
 (001.824943)  can0  100   [6]  2A 00 AE 01 00 00
 (001.834806)  can0  100   [6]  2A 00 AE 01 00 00
 (001.844671)  can0  100   [6]  2B 00 AD 01 00 00
 (001.845413)  can0  101   [4]  00 00 FF FF
 (001.847037)  can0  103   [2]  00 02
 (001.847860)  can0  104   [6]  00 00 00 00 00 00
 (001.848398)  can0  1FF   [1]  13
 (001.854541)  can0  100   [6]  2C 00 AE 01 00 00
 (001.864411)  can0  100   [6]  2C 00 AE 01 00 00
 (001.874276)  can0  100   [6]  2B 00 AF 01 00 00
 (001.884145)  can0  100   [6]  2B 00 AF 01 00 00
 (001.893999)  can0  100   [6]  2B 00 AF 01 00 00
 (001.894715)  can0  101   [4]  05 00 F4 FF
 (001.896250)  can0  103   [2]  00 02
 (001.897158)  can0  104   [6]  00 00 00 00 00 00
 (001.897675)  can0  1FF   [1]  14
 (001.903869)  can0  100   [6]  2C 00 AF 01 00 00
 (001.913732)  can0  100   [6]  2C 00 AD 01 00 00
 (001.923589)  can0  100   [6]  2B 00 AE 01 00 00
 (001.933452)  can0  100   [6]  2B 00 AE 01 00 00
 (001.943305)  can0  100   [6]  2B 00 AE 01 00 00
 (001.944038)  can0  101   [4]  FD FF F7 FF
 (001.946878)  can0  1FF   [1]  15
 (001.953164)  can0  100   [6]  2B 00 AD 01 00 00
 (001.963041)  can0  100   [6]  2C 00 AD 01 00 00
 (001.972888)  can0  100   [6]  2C 00 AE 01 00 00
 (002.654876)  can0  100   [6]  2D 00 AE 01 00 00
 (002.656545)  can0  100   [6]  2D 00 AF 01 00 00
 (002.663392)  can0  100   [6]  2D 00 AF 01 00 00
 (002.673257)  can0  100   [6]  2E 00 AF 01 00 00
 (002.683150)  can0  100   [6]  2E 00 B0 01 00 00
 (002.683817)  can0  101   [4]  08 00 05 00
 (002.685220)  can0  103   [2]  00 02
 (002.686067)  can0  104   [6]  00 00 00 00 00 00
 (002.686516)  can0  1FF   [1]  24
 (002.693009)  can0  100   [6]  2D 00 B0 01 00 00
 (002.702880)  can0  100   [6]  2D 00 B0 01 00 00
 (002.712746)  can0  100   [6]  2E 00 B0 01 00 00
 (002.722623)  can0  100   [6]  2E 00 B0 01 00 00
 (002.732469)  can0  100   [6]  2D 00 AF 01 00 00
 (002.733139)  can0  101   [4]  F6 FF 00 00
 (002.734543)  can0  103   [2]  00 02
 (002.735386)  can0  104   [6]  00 00 00 00 00 00
 (002.735852)  can0  1FF   [1]  25
 (002.742350)  can0  100   [6]  2D 00 B0 01 00 00
 (002.752228)  can0  100   [6]  2C 00 B0 01 00 00
 (002.753029)  can0  102   [6]  60 06 0D 06 2C 06
 (002.762084)  can0  100   [6]  2D 00 B0 01 00 00
 (002.771943)  can0  100   [6]  2C 00 AF 01 00 00
 (002.781810)  can0  100   [6]  2C 00 AF 01 00 00
 (002.782489)  can0  101   [4]  00 00 00 00
 (002.783892)  can0  103   [2]  00 02
 (002.784739)  can0  104   [6]  00 00 00 00 00 00
 (002.785188)  can0  1FF   [1]  26
 (002.791684)  can0  100   [6]  2C 00 B0 01 00 00
 (002.801535)  can0  100   [6]  2B 00 AF 01 00 00
 (002.811403)  can0  100   [6]  2B 00 AF 01 00 00
 (002.821270)  can0  100   [6]  2B 00 AF 01 00 00
 (002.831137)  can0  100   [6]  2B 00 AF 01 00 00
 (002.831807)  can0  101   [4]  F7 FF 04 00
 (002.833213)  can0  103   [2]  00 02
 (002.834066)  can0  104   [6]  00 00 00 00 00 00
 (002.834507)  can0  1FF   [1]  27
 (002.841009)  can0  100   [6]  2B 00 AF 01 00 00
 (002.850868)  can0  100   [6]  2B 00 AE 01 00 00
 (002.860739)  can0  100   [6]  2B 00 AE 01 00 00
 (002.870592)  can0  100   [6]  2B 00 AE 01 00 00
 (002.880466)  can0  100   [6]  2B 00 AE 01 00 00
 (002.881199)  can0  101   [4]  FB FF FE FF
 (002.882738)  can0  103   [2]  00 02
 (002.883657)  can0  104   [6]  00 00 00 00 00 00
 (002.884147)  can0  1FF   [1]  28
 (002.890319)  can0  100   [6]  2B 00 AE 01 00 00
 (002.900187)  can0  100   [6]  2A 00 AE 01 00 00
 (002.910057)  can0  100   [6]  2B 00 AF 01 00 00
 (002.919925)  can0  100   [6]  2C 00 AF 01 00 00
 (002.929778)  can0  100   [6]  2B 00 AF 01 00 00
 (002.930512)  can0  101   [4]  FF FF 03 00
 (002.932049)  can0  103   [2]  00 02
 (002.932957)  can0  104   [6]  00 00 00 00 00 00
 (002.933467)  can0  1FF   [1]  29
 (002.939660)  can0  100   [6]  2C 00 B0 01 00 00
 (002.949511)  can0  100   [6]  2B 00 B1 01 00 00
 (002.959372)  can0  100   [6]  2A 00 B1 01 00 00
 (002.969257)  can0  100   [6]  2A 00 B1 01 00 00
 (002.979118)  can0  100   [6]  29 00 B0 01 00 00
 (002.979855)  can0  101   [4]  00 00 0E 00
 (002.981390)  can0  103   [2]  00 02
 (002.982313)  can0  104   [6]  00 00 00 00 00 00
 (002.982821)  can0  1FF   [1]  2A
 (002.988975)  can0  100   [6]  2A 00 B0 01 00 00
 (002.998842)  can0  100   [6]  2A 00 B0 01 00 00
 (003.008714)  can0  100   [6]  2B 00 B0 01 00 00
 (003.018573)  can0  100   [6]  2A 00 B0 01 00 00
 (003.028439)  can0  100   [6]  2A 00 B0 01 00 00
 (003.029179)  can0  101   [4]  00 00 00 00
 (003.030713)  can0  103   [2]  00 02
 (003.031623)  can0  104   [6]  00 00 00 00 00 00
 (003.032150)  can0  1FF   [1]  2B
 (003.038301)  can0  100   [6]  2A 00 B0 01 00 00
 (003.048169)  can0  100   [6]  29 00 B0 01 00 00
 (003.058058)  can0  100   [6]  2A 00 B0 01 00 00
 (003.641434)  can0  100   [6]  2A 00 AF 01 00 00
 (003.643095)  can0  100   [6]  2A 00 AF 01 00 00
 (003.649948)  can0  100   [6]  2A 00 AF 01 00 00
 (003.659817)  can0  100   [6]  2B 00 AF 01 00 00
 (003.669685)  can0  100   [6]  2C 00 AF 01 00 00
 (003.670344)  can0  101   [4]  06 00 ED FF
 (003.671748)  can0  103   [2]  00 02
 (003.672595)  can0  104   [6]  00 00 00 00 00 00
 (003.673043)  can0  1FF   [1]  38
 (003.679566)  can0  100   [6]  2C 00 B0 01 00 00
 (003.689434)  can0  100   [6]  2C 00 B0 01 00 00
 (003.699297)  can0  100   [6]  2D 00 B0 01 00 00
 (003.709146)  can0  100   [6]  2D 00 B0 01 00 00
 (003.719021)  can0  100   [6]  2C 00 B0 01 00 00
 (003.721154)  can0  103   [2]  00 02
 (003.722000)  can0  104   [6]  00 00 00 00 00 00
 (003.722448)  can0  1FF   [1]  39
 (003.728897)  can0  100   [6]  2C 00 B0 01 00 00
 (003.738730)  can0  100   [6]  2B 00 B1 01 00 00
 (003.748650)  can0  100   [6]  2B 00 B1 01 00 00
 (003.758453)  can0  100   [6]  2B 00 B1 01 00 00
 (003.768334)  can0  100   [6]  2A 00 B1 01 00 00
 (003.768987)  can0  101   [4]  02 00 FE FF
 (003.771298)  can0  104   [6]  00 00 00 00 00 00
 (003.771745)  can0  1FF   [1]  3A
 (003.778179)  can0  100   [6]  2B 00 B2 01 00 00
 (003.788059)  can0  100   [6]  2C 00 B2 01 00 00
 (003.797940)  can0  100   [6]  2C 00 B2 01 00 00
 (003.807785)  can0  100   [6]  2C 00 B3 01 00 00
 (003.817635)  can0  100   [6]  2D 00 B2 01 00 00
 (003.818365)  can0  101   [4]  00 00 06 00
 (003.819896)  can0  103   [2]  00 02
 (003.820803)  can0  104   [6]  00 00 00 00 00 00
 (003.821323)  can0  1FF   [1]  3B
 (003.827492)  can0  100   [6]  2D 00 B2 01 00 00
 (003.837368)  can0  100   [6]  2C 00 B2 01 00 00
 (003.847246)  can0  100   [6]  2C 00 B1 01 00 00
 (003.857113)  can0  100   [6]  2C 00 B1 01 00 00
 (003.866953)  can0  100   [6]  2C 00 B2 01 00 00
 (003.867701)  can0  101   [4]  0F 00 00 00
 (003.869260)  can0  103   [2]  00 02
 (003.870157)  can0  104   [6]  00 00 00 00 00 00
 (003.870672)  can0  1FF   [1]  3C
 (003.876825)  can0  100   [6]  2D 00 B1 01 00 00
 (003.886843)  can0  100   [6]  2D 00 B2 01 00 00
 (003.896565)  can0  100   [6]  2D 00 B1 01 00 00
 (003.906419)  can0  100   [6]  2D 00 B1 01 00 00
 (003.916302)  can0  100   [6]  2C 00 B1 01 00 00
 (003.917030)  can0  101   [4]  05 00 0D 00
 (003.918562)  can0  103   [2]  00 02
 (003.919472)  can0  104   [6]  00 00 00 00 00 00
 (003.919992)  can0  1FF   [1]  3D
 (003.926168)  can0  100   [6]  2C 00 B1 01 00 00
 (003.936041)  can0  100   [6]  2C 00 B0 01 00 00
 (003.945904)  can0  100   [6]  2C 00 B0 01 00 00
 (003.955772)  can0  100   [6]  2C 00 B0 01 00 00
 (003.965611)  can0  100   [6]  2B 00 B1 01 00 00
 (003.966344)  can0  101   [4]  02 00 01 00
 (003.967874)  can0  103   [2]  00 02
 (003.968783)  can0  104   [6]  00 00 00 00 00 00
 (003.969306)  can0  1FF   [1]  3E
 (003.975477)  can0  100   [6]  2B 00 B1 01 00 00
 (003.985375)  can0  100   [6]  2C 00 B0 01 00 00
 (003.995251)  can0  100   [6]  2B 00 B0 01 00 00
 (004.628011)  can0  100   [6]  2C 00 B0 01 00 00
 (004.629677)  can0  100   [6]  2B 00 B1 01 00 00
 (004.636502)  can0  100   [6]  2A 00 B1 01 00 00
 (004.646365)  can0  100   [6]  2A 00 B1 01 00 00
 (004.656234)  can0  100   [6]  2B 00 B1 01 00 00
 (004.656905)  can0  101   [4]  F9 FF 05 00
 (004.658309)  can0  103   [2]  00 02
 (004.659158)  can0  104   [6]  00 00 00 00 00 00
 (004.659613)  can0  1FF   [1]  4C
 (004.666104)  can0  100   [6]  2B 00 B2 01 00 00
 (004.675976)  can0  100   [6]  2B 00 B2 01 00 00
 (004.685840)  can0  100   [6]  2B 00 B1 01 00 00
 (004.695696)  can0  100   [6]  2B 00 B1 01 00 00
 (004.705593)  can0  100   [6]  2B 00 B1 01 00 00
 (004.707682)  can0  103   [2]  00 02
 (004.708529)  can0  104   [6]  00 00 00 00 00 00
 (004.708980)  can0  1FF   [1]  4D
 (004.715424)  can0  100   [6]  2B 00 B2 01 00 00
 (004.725297)  can0  100   [6]  2C 00 B2 01 00 00
 (004.735154)  can0  100   [6]  2B 00 B2 01 00 00
 (004.745020)  can0  100   [6]  2B 00 B2 01 00 00
 (004.754911)  can0  100   [6]  2C 00 B2 01 00 00
 (004.755629)  can0  101   [4]  FB FF 02 00
 (004.756966)  can0  103   [2]  00 02
 (004.757819)  can0  104   [6]  00 00 00 00 00 00
 (004.758283)  can0  1FF   [1]  4E
 (004.764763)  can0  100   [6]  2C 00 B2 01 00 00
 (004.774641)  can0  100   [6]  2C 00 B1 01 00 00
 (004.784513)  can0  100   [6]  2C 00 B1 01 00 00
 (004.794361)  can0  100   [6]  2C 00 B1 01 00 00
 (004.804204)  can0  100   [6]  2B 00 B1 01 00 00
 (004.804945)  can0  101   [4]  04 00 03 00
 (004.806474)  can0  103   [2]  00 02
 (004.807384)  can0  104   [6]  00 00 00 00 00 00
 (004.807895)  can0  1FF   [1]  4F
 (004.814094)  can0  100   [6]  2C 00 B0 01 00 00
 (004.823945)  can0  100   [6]  2B 00 AF 01 00 00
 (004.833802)  can0  100   [6]  2B 00 AF 01 00 00
 (004.843657)  can0  100   [6]  2B 00 AE 01 00 00
 (004.853526)  can0  100   [6]  2B 00 AD 01 00 00
 (004.855702)  can0  103   [2]  00 02
 (004.856610)  can0  104   [6]  00 00 00 00 00 00
 (004.857139)  can0  1FF   [1]  50
 (004.863392)  can0  100   [6]  2B 00 AE 01 00 00
 (004.873266)  can0  100   [6]  2B 00 AE 01 00 00
 (004.883155)  can0  100   [6]  2C 00 AD 01 00 00
 (004.893002)  can0  100   [6]  2C 00 AD 01 00 00
 (004.902860)  can0  100   [6]  2B 00 AD 01 00 00
 (004.903600)  can0  101   [4]  FF FF 00 00
 (004.905128)  can0  103   [2]  00 02
 (004.906042)  can0  104   [6]  00 00 00 00 00 00
 (004.906553)  can0  1FF   [1]  51
 (004.912735)  can0  100   [6]  2C 00 AE 01 00 00
 (004.922593)  can0  100   [6]  2B 00 AE 01 00 00
 (004.932484)  can0  100   [6]  2B 00 AF 01 00 00
 (004.942318)  can0  100   [6]  2B 00 AE 01 00 00
 (004.952174)  can0  100   [6]  2B 00 AE 01 00 00
 (004.952906)  can0  101   [4]  F4 FF FB FF
 (004.955422)  can0  104   [6]  00 00 00 00 00 00
 (004.955919)  can0  1FF   [1]  52
 (004.962036)  can0  100   [6]  2B 00 AE 01 00 00
 (004.971911)  can0  100   [6]  2C 00 AE 01 00 00
 (005.614382)  can0  100   [6]  2A 00 B1 01 00 00
 (005.616047)  can0  100   [6]  2A 00 B1 01 00 00
 (005.622898)  can0  100   [6]  2A 00 B2 01 00 00
 (005.632776)  can0  100   [6]  2A 00 B2 01 00 00
 (005.642628)  can0  100   [6]  2A 00 B2 01 00 00
 (005.643309)  can0  101   [4]  FE FF FF FF
 (005.644710)  can0  103   [2]  00 02
 (005.645565)  can0  104   [6]  00 00 00 00 00 00
 (005.646013)  can0  1FF   [1]  60
 (005.652495)  can0  100   [6]  2B 00 B1 01 00 00
 (005.662356)  can0  100   [6]  2B 00 B1 01 00 00
 (005.672214)  can0  100   [6]  2A 00 B1 01 00 00
 (005.682091)  can0  100   [6]  2B 00 B0 01 00 00
 (005.691946)  can0  100   [6]  2A 00 B0 01 00 00
 (005.692616)  can0  101   [4]  03 00 00 00
 (005.694019)  can0  103   [2]  00 02
 (005.694864)  can0  104   [6]  00 00 00 00 00 00
 (005.695322)  can0  1FF   [1]  61
 (005.701817)  can0  100   [6]  2B 00 B0 01 00 00
 (005.711685)  can0  100   [6]  2C 00 B0 01 00 00
 (005.731396)  can0  100   [6]  2B 00 AF 01 00 00
 (005.741281)  can0  100   [6]  2B 00 AF 01 00 00
 (005.741939)  can0  101   [4]  FE FF FD FF
 (005.743341)  can0  103   [2]  00 02
 (005.744188)  can0  104   [6]  00 00 00 00 00 00
 (005.744646)  can0  1FF   [1]  62
 (005.751118)  can0  100   [6]  2B 00 AE 01 00 00
 (005.760987)  can0  100   [6]  2A 00 AF 01 00 00
 (005.770845)  can0  100   [6]  2B 00 AF 01 00 00
 (005.780698)  can0  100   [6]  2B 00 AE 01 00 00
 (005.790560)  can0  100   [6]  2B 00 AE 01 00 00
 (005.791311)  can0  101   [4]  00 00 FD FF
 (005.792840)  can0  103   [2]  00 02
 (005.793750)  can0  104   [6]  00 00 00 00 00 00
 (005.794287)  can0  1FF   [1]  63
 (005.800427)  can0  100   [6]  2B 00 AE 01 00 00
 (005.810304)  can0  100   [6]  2B 00 AF 01 00 00
 (005.820185)  can0  100   [6]  2C 00 AF 01 00 00
 (005.830036)  can0  100   [6]  2B 00 B0 01 00 00
 (005.839893)  can0  100   [6]  2B 00 B0 01 00 00
 (005.840614)  can0  101   [4]  F6 FF FF FF
 (005.842146)  can0  103   [2]  00 02
 (005.843055)  can0  104   [6]  00 00 00 00 00 00
 (005.843567)  can0  1FF   [1]  64
 (005.849788)  can0  100   [6]  2C 00 B0 01 00 00
 (005.859622)  can0  100   [6]  2B 00 B0 01 00 00
 (005.869475)  can0  100   [6]  2A 00 B1 01 00 00
 (005.879337)  can0  100   [6]  2A 00 B1 01 00 00
 (005.889201)  can0  100   [6]  2B 00 B1 01 00 00
 (005.889933)  can0  101   [4]  00 00 FE FF
 (005.891464)  can0  103   [2]  00 02
 (005.892374)  can0  104   [6]  00 00 00 00 00 00
 (005.892899)  can0  1FF   [1]  65
 (005.899061)  can0  100   [6]  2B 00 B2 01 00 00
 (005.908931)  can0  100   [6]  2C 00 B2 01 00 00
 (005.918813)  can0  100   [6]  2C 00 B2 01 00 00
 (005.928665)  can0  100   [6]  2C 00 B2 01 00 00
 (005.938547)  can0  100   [6]  2C 00 B2 01 00 00
 (005.939259)  can0  101   [4]  03 00 FD FF
 (005.940789)  can0  103   [2]  00 02
 (005.941698)  can0  104   [6]  00 00 00 00 00 00
 (005.942219)  can0  1FF   [1]  66
 (005.948404)  can0  100   [6]  2C 00 B1 01 00 00
 (005.958268)  can0  100   [6]  2C 00 B1 01 00 00
 (005.968135)  can0  100   [6]  2C 00 B1 01 00 00
 (005.977998)  can0  100   [6]  2C 00 B1 01 00 00
 (005.987864)  can0  100   [6]  2C 00 B1 01 00 00
 (005.988596)  can0  101   [4]  05 00 09 00
 (006.600687)  can0  100   [6]  2C 00 B0 01 00 00
 (006.602368)  can0  100   [6]  2B 00 B0 01 00 00
 (006.609191)  can0  100   [6]  2B 00 B0 01 00 00
 (006.619053)  can0  100   [6]  2B 00 B0 01 00 00
 (006.628907)  can0  100   [6]  2A 00 B0 01 00 00
 (006.631036)  can0  103   [2]  00 02
 (006.631885)  can0  104   [6]  00 00 00 00 00 00
 (006.632338)  can0  1FF   [1]  74
 (006.638775)  can0  100   [6]  2A 00 B0 01 00 00
 (006.648631)  can0  100   [6]  2A 00 B1 01 00 00
 (006.658490)  can0  100   [6]  2A 00 B1 01 00 00
 (006.668353)  can0  100   [6]  2A 00 B1 01 00 00
 (006.678205)  can0  100   [6]  2A 00 B1 01 00 00
 (006.678863)  can0  101   [4]  01 00 FE FF
 (006.680269)  can0  103   [2]  00 02
 (006.681116)  can0  104   [6]  00 00 00 00 00 00
 (006.681569)  can0  1FF   [1]  75
 (006.688062)  can0  100   [6]  2A 00 B1 01 00 00
 (006.697930)  can0  100   [6]  2A 00 B1 01 00 00
 (006.707789)  can0  100   [6]  2B 00 B1 01 00 00
 (006.717653)  can0  100   [6]  2A 00 B1 01 00 00
 (006.727517)  can0  100   [6]  2A 00 B1 01 00 00
 (006.729512)  can0  103   [2]  00 02
 (006.730357)  can0  104   [6]  00 00 00 00 00 00
 (006.730805)  can0  1FF   [1]  76
 (006.737383)  can0  100   [6]  2B 00 B1 01 00 00
 (006.747250)  can0  100   [6]  2B 00 B2 01 00 00
 (006.757109)  can0  100   [6]  2B 00 B2 01 00 00
 (006.766964)  can0  100   [6]  2B 00 B3 01 00 00
 (006.776827)  can0  100   [6]  2B 00 B2 01 00 00
 (006.779139)  can0  103   [2]  00 02
 (006.780049)  can0  104   [6]  00 00 00 00 00 00
 (006.780566)  can0  1FF   [1]  77
 (006.786695)  can0  100   [6]  2B 00 B2 01 00 00
 (006.796565)  can0  100   [6]  2B 00 B2 01 00 00
 (006.806459)  can0  100   [6]  2C 00 B1 01 00 00
 (006.816324)  can0  100   [6]  2C 00 B1 01 00 00
 (006.826159)  can0  100   [6]  2D 00 B1 01 00 00
 (006.826892)  can0  101   [4]  00 00 07 00
 (006.828431)  can0  103   [2]  00 02
 (006.829337)  can0  104   [6]  00 00 00 00 00 00
 (006.829846)  can0  1FF   [1]  78
 (006.836020)  can0  100   [6]  2C 00 B2 01 00 00
 (006.845878)  can0  100   [6]  2D 00 B2 01 00 00
 (006.846749)  can0  102   [6]  60 06 0D 06 2C 06
 (006.855770)  can0  100   [6]  2C 00 B1 01 00 00
 (006.865612)  can0  100   [6]  2D 00 B1 01 00 00
 (006.875493)  can0  100   [6]  2D 00 B0 01 00 00
 (006.876213)  can0  101   [4]  09 00 06 00
 (006.877742)  can0  103   [2]  00 02
 (006.878650)  can0  104   [6]  00 00 00 00 00 00
 (006.879162)  can0  1FF   [1]  79
 (006.885429)  can0  100   [6]  2D 00 B1 01 00 00
 (006.895221)  can0  100   [6]  2D 00 B1 01 00 00
 (006.905086)  can0  100   [6]  2C 00 B1 01 00 00
 (006.905950)  can0  102   [6]  60 06 0D 06 2C 06
 (006.914928)  can0  100   [6]  2D 00 B1 01 00 00
 (006.924790)  can0  100   [6]  2D 00 B1 01 00 00
 (006.925512)  can0  101   [4]  0D 00 F7 FF
 (006.927043)  can0  103   [2]  00 02
 (006.927952)  can0  104   [6]  00 00 00 00 00 00
 (006.928464)  can0  1FF   [1]  7A
 (006.934659)  can0  100   [6]  2D 00 B1 01 00 00
 (006.944521)  can0  100   [6]  2D 00 B1 01 00 00
 (006.954386)  can0  100   [6]  2E 00 B1 01 00 00
 (006.964249)  can0  100   [6]  2E 00 B1 01 00 00
 (006.974122)  can0  100   [6]  2D 00 B0 01 00 00
 (006.974868)  can0  101   [4]  00 00 FF FF
 (007.587071)  can0  100   [6]  2C 00 AC 01 00 00
 (007.588741)  can0  100   [6]  2C 00 AC 01 00 00
 (007.595581)  can0  100   [6]  2C 00 AC 01 00 00
 (007.605452)  can0  100   [6]  2C 00 AC 01 00 00
 (007.615313)  can0  100   [6]  2B 00 AC 01 00 00
 (007.615981)  can0  101   [4]  FC FF FB FF
 (007.616788)  can0  102   [6]  60 06 0D 06 2C 06
 (007.617322)  can0  103   [2]  00 02
 (007.618169)  can0  104   [6]  00 00 00 00 00 00
 (007.618634)  can0  1FF   [1]  88
 (007.625184)  can0  100   [6]  2B 00 AC 01 00 00
 (007.625990)  can0  102   [6]  60 06 0D 06 2C 06
 (007.635060)  can0  100   [6]  2C 00 AC 01 00 00
 (007.635863)  can0  102   [6]  60 06 0D 06 2C 06
 (007.644930)  can0  100   [6]  2C 00 AB 01 00 00
 (007.654818)  can0  100   [6]  2B 00 AA 01 00 00
 (007.664681)  can0  100   [6]  2B 00 AB 01 00 00
 (007.666803)  can0  103   [2]  00 02
 (007.667686)  can0  104   [6]  00 00 00 00 00 00
 (007.668108)  can0  1FF   [1]  89
 (007.674541)  can0  100   [6]  2C 00 AB 01 00 00
 (007.684405)  can0  100   [6]  2B 00 AC 01 00 00
 (007.694272)  can0  100   [6]  2B 00 AC 01 00 00
 (007.704141)  can0  100   [6]  2B 00 AC 01 00 00
 (007.714009)  can0  100   [6]  2B 00 AD 01 00 00
 (007.714681)  can0  101   [4]  FF FF FE FF
 (007.716085)  can0  103   [2]  00 02
 (007.716930)  can0  104   [6]  00 00 00 00 00 00
 (007.717387)  can0  1FF   [1]  8A
 (007.723868)  can0  100   [6]  2B 00 AD 01 00 00
 (007.733734)  can0  100   [6]  2B 00 AD 01 00 00
 (007.743599)  can0  100   [6]  2B 00 AE 01 00 00
 (007.753466)  can0  100   [6]  2B 00 AE 01 00 00
 (007.763330)  can0  100   [6]  2B 00 AE 01 00 00
 (007.764012)  can0  101   [4]  00 00 11 00
 (007.765416)  can0  103   [2]  00 02
 (007.766287)  can0  104   [6]  00 00 00 00 00 00
 (007.766707)  can0  1FF   [1]  8B
 (007.773270)  can0  100   [6]  2B 00 AE 01 00 00
 (007.783068)  can0  100   [6]  2B 00 AE 01 00 00
 (007.802797)  can0  100   [6]  2B 00 AF 01 00 00
 (007.812665)  can0  100   [6]  2C 00 AF 01 00 00
 (007.813391)  can0  101   [4]  FF FF 08 00
 (007.814926)  can0  103   [2]  00 02
 (007.815838)  can0  104   [6]  00 00 00 00 00 00
 (007.816346)  can0  1FF   [1]  8C
 (007.822517)  can0  100   [6]  2B 00 AF 01 00 00
 (007.832378)  can0  100   [6]  2B 00 AE 01 00 00
 (007.842247)  can0  100   [6]  2C 00 AE 01 00 00
 (007.852104)  can0  100   [6]  2B 00 AD 01 00 00
 (007.861969)  can0  100   [6]  2B 00 AD 01 00 00
 (007.862708)  can0  101   [4]  FF FF 04 00
 (007.864244)  can0  103   [2]  00 02
 (007.865152)  can0  104   [6]  00 00 00 00 00 00
 (007.865666)  can0  1FF   [1]  8D
 (007.871841)  can0  100   [6]  2C 00 AD 01 00 00
 (007.881711)  can0  100   [6]  2C 00 AD 01 00 00
 (007.882642)  can0  102   [6]  60 06 0D 06 2C 06
 (007.891570)  can0  100   [6]  2B 00 AD 01 00 00
 (007.892437)  can0  102   [6]  60 06 0D 06 2C 06
 (007.901441)  can0  100   [6]  2B 00 AE 01 00 00
 (007.911304)  can0  100   [6]  2B 00 AE 01 00 00
 (007.912039)  can0  101   [4]  F9 FF 05 00
 (007.913588)  can0  103   [2]  00 02
 (007.914487)  can0  104   [6]  00 00 00 00 00 00
 (007.915003)  can0  1FF   [1]  8E
 (007.921174)  can0  100   [6]  2B 00 AD 01 00 00
 (007.922038)  can0  102   [6]  60 06 0D 06 2C 06
 (007.931055)  can0  100   [6]  2C 00 AE 01 00 00
 (007.931923)  can0  102   [6]  60 06 0D 06 2C 06
 (007.940923)  can0  100   [6]  2C 00 AE 01 00 00
 (007.950810)  can0  100   [6]  2C 00 AD 01 00 00
 (007.960648)  can0  100   [6]  2D 00 AD 01 00 00
 (007.961381)  can0  101   [4]  00 00 FE FF
 (007.962250)  can0  102   [6]  60 06 0D 06 2C 06
 (007.962850)  can0  103   [2]  00 02
 (007.963774)  can0  104   [6]  00 00 00 00 00 00
 (007.964287)  can0  1FF   [1]  8F
 (007.970523)  can0  100   [6]  2D 00 AD 01 00 00
 (007.980384)  can0  100   [6]  2D 00 AD 01 00 00
 (007.981280)  can0  102   [6]  60 06 0D 06 2C 06
 (007.990257)  can0  100   [6]  2D 00 AD 01 00 00
 (008.000124)  can0  100   [6]  2D 00 AC 01 00 00
 (008.009995)  can0  100   [6]  2D 00 AC 01 00 00
 (008.010747)  can0  101   [4]  F7 FF 00 00
 (008.012265)  can0  103   [2]  00 02
 (008.013174)  can0  104   [6]  00 00 00 00 00 00
 (008.013700)  can0  1FF   [1]  90
 (008.019860)  can0  100   [6]  2D 00 AD 01 00 00
 (008.029724)  can0  100   [6]  2D 00 AD 01 00 00
 (008.039587)  can0  100   [6]  2D 00 AD 01 00 00
 (008.049455)  can0  100   [6]  2D 00 AD 01 00 00
 (008.059320)  can0  100   [6]  2C 00 AE 01 00 00
 (008.060081)  can0  101   [4]  06 00 00 00
 (008.061601)  can0  103   [2]  00 02
 (008.062509)  can0  104   [6]  00 00 00 00 00 00
 (008.063022)  can0  1FF   [1]  91
 (008.069189)  can0  100   [6]  2C 00 AE 01 00 00
 (008.079067)  can0  100   [6]  2C 00 AE 01 00 00
 (008.079924)  can0  102   [6]  60 06 0D 06 2C 06
 (008.088921)  can0  100   [6]  2C 00 AE 01 00 00
 (008.573579)  can0  100   [6]  2A 00 AE 01 00 00
 (008.575237)  can0  100   [6]  2A 00 AD 01 00 00
 (008.582089)  can0  100   [6]  2A 00 AE 01 00 00
 (008.591959)  can0  100   [6]  2A 00 AD 01 00 00
 (008.601822)  can0  100   [6]  2A 00 AD 01 00 00
 (008.603954)  can0  103   [2]  00 02
 (008.604798)  can0  104   [6]  00 00 00 00 00 00
 (008.605248)  can0  1FF   [1]  9C
 (008.611690)  can0  100   [6]  29 00 AD 01 00 00
 (008.621573)  can0  100   [6]  29 00 AD 01 00 00
 (008.631424)  can0  100   [6]  29 00 AD 01 00 00
 (008.641296)  can0  100   [6]  29 00 AE 01 00 00
 (008.651153)  can0  100   [6]  29 00 AE 01 00 00
 (008.651827)  can0  101   [4]  08 00 04 00
 (008.653231)  can0  103   [2]  00 02
 (008.654091)  can0  104   [6]  00 00 00 00 00 00
 (008.654535)  can0  1FF   [1]  9D
 (008.661016)  can0  100   [6]  29 00 AE 01 00 00
 (008.670902)  can0  100   [6]  2A 00 AE 01 00 00
 (008.680755)  can0  100   [6]  2A 00 AE 01 00 00
 (008.690626)  can0  100   [6]  2A 00 AE 01 00 00
 (008.700485)  can0  100   [6]  2A 00 AE 01 00 00
 (008.701152)  can0  101   [4]  FF FF F9 FF
 (008.702556)  can0  103   [2]  00 02
 (008.703401)  can0  104   [6]  00 00 00 00 00 00
 (008.703851)  can0  1FF   [1]  9E
 (008.710347)  can0  100   [6]  2A 00 AE 01 00 00
 (008.720215)  can0  100   [6]  2B 00 AE 01 00 00
 (008.730071)  can0  100   [6]  2B 00 AE 01 00 00
 (008.739938)  can0  100   [6]  2B 00 AE 01 00 00
 (008.749803)  can0  100   [6]  2B 00 AE 01 00 00
 (008.750543)  can0  101   [4]  07 00 F5 FF
 (008.752073)  can0  103   [2]  00 02
 (008.752983)  can0  104   [6]  00 00 00 00 00 00
 (008.753509)  can0  1FF   [1]  9F
 (008.759668)  can0  100   [6]  2B 00 AE 01 00 00
 (008.769554)  can0  100   [6]  2B 00 AE 01 00 00
 (008.779403)  can0  100   [6]  2B 00 AE 01 00 00
 (008.789294)  can0  100   [6]  2A 00 AE 01 00 00
 (008.799134)  can0  100   [6]  2A 00 AE 01 00 00
 (008.799872)  can0  101   [4]  0C 00 00 00
 (008.801401)  can0  103   [2]  00 02
 (008.802309)  can0  104   [6]  00 00 00 00 00 00
 (008.802837)  can0  1FF   [1]  A0
 (008.808997)  can0  100   [6]  2A 00 AF 01 00 00
 (008.818873)  can0  100   [6]  2B 00 AF 01 00 00
 (008.828740)  can0  100   [6]  2B 00 AF 01 00 00
 (008.838609)  can0  100   [6]  2B 00 AF 01 00 00
 (008.848480)  can0  100   [6]  2B 00 AF 01 00 00
 (008.849213)  can0  101   [4]  FA FF 00 00
 (008.850742)  can0  103   [2]  00 02
 (008.851650)  can0  104   [6]  00 00 00 00 00 00
 (008.852168)  can0  1FF   [1]  A1
 (008.858349)  can0  100   [6]  2B 00 B0 01 00 00
 (008.868216)  can0  100   [6]  2B 00 B0 01 00 00
 (008.878078)  can0  100   [6]  2B 00 B0 01 00 00
 (008.887940)  can0  100   [6]  2A 00 B0 01 00 00
 (008.897806)  can0  100   [6]  2A 00 B0 01 00 00
 (008.898550)  can0  101   [4]  01 00 08 00
 (008.900076)  can0  103   [2]  00 02
 (008.900987)  can0  104   [6]  00 00 00 00 00 00
 (008.901512)  can0  1FF   [1]  A2
 (008.907668)  can0  100   [6]  29 00 B0 01 00 00
 (008.917553)  can0  100   [6]  29 00 B0 01 00 00
 (008.927401)  can0  100   [6]  28 00 B0 01 00 00
 (008.937257)  can0  100   [6]  28 00 AF 01 00 00
 (008.947117)  can0  100   [6]  28 00 AF 01 00 00
 (008.947862)  can0  101   [4]  00 00 00 00
 (009.559922)  can0  100   [6]  2A 00 B0 01 00 00
 (009.561588)  can0  100   [6]  2A 00 B0 01 00 00
 (009.568448)  can0  100   [6]  2B 00 B0 01 00 00
 (009.578286)  can0  100   [6]  2A 00 AF 01 00 00
 (009.588167)  can0  100   [6]  2B 00 AF 01 00 00
 (009.588833)  can0  101   [4]  FE FF F7 FF
 (009.590238)  can0  103   [2]  00 02
 (009.591088)  can0  104   [6]  00 00 00 00 00 00
 (009.591540)  can0  1FF   [1]  B0
 (009.598015)  can0  100   [6]  2B 00 AF 01 00 00
 (009.607882)  can0  100   [6]  2B 00 B0 01 00 00
 (009.617750)  can0  100   [6]  2C 00 B1 01 00 00
 (009.627584)  can0  100   [6]  2D 00 B1 01 00 00
 (009.637447)  can0  100   [6]  2C 00 AF 01 00 00
 (009.639587)  can0  103   [2]  00 02
 (009.640798)  can0  1FF   [1]  B1
 (009.647308)  can0  100   [6]  2C 00 AF 01 00 00
 (009.667024)  can0  100   [6]  2D 00 AE 01 00 00
 (009.686772)  can0  100   [6]  2C 00 B0 01 00 00
 (009.687438)  can0  101   [4]  03 00 01 00
 (009.688903)  can0  103   [2]  00 02
 (009.689813)  can0  104   [6]  00 00 00 00 00 00
 (009.690324)  can0  1FF   [1]  B2
 (009.696615)  can0  100   [6]  2C 00 AF 01 00 00
 (009.706496)  can0  100   [6]  2C 00 B0 01 00 00
 (009.716333)  can0  100   [6]  2C 00 AF 01 00 00
 (009.726204)  can0  100   [6]  2C 00 AF 01 00 00
 (009.736056)  can0  100   [6]  2B 00 AF 01 00 00
 (009.738367)  can0  103   [2]  00 02
 (009.739276)  can0  104   [6]  00 00 00 00 00 00
 (009.739787)  can0  1FF   [1]  B3
 (009.745917)  can0  100   [6]  2B 00 AF 01 00 00
 (009.755782)  can0  100   [6]  2B 00 AF 01 00 00
 (009.765655)  can0  100   [6]  2C 00 AF 01 00 00
 (009.775491)  can0  100   [6]  2B 00 AE 01 00 00
 (009.785357)  can0  100   [6]  2A 00 AE 01 00 00
 (009.786093)  can0  101   [4]  03 00 04 00
 (009.787661)  can0  103   [2]  00 02
 (009.788530)  can0  104   [6]  00 00 00 00 00 00
 (009.789054)  can0  1FF   [1]  B4
 (009.795212)  can0  100   [6]  29 00 AF 01 00 00
 (009.805088)  can0  100   [6]  2A 00 AF 01 00 00
 (009.814932)  can0  100   [6]  2A 00 AE 01 00 00
 (009.824787)  can0  100   [6]  2A 00 AD 01 00 00
 (009.834635)  can0  100   [6]  29 00 AD 01 00 00
 (009.835364)  can0  101   [4]  03 00 00 00
 (009.837866)  can0  104   [6]  00 00 00 00 00 00
 (009.838385)  can0  1FF   [1]  B5
 (009.844490)  can0  100   [6]  2A 00 AE 01 00 00
 (009.854354)  can0  100   [6]  2A 00 AF 01 00 00
 (009.864213)  can0  100   [6]  2A 00 AF 01 00 00
 (010.546161)  can0  100   [6]  2B 00 AE 01 00 00
 (010.547838)  can0  100   [6]  2B 00 AF 01 00 00
 (010.554694)  can0  100   [6]  2B 00 B0 01 00 00
 (010.564559)  can0  100   [6]  2B 00 AF 01 00 00
 (010.565363)  can0  102   [6]  60 06 0D 06 2C 06
 (010.574450)  can0  100   [6]  2B 00 B0 01 00 00
 (010.575107)  can0  101   [4]  04 00 00 00
 (010.576512)  can0  103   [2]  00 02
 (010.577355)  can0  104   [6]  00 00 00 00 00 00
 (010.577803)  can0  1FF   [1]  C4
 (010.584307)  can0  100   [6]  2B 00 B0 01 00 00
 (010.594183)  can0  100   [6]  2B 00 B0 01 00 00
 (010.604015)  can0  100   [6]  2A 00 B0 01 00 00
 (010.613872)  can0  100   [6]  2A 00 B1 01 00 00
 (010.623745)  can0  100   [6]  2B 00 B1 01 00 00
 (010.624415)  can0  101   [4]  09 00 06 00
 (010.625819)  can0  103   [2]  00 02
 (010.626664)  can0  104   [6]  00 00 00 00 00 00
 (010.627109)  can0  1FF   [1]  C5
 (010.633609)  can0  100   [6]  2B 00 B1 01 00 00
 (010.643472)  can0  100   [6]  2A 00 B2 01 00 00
 (010.653348)  can0  100   [6]  29 00 B1 01 00 00
 (010.663212)  can0  100   [6]  29 00 B1 01 00 00
 (010.673085)  can0  100   [6]  29 00 B1 01 00 00
 (010.673736)  can0  101   [4]  FD FF 0F 00
 (010.675141)  can0  103   [2]  00 02
 (010.675988)  can0  104   [6]  00 00 00 00 00 00
 (010.676437)  can0  1FF   [1]  C6
 (010.682942)  can0  100   [6]  2A 00 B1 01 00 00
 (010.692831)  can0  100   [6]  2A 00 B0 01 00 00
 (010.702677)  can0  100   [6]  2A 00 B1 01 00 00
 (010.712545)  can0  100   [6]  2B 00 B1 01 00 00
 (010.722412)  can0  100   [6]  2B 00 B1 01 00 00
 (010.723095)  can0  101   [4]  FC FF FE FF
 (010.724501)  can0  103   [2]  00 02
 (010.725348)  can0  104   [6]  00 00 00 00 00 00
 (010.725796)  can0  1FF   [1]  C7
 (010.732281)  can0  100   [6]  2A 00 B1 01 00 00
 (010.742149)  can0  100   [6]  29 00 B1 01 00 00
 (010.752021)  can0  100   [6]  29 00 B2 01 00 00
 (010.761872)  can0  100   [6]  2A 00 B2 01 00 00
 (010.771738)  can0  100   [6]  29 00 B3 01 00 00
 (010.772469)  can0  101   [4]  FB FF 14 00
 (010.774010)  can0  103   [2]  00 02
 (010.775400)  can0  1FF   [1]  C8
 (010.781597)  can0  100   [6]  2A 00 B3 01 00 00
 (010.791461)  can0  100   [6]  2A 00 B3 01 00 00
 (010.801330)  can0  100   [6]  2A 00 B2 01 00 00
 (010.811194)  can0  100   [6]  2A 00 B3 01 00 00
 (010.821055)  can0  100   [6]  2A 00 B2 01 00 00
 (010.821784)  can0  101   [4]  FD FF 05 00
 (010.824319)  can0  104   [6]  00 00 00 00 00 00
 (010.824811)  can0  1FF   [1]  C9
 (010.830913)  can0  100   [6]  2B 00 B2 01 00 00
 (010.840773)  can0  100   [6]  2A 00 B3 01 00 00
 (010.850634)  can0  100   [6]  2A 00 B3 01 00 00
 (010.860499)  can0  100   [6]  2A 00 B2 01 00 00
 (010.870380)  can0  100   [6]  2A 00 B2 01 00 00
 (010.871091)  can0  101   [4]  03 00 07 00
 (010.872620)  can0  103   [2]  00 02
 (010.873530)  can0  104   [6]  00 00 00 00 00 00
 (010.874041)  can0  1FF   [1]  CA
 (010.880226)  can0  100   [6]  2A 00 B2 01 00 00
 (010.890091)  can0  100   [6]  2A 00 B1 01 00 00
 (010.899970)  can0  100   [6]  2B 00 B0 01 00 00
 (010.909836)  can0  100   [6]  2B 00 B0 01 00 00
 (010.919701)  can0  100   [6]  2B 00 B0 01 00 00
 (010.920441)  can0  101   [4]  07 00 00 00
 (011.532672)  can0  100   [6]  2A 00 AF 01 00 00
 (011.534330)  can0  100   [6]  2A 00 AF 01 00 00
 (011.541180)  can0  100   [6]  29 00 AF 01 00 00
 (011.551059)  can0  100   [6]  29 00 B0 01 00 00
 (011.560917)  can0  100   [6]  29 00 AF 01 00 00
 (011.561594)  can0  101   [4]  00 00 04 00
 (011.562999)  can0  103   [2]  00 02
 (011.563845)  can0  104   [6]  00 00 00 00 00 00
 (011.564297)  can0  1FF   [1]  D8
 (011.570794)  can0  100   [6]  29 00 AF 01 00 00
 (011.571598)  can0  102   [6]  60 06 0D 06 2C 06
 (011.580655)  can0  100   [6]  29 00 AE 01 00 00
 (011.590518)  can0  100   [6]  29 00 AF 01 00 00
 (011.600383)  can0  100   [6]  2A 00 AF 01 00 00
 (011.610244)  can0  100   [6]  2A 00 AD 01 00 00
 (011.610922)  can0  101   [4]  FB FF FE FF
 (011.612327)  can0  103   [2]  00 02
 (011.613171)  can0  104   [6]  00 00 00 00 00 00
 (011.613623)  can0  1FF   [1]  D9
 (011.620109)  can0  100   [6]  2A 00 AD 01 00 00
 (011.629970)  can0  100   [6]  29 00 AE 01 00 00
 (011.639832)  can0  100   [6]  29 00 AE 01 00 00
 (011.649691)  can0  100   [6]  29 00 AF 01 00 00
 (011.659560)  can0  100   [6]  2A 00 B0 01 00 00
 (011.660231)  can0  101   [4]  01 00 FF FF
 (011.661634)  can0  103   [2]  00 02
 (011.662484)  can0  104   [6]  00 00 00 00 00 00
 (011.662937)  can0  1FF   [1]  DA
 (011.669444)  can0  100   [6]  2A 00 B0 01 00 00
 (011.679345)  can0  100   [6]  2B 00 AF 01 00 00
 (011.689142)  can0  100   [6]  2A 00 AF 01 00 00
 (011.699022)  can0  100   [6]  2B 00 AF 01 00 00
 (011.708865)  can0  100   [6]  2A 00 AF 01 00 00
 (011.711069)  can0  103   [2]  00 02
 (011.711915)  can0  104   [6]  00 00 00 00 00 00
 (011.712371)  can0  1FF   [1]  DB
 (011.718742)  can0  100   [6]  2B 00 B0 01 00 00
 (011.728596)  can0  100   [6]  2A 00 B0 01 00 00
 (011.738454)  can0  100   [6]  2A 00 AF 01 00 00
 (011.748323)  can0  100   [6]  2B 00 AF 01 00 00
 (011.758170)  can0  100   [6]  2B 00 AE 01 00 00
 (011.758910)  can0  101   [4]  FD FF FB FF
 (011.760441)  can0  103   [2]  00 02
 (011.761369)  can0  104   [6]  00 00 00 00 00 00
 (011.761878)  can0  1FF   [1]  DC
 (011.768034)  can0  100   [6]  2B 00 AE 01 00 00
 (011.777899)  can0  100   [6]  2B 00 AE 01 00 00
 (011.787772)  can0  100   [6]  2C 00 AD 01 00 00
 (011.797637)  can0  100   [6]  2C 00 AD 01 00 00
 (011.807503)  can0  100   [6]  2C 00 AD 01 00 00
 (011.808237)  can0  101   [4]  01 00 00 00
 (011.811218)  can0  1FF   [1]  DD
 (011.817358)  can0  100   [6]  2C 00 AE 01 00 00
 (011.827216)  can0  100   [6]  2C 00 AD 01 00 00
 (011.837076)  can0  100   [6]  2B 00 AD 01 00 00
 (011.846937)  can0  100   [6]  2B 00 AD 01 00 00
 (011.856796)  can0  100   [6]  2B 00 AE 01 00 00
 (011.859131)  can0  103   [2]  00 02
 (011.860023)  can0  104   [6]  00 00 00 00 00 00
 (011.860548)  can0  1FF   [1]  DE
 (011.866663)  can0  100   [6]  2C 00 AE 01 00 00
 (011.876517)  can0  100   [6]  2B 00 AD 01 00 00
 (012.518964)  can0  100   [6]  2D 00 B1 01 00 00
 (012.520642)  can0  100   [6]  2D 00 B0 01 00 00
 (012.527481)  can0  100   [6]  2D 00 B0 01 00 00
 (012.537345)  can0  100   [6]  2D 00 B0 01 00 00
 (012.549364)  can0  103   [2]  00 02
 (012.550213)  can0  104   [6]  00 00 00 00 00 00
 (012.550665)  can0  1FF   [1]  EC
 (012.557080)  can0  100   [6]  2D 00 B0 01 00 00
 (012.586655)  can0  100   [6]  2D 00 AF 01 00 00
 (012.596533)  can0  100   [6]  2D 00 AF 01 00 00
 (012.597189)  can0  101   [4]  00 00 FE FF
 (012.598646)  can0  103   [2]  00 02
 (012.599445)  can0  104   [6]  00 00 00 00 00 00
 (012.599971)  can0  1FF   [1]  ED
 (012.606369)  can0  100   [6]  2E 00 AF 01 00 00
 (012.616233)  can0  100   [6]  2E 00 AF 01 00 00
 (012.626099)  can0  100   [6]  2E 00 AF 01 00 00
 (012.646603)  can0  101   [4]  05 00 F6 FF
 (012.648134)  can0  103   [2]  00 02
 (012.649043)  can0  104   [6]  00 00 00 00 00 00
 (012.649554)  can0  1FF   [1]  EE
 (012.655700)  can0  100   [6]  2C 00 AF 01 00 00
 (012.665563)  can0  100   [6]  2C 00 AF 01 00 00
 (012.675439)  can0  100   [6]  2C 00 B0 01 00 00
 (012.685300)  can0  100   [6]  2D 00 B0 01 00 00
 (012.695243)  can0  100   [6]  2C 00 B0 01 00 00
 (012.695959)  can0  101   [4]  FA FF 0A 00
 (012.697426)  can0  103   [2]  00 02
 (012.698334)  can0  104   [6]  00 00 00 00 00 00
 (012.698887)  can0  1FF   [1]  EF
 (012.705041)  can0  100   [6]  2C 00 B0 01 00 00
 (012.714906)  can0  100   [6]  2C 00 B0 01 00 00
 (012.734623)  can0  100   [6]  2C 00 B0 01 00 00
 (012.744484)  can0  100   [6]  2C 00 B0 01 00 00
 (012.745224)  can0  101   [4]  00 00 04 00
 (012.754341)  can0  100   [6]  2D 00 B0 01 00 00
 (013.505226)  can0  100   [6]  2B 00 B0 01 00 00
 (013.506911)  can0  100   [6]  2C 00 B1 01 00 00
 (013.513738)  can0  100   [6]  2B 00 B0 01 00 00
 (013.523589)  can0  100   [6]  2B 00 B1 01 00 00
 (013.533474)  can0  100   [6]  2C 00 B0 01 00 00
 (013.534142)  can0  101   [4]  01 00 00 00
 (013.535545)  can0  103   [2]  00 02
 (013.536406)  can0  104   [6]  00 00 00 00 00 00
 (013.536848)  can0  1FF   [1]  00
 (013.543327)  can0  100   [6]  2B 00 B0 01 00 00
 (013.553203)  can0  100   [6]  2C 00 B0 01 00 00
 (013.563046)  can0  100   [6]  2B 00 B0 01 00 00
 (013.572919)  can0  100   [6]  2C 00 B0 01 00 00
 (013.582775)  can0  100   [6]  2B 00 AF 01 00 00
 (013.583436)  can0  101   [4]  03 00 03 00
 (013.585744)  can0  104   [6]  00 00 00 00 00 00
 (013.586208)  can0  1FF   [1]  01
 (013.592645)  can0  100   [6]  2B 00 B0 01 00 00
 (013.602505)  can0  100   [6]  2B 00 B0 01 00 00
 (013.612354)  can0  100   [6]  2B 00 AF 01 00 00
 (013.622211)  can0  100   [6]  2C 00 AF 01 00 00
 (013.632076)  can0  100   [6]  2B 00 AF 01 00 00
 (013.632741)  can0  101   [4]  00 00 F6 FF
 (013.634147)  can0  103   [2]  00 02
 (013.634992)  can0  104   [6]  00 00 00 00 00 00
 (013.635447)  can0  1FF   [1]  02
 (013.641925)  can0  100   [6]  2B 00 AF 01 00 00
 (013.651789)  can0  100   [6]  2B 00 AF 01 00 00
 (013.661650)  can0  100   [6]  2B 00 AF 01 00 00
 (013.671517)  can0  100   [6]  2B 00 AF 01 00 00
 (013.681383)  can0  100   [6]  2C 00 AF 01 00 00
 (013.682175)  can0  101   [4]  00 00 02 00
 (013.683660)  can0  103   [2]  00 02
 (013.684567)  can0  104   [6]  00 00 00 00 00 00
 (013.685087)  can0  1FF   [1]  03
 (013.691243)  can0  100   [6]  2C 00 AF 01 00 00
 (013.701112)  can0  100   [6]  2C 00 AF 01 00 00
 (013.710972)  can0  100   [6]  2C 00 AF 01 00 00
 (013.720838)  can0  100   [6]  2B 00 B0 01 00 00
 (013.730694)  can0  100   [6]  2B 00 AF 01 00 00
 (013.731419)  can0  101   [4]  02 00 05 00
 (013.732949)  can0  103   [2]  00 02
 (013.733858)  can0  104   [6]  00 00 00 00 00 00
 (013.734385)  can0  1FF   [1]  04
 (013.740557)  can0  100   [6]  2B 00 AF 01 00 00
 (013.750441)  can0  100   [6]  2B 00 AF 01 00 00
 (013.760289)  can0  100   [6]  2B 00 AF 01 00 00
 (013.770146)  can0  100   [6]  2B 00 AF 01 00 00
 (013.780001)  can0  100   [6]  2A 00 AF 01 00 00
 (013.780733)  can0  101   [4]  FF FF FC FF
 (013.782267)  can0  103   [2]  00 02
 (013.783177)  can0  104   [6]  00 00 00 00 00 00
 (013.783697)  can0  1FF   [1]  05
 (013.789867)  can0  100   [6]  2A 00 AF 01 00 00
 (013.799734)  can0  100   [6]  29 00 AE 01 00 00
 (013.809600)  can0  100   [6]  2A 00 AE 01 00 00
 (013.819469)  can0  100   [6]  2A 00 AE 01 00 00
 (013.829327)  can0  100   [6]  2A 00 AD 01 00 00
 (013.830054)  can0  101   [4]  00 00 FE FF
 (013.831583)  can0  103   [2]  00 02
 (013.832494)  can0  104   [6]  00 00 00 00 00 00
 (013.833020)  can0  1FF   [1]  06
 (013.839187)  can0  100   [6]  2A 00 AD 01 00 00
 (013.849047)  can0  100   [6]  2A 00 AD 01 00 00
 (013.858922)  can0  100   [6]  2B 00 AE 01 00 00
 (013.868769)  can0  100   [6]  2B 00 AE 01 00 00
 (013.878629)  can0  100   [6]  2A 00 AE 01 00 00
 (014.491281)  can0  100   [6]  2B 00 B0 01 00 00
 (014.492959)  can0  100   [6]  2B 00 B0 01 00 00
 (014.499815)  can0  100   [6]  2B 00 B0 01 00 00
 (014.509670)  can0  100   [6]  2B 00 B0 01 00 00
 (014.519491)  can0  100   [6]  2A 00 B1 01 00 00
 (014.520142)  can0  101   [4]  F2 FF 08 00
 (014.522857)  can0  1FF   [1]  14
 (014.529347)  can0  100   [6]  2B 00 B1 01 00 00
 (014.539211)  can0  100   [6]  2B 00 B1 01 00 00
 (014.549088)  can0  100   [6]  2B 00 B0 01 00 00
 (014.558929)  can0  100   [6]  2B 00 B1 01 00 00
 (014.568794)  can0  100   [6]  2B 00 B1 01 00 00
 (014.569476)  can0  101   [4]  00 00 02 00
 (014.572111)  can0  1FF   [1]  15
 (014.578656)  can0  100   [6]  2B 00 B1 01 00 00
 (014.588525)  can0  100   [6]  2C 00 B1 01 00 00
 (014.598383)  can0  100   [6]  2C 00 B1 01 00 00
 (014.608250)  can0  100   [6]  2D 00 B1 01 00 00
 (014.618077)  can0  100   [6]  2D 00 B2 01 00 00
 (014.618751)  can0  101   [4]  00 00 09 00
 (014.621575)  can0  1FF   [1]  16
 (014.627956)  can0  100   [6]  2C 00 B1 01 00 00
 (014.637815)  can0  100   [6]  2C 00 B1 01 00 00
 (014.647667)  can0  100   [6]  2C 00 B1 01 00 00
 (014.667380)  can0  100   [6]  2C 00 B0 01 00 00
 (014.668109)  can0  101   [4]  FF FF 03 00
 (014.669640)  can0  103   [2]  00 02
 (014.671003)  can0  1FF   [1]  17
 (014.687092)  can0  100   [6]  2D 00 B0 01 00 00
 (014.696954)  can0  100   [6]  2E 00 B0 01 00 00
 (014.706792)  can0  100   [6]  2E 00 AF 01 00 00
 (014.716677)  can0  100   [6]  2E 00 B0 01 00 00
 (014.717394)  can0  101   [4]  05 00 F6 FF
 (015.477197)  can0  100   [6]  2B 00 B0 01 00 00
 (015.478880)  can0  100   [6]  2C 00 B1 01 00 00
 (015.485716)  can0  100   [6]  2C 00 B0 01 00 00
 (015.495574)  can0  100   [6]  2C 00 B0 01 00 00
 (015.505442)  can0  100   [6]  2C 00 B0 01 00 00
 (015.506107)  can0  101   [4]  06 00 04 00
 (015.507525)  can0  103   [2]  00 02
 (015.508357)  can0  104   [6]  00 00 00 00 00 00
 (015.508805)  can0  1FF   [1]  28
 (015.515292)  can0  100   [6]  2D 00 B0 01 00 00
 (015.534986)  can0  100   [6]  2E 00 AE 01 00 00
 (015.544843)  can0  100   [6]  2E 00 AE 01 00 00
 (015.554712)  can0  100   [6]  2D 00 AE 01 00 00
 (015.558115)  can0  1FF   [1]  29
 (015.564564)  can0  100   [6]  2D 00 AE 01 00 00
 (015.574438)  can0  100   [6]  2D 00 AE 01 00 00
 (015.594140)  can0  100   [6]  2E 00 AF 01 00 00
 (015.604018)  can0  100   [6]  2E 00 AF 01 00 00
 (015.607693)  can0  1FF   [1]  2A
 (015.613862)  can0  100   [6]  2F 00 AF 01 00 00
 (015.623721)  can0  100   [6]  2F 00 AF 01 00 00
 (015.633572)  can0  100   [6]  2F 00 AF 01 00 00
 (015.643433)  can0  100   [6]  2F 00 B0 01 00 00
 (015.653290)  can0  100   [6]  2F 00 B0 01 00 00
 (015.656906)  can0  1FF   [1]  2B
 (015.663151)  can0  100   [6]  30 00 AF 01 00 00
 (015.673013)  can0  100   [6]  30 00 AF 01 00 00
 (015.682872)  can0  100   [6]  30 00 AF 01 00 00
 (015.692716)  can0  100   [6]  30 00 AF 01 00 00
 (015.702577)  can0  100   [6]  30 00 AF 01 00 00
 (015.703308)  can0  101   [4]  FD FF 05 00
 (016.463195)  can0  100   [6]  2B 00 B0 01 00 00
 (016.464875)  can0  100   [6]  2B 00 B0 01 00 00
 (016.471707)  can0  100   [6]  2B 00 B0 01 00 00
 (016.481562)  can0  100   [6]  2B 00 B0 01 00 00
 (016.491412)  can0  100   [6]  2A 00 B0 01 00 00
 (016.492063)  can0  101   [4]  F6 FF FC FF
 (016.493467)  can0  103   [2]  00 02
 (016.494653)  can0  1FF   [1]  3C
 (016.501263)  can0  100   [6]  2A 00 AF 01 00 00
 (016.511117)  can0  100   [6]  2A 00 AF 01 00 00
 (016.520976)  can0  100   [6]  29 00 AF 01 00 00
 (016.530831)  can0  100   [6]  29 00 AF 01 00 00
 (016.540694)  can0  100   [6]  2A 00 B0 01 00 00
 (016.541350)  can0  101   [4]  FC FF FA FF
 (016.543996)  can0  1FF   [1]  3D
 (016.550576)  can0  100   [6]  2B 00 B0 01 00 00
 (016.560411)  can0  100   [6]  2B 00 AF 01 00 00
 (016.570268)  can0  100   [6]  2B 00 AF 01 00 00
 (016.580124)  can0  100   [6]  2B 00 AF 01 00 00
 (016.589985)  can0  100   [6]  2B 00 AF 01 00 00
 (016.590652)  can0  101   [4]  03 00 FE FF
 (016.593515)  can0  1FF   [1]  3E
 (016.599845)  can0  100   [6]  2A 00 B0 01 00 00
 (016.609715)  can0  100   [6]  2B 00 B0 01 00 00
 (016.619575)  can0  100   [6]  2B 00 AF 01 00 00
 (016.629435)  can0  100   [6]  2B 00 B0 01 00 00
 (016.639290)  can0  100   [6]  2C 00 AF 01 00 00
 (016.640030)  can0  101   [4]  04 00 01 00
 (016.641570)  can0  103   [2]  00 02
 (016.642489)  can0  104   [6]  00 00 00 00 00 00
 (016.642990)  can0  1FF   [1]  3F
 (016.649171)  can0  100   [6]  2C 00 B0 01 00 00
 (016.659024)  can0  100   [6]  2B 00 B0 01 00 00
 (016.668892)  can0  100   [6]  2B 00 B0 01 00 00
 (016.678751)  can0  100   [6]  2B 00 B0 01 00 00
 (016.688610)  can0  100   [6]  2B 00 B0 01 00 00
 (016.689339)  can0  101   [4]  FF FF F6 FF
 (016.692186)  can0  1FF   [1]  40
 (016.698461)  can0  100   [6]  2B 00 B0 01 00 00
 (016.708315)  can0  100   [6]  2A 00 B0 01 00 00
 (016.718167)  can0  100   [6]  2A 00 B1 01 00 00
 (016.728032)  can0  100   [6]  2B 00 B2 01 00 00
 (016.737911)  can0  100   [6]  2C 00 B1 01 00 00
 (016.738631)  can0  101   [4]  07 00 02 00
 (016.740178)  can0  103   [2]  00 02
 (016.741080)  can0  104   [6]  00 00 00 00 00 00
 (017.467556)  can0  100   [6]  2D 00 AE 01 00 00
 (017.477420)  can0  100   [6]  2D 00 AE 01 00 00
 (017.478082)  can0  101   [4]  03 00 FD FF
 (017.479487)  can0  103   [2]  00 02
 (017.480336)  can0  104   [6]  00 00 00 00 00 00
 (017.480804)  can0  1FF   [1]  50
 (017.487291)  can0  100   [6]  2C 00 AF 01 00 00
 (017.497156)  can0  100   [6]  2D 00 AF 01 00 00
 (017.507018)  can0  100   [6]  2D 00 AE 01 00 00
 (017.516912)  can0  100   [6]  2D 00 AE 01 00 00
 (017.526738)  can0  100   [6]  2D 00 AE 01 00 00
 (017.527400)  can0  101   [4]  01 00 02 00
 (017.528805)  can0  103   [2]  00 02
 (017.529651)  can0  104   [6]  00 00 00 00 00 00
 (017.530100)  can0  1FF   [1]  51
 (017.546452)  can0  100   [6]  2D 00 AE 01 00 00
 (017.556311)  can0  100   [6]  2D 00 AE 01 00 00
 (017.566170)  can0  100   [6]  2D 00 AE 01 00 00
 (017.576801)  can0  101   [4]  02 00 F6 FF
 (017.578332)  can0  103   [2]  00 02
 (017.579626)  can0  1FF   [1]  52
 (017.585896)  can0  100   [6]  2E 00 AF 01 00 00
 (017.595761)  can0  100   [6]  2E 00 AE 01 00 00
 (017.605621)  can0  100   [6]  2E 00 AF 01 00 00
 (017.615478)  can0  100   [6]  2E 00 AF 01 00 00
 (017.625341)  can0  100   [6]  2E 00 AF 01 00 00
 (017.627654)  can0  103   [2]  00 02
 (017.628587)  can0  104   [6]  00 00 00 00 00 00
 (017.629098)  can0  1FF   [1]  53
 (017.635203)  can0  100   [6]  2E 00 AF 01 00 00
 (017.645079)  can0  100   [6]  2D 00 B0 01 00 00
 (017.654948)  can0  100   [6]  2D 00 B0 01 00 00
 (017.664816)  can0  100   [6]  2D 00 B0 01 00 00
 (017.674662)  can0  100   [6]  2D 00 AF 01 00 00
 (017.675392)  can0  101   [4]  05 00 05 00
 (017.676923)  can0  103   [2]  00 02
 (017.677833)  can0  104   [6]  00 00 00 00 00 00
 (017.678353)  can0  1FF   [1]  54
 (017.684533)  can0  100   [6]  2D 00 AF 01 00 00
 (017.704271)  can0  100   [6]  2D 00 B0 01 00 00
 (017.714123)  can0  100   [6]  2D 00 B1 01 00 00
 (017.723993)  can0  100   [6]  2D 00 B0 01 00 00
 (018.435401)  can0  100   [6]  2D 00 B0 01 00 00
 (018.443916)  can0  100   [6]  2C 00 B1 01 00 00
 (018.453779)  can0  100   [6]  2C 00 B1 01 00 00
 (018.463639)  can0  100   [6]  2C 00 B0 01 00 00
 (018.464309)  can0  101   [4]  F7 FF FF FF
 (018.465722)  can0  103   [2]  00 02
 (018.466927)  can0  1FF   [1]  64
 (018.473498)  can0  100   [6]  2C 00 B0 01 00 00
 (018.483359)  can0  100   [6]  2C 00 B0 01 00 00
 (018.493219)  can0  100   [6]  2C 00 B1 01 00 00
 (018.503075)  can0  100   [6]  2C 00 B1 01 00 00
 (018.512940)  can0  100   [6]  2C 00 B0 01 00 00
 (018.513613)  can0  101   [4]  FF FF FC FF
 (018.515019)  can0  103   [2]  00 02
 (018.515878)  can0  104   [6]  00 00 00 00 00 00
 (018.516320)  can0  1FF   [1]  65
 (018.522809)  can0  100   [6]  2C 00 B1 01 00 00
 (018.532691)  can0  100   [6]  2C 00 B1 01 00 00
 (018.542535)  can0  100   [6]  2C 00 B1 01 00 00
 (018.552399)  can0  100   [6]  2C 00 B1 01 00 00
 (018.562253)  can0  100   [6]  2C 00 B1 01 00 00
 (018.562922)  can0  101   [4]  F5 FF 04 00
 (018.564331)  can0  103   [2]  00 02
 (018.565176)  can0  104   [6]  00 00 00 00 00 00
 (018.565631)  can0  1FF   [1]  66
 (018.572106)  can0  100   [6]  2C 00 B2 01 00 00
 (018.581973)  can0  100   [6]  2C 00 B2 01 00 00
 (018.591838)  can0  100   [6]  2C 00 B2 01 00 00
 (018.601702)  can0  100   [6]  2C 00 B2 01 00 00
 (018.611561)  can0  100   [6]  2C 00 B2 01 00 00
 (018.612295)  can0  101   [4]  01 00 00 00
 (018.613827)  can0  103   [2]  00 02
 (018.614737)  can0  104   [6]  00 00 00 00 00 00
 (018.615249)  can0  1FF   [1]  67
 (018.621436)  can0  100   [6]  2C 00 B1 01 00 00
 (018.631300)  can0  100   [6]  2C 00 B1 01 00 00
 (018.641173)  can0  100   [6]  2C 00 B1 01 00 00
 (018.660883)  can0  100   [6]  2C 00 AF 01 00 00
 (018.661619)  can0  101   [4]  FB FF 02 00
 (018.663143)  can0  103   [2]  00 02
 (018.664076)  can0  104   [6]  00 00 00 00 00 00
 (018.664579)  can0  1FF   [1]  68
 (018.670742)  can0  100   [6]  2D 00 B0 01 00 00
 (018.680601)  can0  100   [6]  2B 00 B0 01 00 00
 (018.690472)  can0  100   [6]  2C 00 B0 01 00 00
 (018.700336)  can0  100   [6]  2C 00 B0 01 00 00
 (018.710190)  can0  100   [6]  2D 00 B0 01 00 00
 (018.710923)  can0  101   [4]  05 00 05 00
 (018.712454)  can0  103   [2]  00 02
 (018.713362)  can0  104   [6]  00 00 00 00 00 00
 (018.713890)  can0  1FF   [1]  69
 (018.720052)  can0  100   [6]  2D 00 B0 01 00 00
 (018.729913)  can0  100   [6]  2D 00 B0 01 00 00
 (018.739770)  can0  100   [6]  2D 00 B1 01 00 00
 (018.749652)  can0  100   [6]  2C 00 B0 01 00 00
 (018.759494)  can0  100   [6]  2D 00 B1 01 00 00
 (019.421738)  can0  100   [6]  2D 00 AE 01 00 00
 (019.423400)  can0  100   [6]  2D 00 AE 01 00 00
 (019.430250)  can0  100   [6]  2D 00 AE 01 00 00
 (019.440115)  can0  100   [6]  2C 00 AF 01 00 00
 (019.449973)  can0  100   [6]  2C 00 AF 01 00 00
 (019.450639)  can0  101   [4]  F9 FF 00 00
 (019.452044)  can0  103   [2]  00 02
 (019.452890)  can0  104   [6]  00 00 00 00 00 00
 (019.453340)  can0  1FF   [1]  78
 (019.459834)  can0  100   [6]  2D 00 AF 01 00 00
 (019.469701)  can0  100   [6]  2C 00 AF 01 00 00
 (019.479560)  can0  100   [6]  2C 00 AF 01 00 00
 (019.489421)  can0  100   [6]  2C 00 AF 01 00 00
 (019.499285)  can0  100   [6]  2C 00 AF 01 00 00
 (019.499958)  can0  101   [4]  01 00 00 00
 (019.501358)  can0  103   [2]  00 02
 (019.502206)  can0  104   [6]  00 00 00 00 00 00
 (019.502655)  can0  1FF   [1]  79
 (019.509148)  can0  100   [6]  2C 00 AF 01 00 00
 (019.519028)  can0  100   [6]  2C 00 B0 01 00 00
 (019.538749)  can0  100   [6]  2C 00 B0 01 00 00
 (019.548599)  can0  100   [6]  2B 00 B0 01 00 00
 (019.549287)  can0  101   [4]  01 00 00 00
 (019.550672)  can0  103   [2]  00 02
 (019.551517)  can0  104   [6]  00 00 00 00 00 00
 (019.551966)  can0  1FF   [1]  7A
 (019.558469)  can0  100   [6]  2C 00 B0 01 00 00
 (019.568330)  can0  100   [6]  2B 00 B0 01 00 00
 (019.578187)  can0  100   [6]  2B 00 B0 01 00 00
 (019.588054)  can0  100   [6]  2B 00 B0 01 00 00
 (019.597911)  can0  100   [6]  2B 00 B0 01 00 00
 (019.600234)  can0  103   [2]  00 02
 (019.601142)  can0  104   [6]  00 00 00 00 00 00
 (019.601662)  can0  1FF   [1]  7B
 (019.607771)  can0  100   [6]  2B 00 B0 01 00 00
 (019.617636)  can0  100   [6]  2B 00 B0 01 00 00
 (019.627496)  can0  100   [6]  2B 00 B0 01 00 00
 (019.637352)  can0  100   [6]  2B 00 AF 01 00 00
 (019.647244)  can0  100   [6]  2B 00 AF 01 00 00
 (019.650513)  can0  104   [6]  00 00 00 00 00 00
 (019.651019)  can0  1FF   [1]  7C
 (019.657063)  can0  100   [6]  2B 00 AF 01 00 00
 (019.666926)  can0  100   [6]  2B 00 AF 01 00 00
 (019.676786)  can0  100   [6]  2B 00 AF 01 00 00
 (019.686659)  can0  100   [6]  2B 00 B0 01 00 00
 (019.696506)  can0  100   [6]  2C 00 AF 01 00 00
 (019.700150)  can0  1FF   [1]  7D
 (019.706364)  can0  100   [6]  2C 00 AF 01 00 00
